Time Stamp,ID,Extended,Dir,Bus,LEN,D1,D2,D3,D4,D5,D6,D7,D8
112540800,00000563,false,Rx,0,8,65,02,00,00,00,00,FF,FF,
112544798,000001AB,false,Rx,0,8,74,6F,44,40,70,48,00,00,
112544873,000001AC,false,Rx,0,8,00,28,00,00,00,00,00,00,
112547691,000003B6,false,Rx,0,8,C8,07,1A,00,00,00,00,33,
112547729,000003B7,false,Rx,0,8,32,00,00,00,00,00,00,00,
112547762,000003B8,false,Rx,0,8,EE,02,00,00,00,00,69,0E,
112548691,000003B9,false,Rx,0,8,00,00,00,00,00,00,00,00,
112548720,00000036,false,Rx,0,8,A7,A2,31,51,05,00,25,01,
112548764,00000037,false,Rx,0,8,00,4B,01,10,7C,40,7C,00,
112548801,00000038,false,Rx,0,8,04,00,00,00,90,38,96,D4,
112549689,00000039,false,Rx,0,8,05,00,00,00,00,00,00,00,
112549723,000001F1,false,Rx,0,8,A3,D9,CD,00,00,00,24,00,
112549755,000001F2,false,Rx,0,8,00,00,00,00,00,00,00,00,
112552690,0000011B,false,Rx,0,8,3F,BF,67,05,80,08,A8,02,
112552740,0000012B,false,Rx,0,8,78,45,67,06,00,00,08,00,
112553691,0000011C,false,Rx,0,8,00,05,20,00,22,00,01,01,
112553731,0000012C,false,Rx,0,8,00,00,01,00,00,64,00,00,
112555688,00000475,false,Rx,0,8,12,00,00,00,00,00,00,00,
112556691,00000496,false,Rx,0,8,12,00,00,00,00,00,00,00,
112556723,000004E8,false,Rx,0,8,FF,FF,FF,02,FF,FF,FF,00,
112561688,0000010B,false,Rx,0,8,19,34,21,00,00,16,00,05,
112561729,0000010C,false,Rx,0,8,FF,F9,E7,1F,34,31,34,31,
112561785,0000010D,false,Rx,0,8,F2,02,16,00,10,00,00,35,
112561818,0000010E,false,Rx,0,8,7C,00,0A,00,7C,C0,AB,57,
112563698,00000121,false,Rx,0,8,5D,57,21,00,00,1E,00,05,
112563734,00000122,false,Rx,0,8,FF,D9,67,1F,3C,31,3C,33,
112563785,00000123,false,Rx,0,8,F2,02,1E,00,10,00,00,35,
112563817,00000124,false,Rx,0,8,7C,00,0A,00,7C,00,20,40,
112564694,00000061,false,Rx,0,8,E8,B1,03,00,00,00,00,00,
112564741,00000062,false,Rx,0,8,02,02,00,02,40,FF,00,FF,
112565689,00000063,false,Rx,0,8,9C,01,15,00,00,08,FD,00,
112565729,00000064,false,Rx,0,8,00,00,00,04,FF,FA,00,00,
112565763,000000A1,false,Rx,0,8,BB,B0,03,02,04,00,00,00,
112565796,000000A2,false,Rx,0,8,00,00,00,00,00,00,00,00,
112566689,000000A3,false,Rx,0,8,00,40,01,00,00,00,00,00,
112569688,0000019B,false,Rx,0,8,08,26,76,00,00,E4,00,00,
112569718,0000019C,false,Rx,0,8,40,20,00,00,00,00,0B,09,
112570691,0000019D,false,Rx,0,8,00,10,00,01,00,00,00,00,
112570720,0000019E,false,Rx,0,8,15,00,00,00,00,32,00,00,
112583691,00000251,false,Rx,0,8,E6,9A,36,00,00,00,00,00,
112583738,00000252,false,Rx,0,8,00,00,00,00,03,00,00,11,
112583804,00000253,false,Rx,0,8,12,00,00,39,39,00,80,30,
112585693,00000448,false,Rx,0,8,7F,00,00,00,00,00,00,00,
112591688,000001E6,false,Rx,0,8,3A,2C,76,02,00,00,00,00,
112591720,000001E7,false,Rx,0,8,00,00,22,03,20,01,00,00,
112591775,000001BB,false,Rx,0,8,1F,8F,76,02,00,00,00,0A,
112591803,000001BC,false,Rx,0,8,32,00,00,00,03,00,00,00,
112591838,00000382,false,Rx,0,8,22,3D,00,00,00,01,08,00,
112592690,000001BD,false,Rx,0,8,00,00,00,00,00,00,00,00,
112596689,000004E8,false,Rx,0,8,FF,FF,FF,02,FF,FF,FF,00,
112598695,00000036,false,Rx,0,8,54,3C,36,51,05,00,25,01,
112598726,00000037,false,Rx,0,8,00,4B,01,10,7C,40,7C,00,
112598760,00000038,false,Rx,0,8,04,00,00,00,90,38,96,D4,
112599690,000003A1,false,Rx,0,8,02,53,28,00,FF,FF,FF,FF,
112599715,00000039,false,Rx,0,8,05,00,00,00,00,00,00,00,
112599752,000003A2,false,Rx,0,8,00,00,00,00,00,00,00,00,
112602761,00000091,false,Rx,0,8,6B,1D,36,00,00,00,00,00,
112602828,00000092,false,Rx,0,8,00,00,00,00,00,00,00,00,
112602906,0000012B,false,Rx,0,8,B0,BC,6C,06,00,00,08,00,
112602947,00000093,false,Rx,0,8,00,00,00,00,00,00,00,00,
112603066,0000012C,false,Rx,0,8,00,00,01,00,00,64,00,00,
112603740,00000094,false,Rx,0,8,00,00,00,00,00,00,00,00,
112603778,00000161,false,Rx,0,8,FA,7A,B6,03,00,00,00,02,
112603816,0000011B,false,Rx,0,8,F7,46,6C,05,80,08,A8,02,
112604687,00000162,false,Rx,0,8,FF,FC,01,00,00,00,00,00,
112604740,0000011C,false,Rx,0,8,00,05,20,00,22,00,01,01,
112604782,000001E1,false,Rx,0,8,36,31,7C,02,00,00,00,00,
112604819,000001E2,false,Rx,0,8,00,00,00,00,00,00,00,00,
112605691,000000C5,false,Rx,0,8,00,00,00,00,00,00,00,00,
112606750,00000244,false,Rx,0,8,FF,FF,FF,FF,FF,FF,FF,FF,
112606794,00000146,false,Rx,0,8,98,3A,0E,10,04,01,00,00,
112606836,000004B4,false,Rx,0,8,00,00,00,00,00,00,00,00,
112606893,00000147,false,Rx,0,8,00,04,7D,00,40,00,00,00,
112606937,000004B5,false,Rx,0,8,08,00,F0,07,00,00,00,00,
112607703,00000148,false,Rx,0,8,00,00,00,00,00,5E,40,05,
112607745,000001B1,false,Rx,0,8,A3,8D,0E,00,72,00,00,00,
112607779,00000149,false,Rx,0,8,00,00,00,00,00,00,00,00,
112609117,000001B2,false,Rx,0,8,23,00,04,0E,8C,00,79,EA,
112609182,000004B7,false,Rx,0,8,08,00,F0,07,00,00,00,00,
112609238,000001B3,false,Rx,0,8,8C,16,00,00,61,65,69,65,
112609303,000004CA,false,Rx,0,8,00,00,00,00,00,00,00,00,
112609387,000001B4,false,Rx,0,8,63,67,17,00,00,40,01,00,
112609455,000004CC,false,Rx,0,8,08,00,00,03,00,00,03,00,
112609767,000002AC,false,Rx,0,8,00,FF,FF,00,00,40,00,50,
112609809,000004CE,false,Rx,0,8,14,01,FF,FF,FF,FF,FF,FF,
112610772,000002AD,false,Rx,0,8,00,01,00,40,FF,FF,FF,0F,
112610813,000004D7,false,Rx,0,8,23,01,00,00,00,00,00,00,
112610843,000002AE,false,Rx,0,8,01,00,FF,3F,00,01,00,00,
112611546,000004D8,false,Rx,0,8,41,10,F0,F0,40,F2,1E,CC,
112612116,0000010B,false,Rx,0,8,EA,D8,26,00,00,16,00,05,
112612262,000002B6,false,Rx,0,8,E4,9C,39,01,00,00,00,40,
112612500,0000010C,false,Rx,0,8,FF,F9,E7,1F,34,31,34,32,
112612543,000002B7,false,Rx,0,8,12,01,7F,00,00,04,00,00,
112612584,0000010D,false,Rx,0,8,F2,02,16,00,10,00,00,35,
112612626,000002B8,false,Rx,0,8,23,B1,0B,00,00,00,00,00,
112612664,0000010E,false,Rx,0,8,7C,00,0A,00,7C,C0,AB,57,
112612733,000001A1,false,Rx,0,8,D6,86,B6,FE,F7,7F,64,00,
112614791,000002B9,false,Rx,0,8,0A,00,00,00,00,00,00,00,
112614944,00000121,false,Rx,0,8,AE,C9,26,00,00,1E,00,05,
112615077,000001A2,false,Rx,0,8,00,00,00,00,00,08,00,00,
112615130,000000FF,false,Rx,0,8,CB,10,00,00,00,00,02,00,
112615228,00000122,false,Rx,0,8,FF,D9,67,1F,3C,31,3C,33,
112615293,00000124,false,Rx,0,8,7C,00,0A,00,7C,00,20,40,
112615415,00000062,false,Rx,0,8,02,02,00,02,40,FF,00,FF,
112615470,000001A4,false,Rx,0,8,FE,07,00,00,00,00,00,00,
112615715,00000063,false,Rx,0,8,9C,01,15,00,00,08,FD,00,
112616704,000002C1,false,Rx,0,8,C2,DA,1D,21,00,41,00,A1,
112616761,00000064,false,Rx,0,8,00,00,00,04,FF,FA,00,00,
112616792,000002C2,false,Rx,0,8,40,00,00,00,00,00,00,00,
112616820,000000A1,false,Rx,0,8,87,41,08,02,04,00,00,00,
112616858,000002C3,false,Rx,0,8,00,00,00,00,00,00,00,00,
112617706,000000A2,false,Rx,0,8,00,00,00,00,00,00,00,00,
112617768,000002C4,false,Rx,0,8,00,00,00,00,00,00,00,00,
112617806,000000A3,false,Rx,0,8,00,40,01,00,00,00,00,00,
112618011,000002E1,false,Rx,0,8,3A,4D,39,00,00,00,00,40,
112618042,0000033B,false,Rx,0,8,AD,D4,3F,00,00,00,00,00,
112619419,000002E2,false,Rx,0,8,FD,00,00,00,00,14,00,04,
112619490,0000033C,false,Rx,0,8,00,00,00,00,F0,00,00,00,
112619548,000002E3,false,Rx,0,8,00,00,00,00,00,00,72,01,
112619579,0000033D,false,Rx,0,8,00,00,00,00,00,00,00,00,
112619623,000002E4,false,Rx,0,8,02,00,00,00,00,00,00,00,
112619678,0000019B,false,Rx,0,8,05,E0,7B,00,00,E4,00,00,
112620696,0000033E,false,Rx,0,8,00,00,00,00,00,00,00,00,
112620729,0000019C,false,Rx,0,8,40,20,00,00,00,00,0B,09,
112620759,0000036F,false,Rx,0,8,38,D1,01,00,00,00,00,00,
112620796,0000019D,false,Rx,0,8,00,10,00,01,00,00,00,00,
112620831,0000034B,false,Rx,0,8,F2,B7,9F,31,D8,0D,05,01,
112622100,0000019E,false,Rx,0,8,15,00,00,00,00,32,00,00,
112622448,0000034C,false,Rx,0,8,00,00,00,00,00,00,00,00,
112622518,000003C3,false,Rx,0,8,45,10,31,30,36,00,00,00,
112622581,0000034D,false,Rx,0,8,00,00,00,00,00,00,00,00,
112622647,000003B2,false,Rx,0,8,36,15,FF,02,29,2F,34,00,
112622688,0000034E,false,Rx,0,8,00,00,00,00,00,00,00,00,
112622986,00000356,false,Rx,0,8,A8,95,1F,00,00,00,00,00,
112623061,000001FB,false,Rx,0,8,AF,15,BE,00,00,00,00,00,
112623469,00000357,false,Rx,0,8,00,00,00,00,00,4B,4D,48,
112624588,000001FC,false,Rx,0,8,00,00,00,00,00,00,00,00,
112624672,00000358,false,Rx,0,8,35,41,45,4D,52,37,33,4F,
112624745,000001FD,false,Rx,0,8,00,1A,03,00,00,00,00,00,
112624790,00000359,false,Rx,0,8,51,4F,34,52,4A,35,33,00,
112624835,000001FE,false,Rx,0,8,00,00,00,00,00,00,00,00,
112624902,0000037F,false,Rx,0,8,83,A0,52,24,41,02,00,00,
112624950,000003E5,false,Rx,0,8,48,40,01,00,00,00,00,00,
112626067,00000380,false,Rx,0,8,AD,D7,FF,00,00,00,00,01,
112626158,000003E6,false,Rx,0,8,6F,E0,00,00,00,00,00,00,
112626235,00000383,false,Rx,0,8,C1,AA,00,00,02,00,00,00,
112626294,0000041A,false,Rx,0,8,AC,10,12,00,50,41,00,00,
112626341,00000394,false,Rx,0,8,2A,22,1A,49,00,00,00,00,
112626376,0000041B,false,Rx,0,8,70,D0,00,00,00,00,00,00,
112626700,000003B0,false,Rx,0,8,72,37,FF,C7,00,00,03,C0,
112626767,0000041C,false,Rx,0,8,9C,40,E8,00,00,00,00,00,
112627690,000003B1,false,Rx,0,8,9B,3C,FF,40,00,00,20,00,
112627746,00000422,false,Rx,0,8,CF,B0,01,00,00,00,00,00,
112627782,000004DD,false,Rx,0,8,00,00,FE,00,04,00,00,00,
112627829,00000427,false,Rx,0,8,1D,86,FF,00,80,0A,00,00,
112628735,000004DF,false,Rx,0,8,FF,03,0C,3F,00,00,00,00,
112628771,00000432,false,Rx,0,8,03,20,02,00,00,00,00,00,
112628810,000004E7,false,Rx,0,8,00,30,00,00,00,00,69,00,
112628846,0000042A,false,Rx,0,8,F4,DE,FF,01,00,10,00,00,
112630228,000004E8,false,Rx,0,8,FF,FF,FF,02,FF,FF,FF,00,
112630349,00000435,false,Rx,0,8,38,E0,00,10,00,00,00,00,
112630407,000004E9,false,Rx,0,8,12,00,00,34,00,00,50,00,
112630476,00000442,false,Rx,0,8,CE,20,11,81,00,00,00,00,
112630517,000004EA,false,Rx,0,8,67,00,00,89,00,00,00,00,
112630551,00000444,false,Rx,0,8,C5,C0,20,50,55,50,00,00,
112630635,000004EB,false,Rx,0,8,40,98,27,09,80,00,00,00,
112630692,00000445,false,Rx,0,8,67,40,00,00,00,00,00,18,
112631709,000004EC,false,Rx,0,8,00,00,00,00,00,00,00,00,
112631754,00000464,false,Rx,0,8,AA,E0,F0,FF,38,7F,05,00,
112631787,000004ED,false,Rx,0,8,00,00,00,00,00,FF,FF,1F,
112631833,000004EE,false,Rx,0,8,FF,FF,00,00,00,00,00,00,
112632688,00000405,false,Rx,0,8,BD,30,00,00,00,01,00,00,
112632719,00000384,false,Rx,0,8,9C,14,01,00,00,FF,00,21,
112632758,00000410,false,Rx,0,8,3B,10,4C,3C,4F,6A,FF,FF,
112632793,000004EF,false,Rx,0,8,59,08,00,00,29,14,00,00,
112633742,00000411,false,Rx,0,8,CF,51,50,50,00,00,44,04,
112633874,00000413,false,Rx,0,8,54,90,00,41,00,00,00,00,
112633932,00000412,false,Rx,0,8,48,10,00,00,00,00,04,00,
112634039,00000414,false,Rx,0,8,26,20,00,00,28,00,00,00,
112634101,000004F0,false,Rx,0,8,4A,13,27,09,48,1A,17,02,
112634149,00000416,false,Rx,0,8,55,00,00,00,00,00,00,00,
112634780,000004F1,false,Rx,0,8,00,C0,00,00,00,00,00,00,
112634855,00000417,false,Rx,0,8,69,30,00,00,00,01,00,00,
112634882,000004F2,false,Rx,0,8,02,FF,DD,FF,03,01,00,00,
112635839,00000418,false,Rx,0,8,A7,30,00,00,12,4C,00,00,
112635927,000004F3,false,Rx,0,8,00,00,00,00,F0,00,00,00,
112636051,00000419,false,Rx,0,8,35,C0,2A,D5,81,89,65,00,
112636117,0000048F,false,Rx,0,8,AD,10,41,00,05,00,00,00,
112636168,000004F9,false,Rx,0,8,E0,FF,FF,FF,FF,FF,FF,FF,
112636862,000004FE,false,Rx,0,8,69,23,00,03,CF,00,48,A8,
112636928,0000063D,false,Rx,0,8,00,80,00,00,00,00,00,00,
112636954,0000063E,false,Rx,0,8,FF,FF,FF,FF,FF,FF,FF,FF,
112637773,0000063F,false,Rx,0,8,00,10,00,C4,FF,00,00,00,
112637885,00000640,false,Rx,0,8,FF,FF,FF,00,FF,FF,FF,00,
112637976,00000641,false,Rx,0,8,FF,FF,FF,FF,0F,FF,FF,FF,
112638044,00000646,false,Rx,0,8,00,00,00,80,01,00,00,00,
112639796,00000565,false,Rx,0,8,66,02,00,00,00,00,FF,FF,
112644726,000001AB,false,Rx,0,8,07,56,49,40,70,48,00,00,
112644782,000001AC,false,Rx,0,8,00,28,00,00,00,00,00,00,
112644817,00000226,false,Rx,0,8,BC,46,41,FF,AA,20,07,42,
112645693,00000227,false,Rx,0,8,02,3A,1E,08,00,F2,A7,02,
112645733,000002FF,false,Rx,0,8,E0,B2,00,C1,00,00,00,00,
112646691,00000316,false,Rx,0,8,AD,21,20,A4,0A,80,0A,00,
112646726,00000317,false,Rx,0,8,00,00,05,00,00,00,00,00,
112646761,00000472,false,Rx,0,8,5C,EC,00,40,08,41,00,45,
112646790,00000473,false,Rx,0,8,5F,24,00,25,00,00,00,78,
112647700,000002E6,false,Rx,0,8,5D,39,36,01,00,00,00,15,
112647729,00000256,false,Rx,0,8,9B,69,36,15,00,00,20,01,
112647767,000002E7,false,Rx,0,8,0A,00,00,00,00,00,00,00,
112647805,00000257,false,Rx,0,8,00,95,2E,1E,72,07,00,95,
112647864,000002E8,false,Rx,0,8,00,00,00,00,00,00,00,00,
112648756,00000258,false,Rx,0,8,02,42,1D,00,10,15,00,14,
112648874,00000036,false,Rx,0,8,59,FA,3B,51,05,00,25,01,
112648919,00000259,false,Rx,0,8,75,05,8E,3C,50,02,00,00,
112648977,00000037,false,Rx,0,8,00,4B,01,10,7C,40,7C,00,
112649855,000002E9,false,Rx,0,8,00,00,00,00,00,00,00,00,
112649912,00000038,false,Rx,0,8,04,00,00,00,90,38,96,D4,
112649951,00000474,false,Rx,0,8,53,98,00,00,00,00,00,10,
112650191,00000039,false,Rx,0,8,05,00,00,00,00,00,00,00,
112652725,0000011B,false,Rx,0,8,8E,5C,71,05,80,08,A8,02,
112652779,0000012B,false,Rx,0,8,C9,A6,71,06,00,00,08,00,
112652826,0000011C,false,Rx,0,8,00,05,20,00,22,00,01,01,
112653690,0000012C,false,Rx,0,8,00,00,01,00,00,64,00,00,
112653717,000002BF,false,Rx,0,8,FF,FF,FF,00,00,00,00,00,
112653759,0000047F,false,Rx,0,8,FF,FF,FF,FF,FF,FF,FF,FF,
112654849,00000653,false,Rx,0,8,0A,19,03,01,02,2A,00,00,
112657734,00000419,false,Rx,0,8,90,D0,2A,D5,7D,89,65,00,
112661723,0000010B,false,Rx,0,8,E7,6C,2B,00,00,16,00,05,
112661777,0000010C,false,Rx,0,8,FF,F9,E7,1F,34,31,34,31,
112661827,0000010D,false,Rx,0,8,F2,02,16,00,10,00,00,35,
112661872,0000010E,false,Rx,0,8,7C,00,0A,00,7C,C0,AB,57,
112663879,00000121,false,Rx,0,8,A3,0F,2B,00,00,1E,00,05,
112663959,00000122,false,Rx,0,8,FF,D9,67,1F,3C,31,3C,33,
112664022,00000123,false,Rx,0,8,F2,02,1E,00,10,00,00,35,
112664088,00000124,false,Rx,0,8,7C,00,0A,00,7C,00,20,40,
112664707,00000061,false,Rx,0,8,2F,9C,0D,00,00,00,00,00,
112665097,00000062,false,Rx,0,8,02,02,00,02,40,FF,00,FF,
112665196,00000063,false,Rx,0,8,9C,01,15,00,00,08,FD,00,
112665254,00000064,false,Rx,0,8,00,00,00,04,FF,FA,00,00,
112665940,000000A1,false,Rx,0,8,88,AA,0D,02,04,00,00,00,
112666007,000000A2,false,Rx,0,8,00,00,00,00,00,00,00,00,
112666062,000000A3,false,Rx,0,8,00,40,01,00,00,00,00,00,
112669823,0000019B,false,Rx,0,8,4A,D9,80,00,00,E4,00,00,
112669878,0000019C,false,Rx,0,8,40,20,00,00,00,00,0B,09,
112669933,0000019D,false,Rx,0,8,00,10,00,01,00,00,00,00,
112670692,0000019E,false,Rx,0,8,15,00,00,00,00,32,00,00,
112673762,0000030B,false,Rx,0,8,89,91,40,00,04,00,00,00,
112674029,0000030C,false,Rx,0,8,00,00,0E,00,2C,00,A0,0F,
112674094,0000030D,false,Rx,0,8,00,00,00,00,2F,00,00,00,
112674163,0000030E,false,Rx,0,8,00,00,30,05,21,00,00,00,
112684727,00000396,false,Rx,0,8,9C,DF,1B,0F,0C,05,00,02,
112684783,00000397,false,Rx,0,8,C0,80,00,00,00,00,00,00,
112684835,00000398,false,Rx,0,8,00,00,00,00,00,00,00,00,
112686158,000002D6,false,Rx,0,8,CC,A6,1B,00,00,00,00,00,
112686235,000002D7,false,Rx,0,8,00,00,00,00,03,00,00,0A,
112686279,000002EB,false,Rx,0,8,E6,AB,1B,0A,0C,02,00,02,
112686362,000002D8,false,Rx,0,8,0A,00,00,00,00,00,38,30,
112686430,000002EC,false,Rx,0,8,95,5E,00,00,00,00,00,00,
112686766,000002D9,false,Rx,0,8,00,00,00,00,00,00,00,00,
112687686,000002ED,false,Rx,0,8,00,00,00,00,00,00,00,00,
112687731,000002EE,false,Rx,0,8,00,00,00,00,00,00,00,00,
112687759,00000236,false,Rx,0,8,8D,BD,39,00,4E,48,B6,65,
112687787,000002FB,false,Rx,0,8,EE,54,39,04,FD,09,C4,C4,
112688697,00000237,false,Rx,0,8,00,25,95,00,00,6C,1D,00,
112688741,00000151,false,Rx,0,8,58,59,39,A0,C8,00,28,08,
112688780,00000238,false,Rx,0,8,00,00,FD,00,00,00,00,00,
112688823,00000152,false,Rx,0,8,07,07,07,00,2E,00,00,00,
112689696,00000239,false,Rx,0,8,00,00,00,00,01,00,00,00,
112689736,00000153,false,Rx,0,8,00,00,00,00,00,00,00,00,
112689762,000001F6,false,Rx,0,8,02,85,39,00,00,00,00,0E,
112689795,00000154,false,Rx,0,8,00,00,00,00,00,00,00,00,
112690690,000001F7,false,Rx,0,8,2E,00,B4,00,00,00,00,00,
112690733,000002FC,false,Rx,0,8,07,00,07,08,00,00,90,97,
112690775,000001F8,false,Rx,0,8,00,55,00,50,00,00,00,00,
112690821,000002FD,false,Rx,0,8,00,00,00,00,00,1C,09,EA,
112691686,000001F9,false,Rx,0,8,14,00,A0,C8,14,00,14,00,
112691723,000002FE,false,Rx,0,8,00,00,72,01,00,28,00,00,
112691751,0000025B,false,Rx,0,8,EE,68,39,40,40,20,00,00,
112691782,00000326,false,Rx,0,8,1C,1C,39,00,00,00,00,00,
112692811,0000025C,false,Rx,0,8,00,00,2E,00,23,63,08,00,
112692866,00000327,false,Rx,0,8,00,00,00,00,05,00,00,00,
112692911,0000025D,false,Rx,0,8,00,C8,00,00,00,80,C0,70,
112692957,00000328,false,Rx,0,8,B4,00,14,00,00,55,00,00,
112692982,0000025E,false,Rx,0,8,07,02,09,01,00,00,00,00,
112693694,00000329,false,Rx,0,8,A0,50,00,00,00,00,00,00,
112693734,00000331,false,Rx,0,8,D4,6E,39,F1,C8,A0,2C,97,
112693763,00000332,false,Rx,0,8,C8,0A,E0,01,00,00,00,00,
87768,00000333,false,Rx,0,8,00,00,00,1C,0C,40,20,A0,
87858,00000334,false,Rx,0,8,C8,00,00,00,40,69,C7,86,
90777,00000419,false,Rx,0,8,90,D0,2A,D5,7D,89,65,00,
90846,00000487,false,Rx,0,8,00,00,00,00,00,00,00,00,
91746,00000642,false,Rx,0,8,FF,FF,FF,FF,FF,FF,00,00,
91811,00000036,false,Rx,0,8,F8,85,40,51,05,00,25,01,
91855,00000645,false,Rx,0,8,2B,36,06,B9,E6,32,56,00,
91892,00000037,false,Rx,0,8,00,4B,01,10,7C,40,7C,00,
92698,00000038,false,Rx,0,8,04,00,00,00,90,38,96,D4,
92741,000001F1,false,Rx,0,8,DA,C3,D0,00,00,00,24,00,
92783,00000039,false,Rx,0,8,05,00,00,00,00,00,00,00,
92836,000001F2,false,Rx,0,8,00,00,00,00,00,00,00,00,
95709,00000091,false,Rx,0,8,2D,44,37,00,00,00,00,00,
95751,00000092,false,Rx,0,8,00,00,00,00,00,00,00,00,
95800,0000012B,false,Rx,0,8,56,CE,76,06,00,00,08,00,
95838,00000093,false,Rx,0,8,00,00,00,00,00,00,00,00,
96691,0000012C,false,Rx,0,8,00,00,01,00,00,64,00,00,
96739,00000094,false,Rx,0,8,00,00,00,00,00,00,00,00,
96779,00000161,false,Rx,0,8,89,43,BB,03,00,00,00,02,
96825,0000011B,false,Rx,0,8,11,34,76,05,80,08,A8,02,
97805,00000162,false,Rx,0,8,FF,FC,01,00,00,00,00,00,
97842,0000011C,false,Rx,0,8,00,05,20,00,22,00,01,01,
99691,00000146,false,Rx,0,8,50,38,13,10,04,01,00,00,
99733,00000147,false,Rx,0,8,00,04,7D,00,40,00,00,00,
99768,00000148,false,Rx,0,8,00,00,00,00,00,5E,40,05,
99827,00000149,false,Rx,0,8,00,00,00,00,00,00,00,00,
100691,000001B1,false,Rx,0,8,6B,8F,13,00,72,00,00,00,
100738,000001B2,false,Rx,0,8,23,00,04,0E,8C,00,79,EA,
100775,000001B3,false,Rx,0,8,8C,16,00,00,61,65,69,65,
100820,000001B4,false,Rx,0,8,63,67,17,00,00,40,01,00,
104690,0000010B,false,Rx,0,8,9A,A9,30,00,00,16,00,05,
104729,0000010C,false,Rx,0,8,FF,F9,E7,1F,34,31,34,31,
104765,0000010D,false,Rx,0,8,F2,02,16,00,10,00,00,35,
104811,0000010E,false,Rx,0,8,7C,00,0A,00,7C,C0,AB,57,
104854,0000036F,false,Rx,0,8,EE,E1,01,00,00,00,00,00,
105691,0000037F,false,Rx,0,8,3A,B0,52,24,41,02,00,00,
105728,000001A1,false,Rx,0,8,DB,40,BB,FE,F7,7F,64,00,
105758,000001A2,false,Rx,0,8,00,00,00,00,00,08,00,00,
106691,000001A3,false,Rx,0,8,FF,F3,3F,00,00,00,00,00,
106717,00000121,false,Rx,0,8,DE,CA,30,00,00,1E,00,05,
106752,000001A4,false,Rx,0,8,FE,07,00,00,00,00,00,00,
106791,00000122,false,Rx,0,8,FF,D9,67,1F,3C,31,3C,33,
106831,000003AA,false,Rx,0,8,FF,00,D0,00,54,00,00,00,
107691,00000123,false,Rx,0,8,F2,02,1E,00,10,00,00,35,
107729,00000124,false,Rx,0,8,7C,00,0A,00,7C,00,20,40,
107757,00000061,false,Rx,0,8,6B,2C,12,00,00,00,00,00,
108691,00000062,false,Rx,0,8,02,02,00,02,40,FF,00,FF,
108718,00000063,false,Rx,0,8,9C,01,15,00,00,08,FD,00,
108750,00000064,false,Rx,0,8,00,00,00,04,FF,FA,00,00,
108789,000000A1,false,Rx,0,8,EB,C7,12,02,04,00,00,00,
109691,000000A2,false,Rx,0,8,00,00,00,00,00,00,00,00,
109738,000000A3,false,Rx,0,8,00,40,01,00,00,00,00,00,
112690,00000111,false,Rx,0,8,A8,16,F5,01,00,00,00,00,
112724,00000112,false,Rx,0,8,00,00,00,00,00,00,00,00,
113691,0000019B,false,Rx,0,8,35,F5,85,00,00,E4,00,00,
113716,00000113,false,Rx,0,8,00,00,00,00,00,00,00,00,
113744,0000019C,false,Rx,0,8,40,20,00,00,00,00,0B,09,
113786,00000114,false,Rx,0,8,00,00,00,00,00,00,00,00,
113817,0000019D,false,Rx,0,8,00,10,00,01,00,00,00,00,
114686,0000019E,false,Rx,0,8,15,00,00,00,00,32,00,00,
123690,00000495,false,Rx,0,8,49,00,00,00,00,00,00,00,
130692,00000419,false,Rx,0,8,90,D0,2A,D5,7D,89,65,00,
130721,00000401,false,Rx,0,8,C6,10,10,00,00,04,00,00,
131689,00000566,false,Rx,0,8,16,02,00,00,00,00,FF,FF,
132690,000004A3,false,Rx,0,8,80,00,48,0B,3E,00,00,00,
132725,000004A4,false,Rx,0,8,FF,FF,FF,00,00,00,00,00,
134692,000001E6,false,Rx,0,8,20,55,79,02,00,00,00,00,
134747,000001BB,false,Rx,0,8,2F,A2,79,02,00,00,00,0A,
134789,000001BC,false,Rx,0,8,32,00,00,00,03,00,00,00,
134823,000001BD,false,Rx,0,8,00,00,00,00,00,00,00,00,
134849,000001E7,false,Rx,0,8,00,00,22,03,20,01,00,00,
137690,000001AB,false,Rx,0,8,98,3E,4E,40,70,48,00,00,
137719,000001AC,false,Rx,0,8,00,28,00,00,00,00,00,00,
140721,000003B6,false,Rx,0,8,8E,5E,1B,00,00,00,00,33,
140776,000003B7,false,Rx,0,8,32,00,00,00,00,00,00,00,
140846,000003B8,false,Rx,0,8,EE,02,00,00,00,00,69,0E,
140928,000003B9,false,Rx,0,8,00,00,00,00,00,00,00,00,
141691,00000036,false,Rx,0,8,87,A9,45,51,05,00,25,01,
141714,00000037,false,Rx,0,8,00,4B,01,10,7C,40,7C,00,
141741,00000038,false,Rx,0,8,04,00,00,00,90,38,96,D4,
142694,00000039,false,Rx,0,8,05,00,00,00,00,00,00,00,
145698,0000011B,false,Rx,0,8,62,0D,7B,05,80,08,A8,02,
145737,0000012B,false,Rx,0,8,25,F7,7B,06,00,00,08,00,
146691,0000011C,false,Rx,0,8,00,05,20,00,22,00,01,01,
146731,0000012C,false,Rx,0,8,00,00,01,00,00,64,00,00,
146766,000001E1,false,Rx,0,8,7B,D9,7F,02,00,00,00,00,
146789,000001E2,false,Rx,0,8,00,00,00,00,00,00,00,00,
148690,00000475,false,Rx,0,8,12,00,00,00,00,00,00,00,
149695,00000496,false,Rx,0,8,12,00,00,00,00,00,00,00,
154698,0000010B,false,Rx,0,8,E5,85,35,00,00,16,00,05,
154738,0000010C,false,Rx,0,8,FF,F9,E7,1F,34,31,34,31,
154802,0000010D,false,Rx,0,8,F2,02,16,00,10,00,00,35,
154853,0000010E,false,Rx,0,8,7C,00,0A,00,7C,C0,AB,57,
156696,00000121,false,Rx,0,8,A1,E6,35,00,00,1E,00,05,
156723,00000122,false,Rx,0,8,FF,D9,67,1F,3C,31,3C,33,
156753,00000123,false,Rx,0,8,F2,02,1E,00,10,00,00,35,
156787,00000124,false,Rx,0,8,7C,00,0A,00,7C,00,20,40,
157697,00000061,false,Rx,0,8,25,F0,17,00,00,00,00,00,
157736,00000062,false,Rx,0,8,02,02,00,02,40,FF,00,FF,
158700,00000063,false,Rx,0,8,9D,01,15,00,00,08,FD,00,
158739,00000064,false,Rx,0,8,00,00,00,04,FF,FA,00,00,
158771,000000A1,false,Rx,0,8,E4,2C,17,02,04,00,00,00,
158798,000000A2,false,Rx,0,8,00,00,00,00,00,00,00,00,
159699,000000A3,false,Rx,0,8,00,40,01,00,00,00,00,00,
162691,00000485,false,Rx,0,8,00,40,11,02,00,00,00,00,
162732,0000019B,false,Rx,0,8,B4,81,8A,00,00,E4,00,00,
162788,0000019C,false,Rx,0,8,40,20,00,00,00,00,0B,09,
162834,0000019D,false,Rx,0,8,00,10,00,01,00,00,00,00,
163691,0000019E,false,Rx,0,8,15,00,00,00,00,32,00,00,
176697,00000251,false,Rx,0,8,8F,BD,38,00,00,00,00,00,
176730,00000252,false,Rx,0,8,00,00,00,00,03,00,00,12,
177697,00000253,false,Rx,0,8,12,00,00,39,38,00,80,30,
178689,00000448,false,Rx,0,8,7F,00,00,00,00,00,00,00,
184703,00000382,false,Rx,0,8,22,3D,00,00,00,01,08,00,
191700,00000036,false,Rx,0,8,FA,52,4A,51,05,00,25,01,
191756,00000037,false,Rx,0,8,00,46,01,10,7A,40,7A,00,
191784,00000038,false,Rx,0,8,04,00,00,00,90,38,96,D4,
192691,000003A1,false,Rx,0,8,26,FB,29,00,FF,FF,FF,FF,
192716,00000039,false,Rx,0,8,05,00,00,00,00,00,00,00,
192756,000003A2,false,Rx,0,8,00,00,00,00,00,00,00,00,
195702,00000091,false,Rx,0,8,AC,30,38,00,00,00,00,00,
195751,0000012B,false,Rx,0,8,AA,EF,80,06,00,00,08,00,
195797,00000092,false,Rx,0,8,00,00,00,00,00,00,00,00,
195859,0000012C,false,Rx,0,8,00,00,01,00,00,64,00,00,
196709,00000093,false,Rx,0,8,00,00,00,00,00,00,00,00,
196739,00000161,false,Rx,0,8,77,53,C0,03,00,00,00,02,
196764,00000094,false,Rx,0,8,00,00,00,00,00,00,00,00,
196803,00000162,false,Rx,0,8,FF,FC,01,00,00,00,00,00,
197691,0000011B,false,Rx,0,8,ED,15,80,05,80,08,A8,02,
197726,0000011C,false,Rx,0,8,00,05,20,00,22,00,01,01,
199690,00000146,false,Rx,0,8,E8,39,18,10,04,01,00,00,
199735,00000147,false,Rx,0,8,00,04,7D,00,40,00,00,00,
199760,00000148,false,Rx,0,8,00,00,00,00,00,5E,40,05,
200691,00000149,false,Rx,0,8,00,00,00,00,00,00,00,00,
200714,000001B1,false,Rx,0,8,D3,8E,18,00,72,00,00,00,
200747,000001B2,false,Rx,0,8,23,00,04,0E,8C,00,79,EA,
200778,000001B3,false,Rx,0,8,8C,16,00,00,61,65,69,65,
201220,000001B4,false,Rx,0,8,63,67,17,00,00,40,01,00,
202690,000002AB,false,Rx,0,8,6D,3C,3B,2B,00,00,04,00,
202734,000002AC,false,Rx,0,8,00,FF,FF,00,00,40,00,50,
202765,000002AD,false,Rx,0,8,00,01,00,40,FF,FF,FF,0F,
202799,000002AE,false,Rx,0,8,01,00,FF,3F,00,01,00,00,
203695,000000C5,false,Rx,0,8,00,00,00,00,00,00,00,00,
203728,000002B6,false,Rx,0,8,68,2E,3B,01,00,00,00,40,
203761,00000244,false,Rx,0,8,FF,FF,FF,FF,FF,FF,FF,FF,
203802,000002B7,false,Rx,0,8,12,01,7F,00,00,04,00,00,
204781,000003E4,false,Rx,0,8,FE,00,00,00,00,00,00,00,
204908,0000010B,false,Rx,0,8,23,87,3A,00,00,16,00,05,
204939,000002B8,false,Rx,0,8,23,B1,0B,00,00,00,00,00,
204978,0000010C,false,Rx,0,8,FF,F9,E7,1F,34,31,33,31,
205001,000002B9,false,Rx,0,8,0A,00,00,00,00,00,00,00,
205693,0000010D,false,Rx,0,8,F2,02,16,00,10,00,00,35,
205734,000001A1,false,Rx,0,8,7A,3F,C0,FE,F7,7F,64,00,
205779,0000010E,false,Rx,0,8,7A,00,0A,00,7A,C0,AB,57,
205816,000001A2,false,Rx,0,8,00,00,00,00,00,08,00,00,
206688,00000121,false,Rx,0,8,7E,6C,3A,00,00,1E,00,05,
206717,000001A3,false,Rx,0,8,FF,F3,3F,00,00,00,00,00,
206753,000000FF,false,Rx,0,8,CB,10,00,00,00,00,02,00,
206775,00000122,false,Rx,0,8,FF,D9,67,1F,3C,31,3C,33,
207689,000001A4,false,Rx,0,8,FE,07,00,00,00,00,00,00,
207738,00000123,false,Rx,0,8,F2,02,1E,00,10,00,00,35,
207781,00000061,false,Rx,0,8,AC,01,1C,00,00,00,00,00,
207817,00000124,false,Rx,0,8,7A,00,0A,00,7A,00,20,40,
208703,00000062,false,Rx,0,8,02,02,00,02,40,FF,00,FF,
208734,000002C1,false,Rx,0,8,08,31,1E,21,00,41,00,A1,
208761,00000063,false,Rx,0,8,9C,01,15,00,00,08,FD,00,
208789,000002C2,false,Rx,0,8,40,00,00,00,00,00,00,00,
209709,00000064,false,Rx,0,8,00,00,00,04,FF,FA,00,00,
209754,000002C3,false,Rx,0,8,00,00,00,00,00,00,00,00,
209796,000000A1,false,Rx,0,8,D8,DD,1C,02,04,00,00,00,
209832,000002C4,false,Rx,0,8,00,00,00,00,00,00,00,00,
210696,000000A2,false,Rx,0,8,00,00,00,00,00,00,00,00,
210732,000002E1,false,Rx,0,8,B6,FF,3B,00,00,00,00,40,
210759,000000A3,false,Rx,0,8,00,40,01,00,00,00,00,00,
210787,000002E2,false,Rx,0,8,FD,00,00,00,00,14,00,04,
211689,0000033B,false,Rx,0,8,73,87,41,00,00,00,00,00,
211729,000002E3,false,Rx,0,8,00,00,00,00,00,00,72,01,
211774,0000033C,false,Rx,0,8,00,00,00,00,F0,00,00,00,
211964,000002E4,false,Rx,0,8,02,00,00,00,00,00,00,00,
212010,0000033D,false,Rx,0,8,00,00,00,00,00,00,00,00,
212691,0000036F,false,Rx,0,8,FE,01,01,00,00,00,00,00,
212725,0000019B,false,Rx,0,8,CB,AD,8F,00,00,E4,00,00,
212749,0000033E,false,Rx,0,8,00,00,00,00,00,00,00,00,
213690,0000019C,false,Rx,0,8,40,20,00,00,00,00,0B,09,
213721,00000356,false,Rx,0,8,47,BC,20,00,00,00,00,00,
213908,0000019D,false,Rx,0,8,00,10,00,01,00,00,00,00,
213946,00000357,false,Rx,0,8,00,00,00,00,00,4B,4D,48,
213990,0000019E,false,Rx,0,8,15,00,00,00,00,32,00,00,
214692,00000358,false,Rx,0,8,35,41,45,4D,52,37,33,4F,
214724,000003C3,false,Rx,0,8,45,10,31,30,36,00,00,00,
214758,00000359,false,Rx,0,8,51,4F,34,52,4A,35,33,00,
214793,000003B2,false,Rx,0,8,36,15,FF,02,29,2F,34,00,
215694,0000037F,false,Rx,0,8,32,C0,52,24,41,02,00,00,
215749,000003E0,false,Rx,0,8,DF,30,01,00,54,03,00,00,
215779,00000380,false,Rx,0,8,AD,D7,FF,00,00,00,00,01,
215821,000001FB,false,Rx,0,8,71,46,C0,00,00,00,00,00,
216707,00000383,false,Rx,0,8,C1,AA,00,00,02,00,00,00,
216736,000001FC,false,Rx,0,8,00,00,00,00,00,00,00,00,
216759,00000394,false,Rx,0,8,2A,22,1A,49,00,00,00,00,
216789,000001FD,false,Rx,0,8,00,1A,03,00,00,00,00,00,
217695,000003B0,false,Rx,0,8,72,37,FF,C7,00,00,03,C0,
217739,000001FE,false,Rx,0,8,00,00,00,00,00,00,00,00,
217769,000003B1,false,Rx,0,8,9B,3C,FF,40,00,00,20,00,
217809,000003E5,false,Rx,0,8,48,40,01,00,00,00,00,00,
218690,0000041A,false,Rx,0,8,AC,10,12,00,50,41,00,00,
218717,000003E6,false,Rx,0,8,6F,E0,00,00,00,00,00,00,
218740,0000041B,false,Rx,0,8,70,D0,00,00,00,00,00,00,
218765,000004B4,false,Rx,0,8,00,00,00,00,00,00,00,00,
219691,0000041C,false,Rx,0,8,9C,40,E8,00,00,00,00,00,
219730,000004B5,false,Rx,0,8,08,00,F0,07,00,00,00,00,
219761,00000422,false,Rx,0,8,CF,B0,01,00,00,00,00,00,
219807,000004B7,false,Rx,0,8,08,00,F0,07,00,00,00,00,
220747,00000427,false,Rx,0,8,1D,86,FF,00,80,0A,00,00,
220775,000004CA,false,Rx,0,8,00,00,00,00,00,00,00,00,
220797,00000432,false,Rx,0,8,03,20,02,00,00,00,00,00,
220821,000004CC,false,Rx,0,8,08,00,00,03,00,00,03,00,
221749,00000435,false,Rx,0,8,38,E0,00,10,00,00,00,00,
221795,000004CE,false,Rx,0,8,14,01,FF,FF,FF,FF,FF,FF,
221845,0000042A,false,Rx,0,8,F4,DE,FF,01,00,10,00,00,
221889,000004D7,false,Rx,0,8,23,01,00,00,00,00,00,00,
221913,00000442,false,Rx,0,8,CE,20,11,81,00,00,00,00,
222848,000004D8,false,Rx,0,8,41,10,F0,F0,40,F2,1E,CC,
222878,00000444,false,Rx,0,8,C5,C0,20,50,55,50,00,00,
222904,000004DD,false,Rx,0,8,00,00,FE,00,04,00,00,00,
222933,00000445,false,Rx,0,8,67,40,00,00,00,00,00,18,
223693,000004DF,false,Rx,0,8,FF,03,0C,3F,00,00,00,00,
223732,00000464,false,Rx,0,8,AA,E0,F0,FF,38,7F,05,00,
223782,000004E7,false,Rx,0,8,00,30,00,00,00,00,69,00,
223808,000004E8,false,Rx,0,8,FF,FF,FF,02,FF,FF,FF,00,
224690,000004E9,false,Rx,0,8,12,00,00,34,00,00,50,00,
224717,000004EA,false,Rx,0,8,67,00,00,89,00,00,00,00,
224745,000004EB,false,Rx,0,8,40,98,27,0A,80,00,00,00,
225690,00000405,false,Rx,0,8,BD,30,00,00,00,01,00,00,
225730,00000384,false,Rx,0,8,9C,14,01,00,00,FF,00,21,
225776,00000410,false,Rx,0,8,3B,10,4C,3C,4F,6A,FF,FF,
225817,000004EC,false,Rx,0,8,00,00,00,00,00,00,00,00,
225848,00000411,false,Rx,0,8,CF,51,50,50,00,00,44,04,
226690,000004ED,false,Rx,0,8,00,00,00,00,00,FF,FF,1F,
226717,00000412,false,Rx,0,8,48,10,00,00,00,00,04,00,
226747,00000413,false,Rx,0,8,54,90,00,41,00,00,00,00,
226784,000004EE,false,Rx,0,8,FF,FF,00,00,00,00,00,00,
227690,00000414,false,Rx,0,8,26,20,00,00,28,00,00,00,
227741,000004EF,false,Rx,0,8,59,08,00,00,29,14,00,00,
227788,00000416,false,Rx,0,8,55,00,00,00,00,00,00,00,
227816,0000063D,false,Rx,0,8,00,80,00,00,00,00,00,00,
228690,00000417,false,Rx,0,8,69,30,00,00,00,01,00,00,
228722,0000063E,false,Rx,0,8,FF,FF,FF,FF,FF,FF,FF,FF,
228750,00000418,false,Rx,0,8,A7,30,00,00,12,4C,00,00,
228781,0000063F,false,Rx,0,8,00,10,00,C4,FF,00,00,00,
229696,00000415,false,Rx,0,8,40,13,10,00,08,01,00,00,
229741,00000640,false,Rx,0,8,FF,FF,FF,00,FF,FF,FF,00,
229787,00000419,false,Rx,0,8,90,D0,2A,D5,7D,89,65,00,
229813,00000641,false,Rx,0,8,FF,FF,FF,FF,0F,FF,FF,FF,
230690,00000646,false,Rx,0,8,00,00,00,80,01,00,00,00,
230715,00000516,false,Rx,0,8,61,02,00,00,00,00,FF,FF,
237703,000001AB,false,Rx,0,8,E1,24,53,40,70,48,00,00,
237743,000001AC,false,Rx,0,8,00,28,00,00,00,00,00,00,
237817,00000226,false,Rx,0,8,D5,06,43,FF,AA,20,07,42,
237906,00000227,false,Rx,0,8,02,3A,1E,08,00,F2,A7,02,
238705,000002FF,false,Rx,0,8,E0,B2,00,C1,00,00,00,00,
238738,00000316,false,Rx,0,8,89,89,21,A4,0A,80,0A,00,
239713,00000317,false,Rx,0,8,00,00,05,00,00,00,00,00,
239741,00000472,false,Rx,0,8,5C,EC,00,40,08,41,00,45,
239768,00000473,false,Rx,0,8,5F,24,00,25,00,00,00,78,
239795,000002E6,false,Rx,0,8,9A,14,38,01,00,00,00,15,
240759,00000256,false,Rx,0,8,2F,0C,38,15,00,00,00,01,
240805,000002E7,false,Rx,0,8,0A,00,00,00,00,00,00,00,
240861,00000257,false,Rx,0,8,00,95,2E,1A,72,07,00,95,
240885,000002E8,false,Rx,0,8,00,00,00,00,00,00,00,00,
240911,00000258,false,Rx,0,8,02,41,1D,00,10,15,00,14,
241773,000002E9,false,Rx,0,8,00,00,00,00,00,00,00,00,
241831,00000036,false,Rx,0,8,85,7E,4F,51,05,00,25,01,
241864,00000259,false,Rx,0,8,63,05,8D,3C,50,02,00,00,
241906,00000037,false,Rx,0,8,00,46,01,10,7A,40,7A,00,
242690,00000474,false,Rx,0,8,53,98,00,00,00,00,00,10,
242738,00000038,false,Rx,0,8,04,00,00,00,90,38,96,D4,
242761,000001F1,false,Rx,0,8,97,2B,D3,00,00,00,24,00,
243726,00000039,false,Rx,0,8,05,00,00,00,00,00,00,00,
243750,000001F2,false,Rx,0,8,00,00,00,00,00,00,00,00,
245697,0000011B,false,Rx,0,8,1B,3D,85,05,80,08,A8,02,
245730,0000012B,false,Rx,0,8,5C,C7,85,06,00,00,08,00,
246698,0000011C,false,Rx,0,8,00,05,20,00,22,00,01,01,
246737,0000012C,false,Rx,0,8,00,00,01,00,00,64,00,00,
246781,000002BF,false,Rx,0,8,FF,FF,FF,00,00,00,00,00,
246805,0000047F,false,Rx,0,8,FF,FF,FF,FF,FF,FF,FF,FF,
247688,00000653,false,Rx,0,8,0A,19,03,01,02,2A,00,00,
254718,0000010B,false,Rx,0,8,45,23,3F,00,00,16,00,05,
254768,0000010C,false,Rx,0,8,FF,F9,E7,1F,34,31,34,31,
254819,0000010D,false,Rx,0,8,F2,02,16,00,10,00,00,35,
254860,0000010E,false,Rx,0,8,7A,00,0A,00,7A,C0,AB,57,
256796,00000121,false,Rx,0,8,01,40,3F,00,00,1E,00,05,
256871,00000122,false,Rx,0,8,FF,D9,67,1F,3C,31,3C,33,
256903,00000123,false,Rx,0,8,F2,02,1E,00,10,00,00,35,
256941,00000124,false,Rx,0,8,7A,00,0A,00,7A,00,20,40,
257807,00000061,false,Rx,0,8,CF,9A,21,00,00,00,00,00,
257937,00000062,false,Rx,0,8,02,02,00,02,40,FF,00,FF,
257989,00000063,false,Rx,0,8,9C,01,15,00,00,08,FD,00,
259280,00000064,false,Rx,0,8,00,00,00,04,FF,FA,00,00,
259448,000000A1,false,Rx,0,8,1B,5E,21,02,04,00,00,00,
259514,000000A2,false,Rx,0,8,00,00,00,00,00,00,00,00,
259569,000000A3,false,Rx,0,8,00,40,01,00,00,00,00,00,
262688,0000019B,false,Rx,0,8,B6,68,94,00,00,E4,00,00,
262738,0000019C,false,Rx,0,8,40,20,00,00,00,00,0B,09,
262787,0000019D,false,Rx,0,8,00,10,00,01,00,00,00,00,
263687,0000019E,false,Rx,0,8,15,00,00,00,00,32,00,00,
266718,0000030B,false,Rx,0,8,33,99,42,00,04,00,00,00,
266852,0000030C,false,Rx,0,8,00,00,0E,00,2C,00,A0,0F,
266933,0000030D,false,Rx,0,8,00,00,00,00,FF,00,00,00,
267756,0000030E,false,Rx,0,8,00,00,30,05,21,00,00,00,
277727,00000396,false,Rx,0,8,62,F7,1C,0F,0C,05,00,02,
277796,00000397,false,Rx,0,8,10,84,00,00,00,00,00,00,
277853,00000398,false,Rx,0,8,00,00,00,00,00,00,00,00,
278782,000002D6,false,Rx,0,8,3F,38,1C,00,00,00,00,00,
278855,000002D7,false,Rx,0,8,00,00,00,00,03,00,00,0A,
278898,000002EB,false,Rx,0,8,C9,70,1C,0A,0C,02,00,02,
279792,000002D8,false,Rx,0,8,0A,00,00,00,00,00,38,30,
280431,000002EC,false,Rx,0,8,B5,5C,00,00,00,00,00,00,
280478,000002D9,false,Rx,0,8,00,00,00,00,00,00,00,00,
280555,000002ED,false,Rx,0,8,00,00,00,00,00,00,00,00,
280591,000002EE,false,Rx,0,8,00,00,00,00,00,00,00,00,
280648,00000236,false,Rx,0,8,01,0F,3B,00,4E,48,B6,65,
281800,000002FB,false,Rx,0,8,62,E6,3B,04,FD,09,C4,C4,
281907,00000237,false,Rx,0,8,00,25,95,00,00,6C,1D,00,
281969,00000151,false,Rx,0,8,D4,EB,3B,A0,C8,00,28,08,
282039,00000238,false,Rx,0,8,00,00,FD,00,00,00,00,00,
282080,00000152,false,Rx,0,8,07,07,07,00,2E,00,00,00,
282137,00000239,false,Rx,0,8,00,00,00,00,01,00,00,00,
282701,00000153,false,Rx,0,8,00,00,00,00,00,00,00,00,
282743,000001F6,false,Rx,0,8,8E,37,3B,00,00,00,00,0E,
283004,00000154,false,Rx,0,8,00,00,00,00,00,00,00,00,
283049,000001F7,false,Rx,0,8,2E,00,B4,00,00,00,00,00,
283691,000002FC,false,Rx,0,8,07,00,07,08,00,00,90,97,
283729,000001F8,false,Rx,0,8,00,55,00,50,00,00,00,00,
283758,000002FD,false,Rx,0,8,00,00,00,00,00,1C,09,EA,
284950,000001E6,false,Rx,0,8,D6,7D,7C,02,00,00,00,00,
285023,000001F9,false,Rx,0,8,14,00,A0,C8,14,00,14,00,
285132,000001E7,false,Rx,0,8,00,00,22,03,20,01,00,00,
285203,0000025B,false,Rx,0,8,AB,F8,3B,40,40,20,00,00,
285287,000001BB,false,Rx,0,8,20,49,7C,02,00,00,00,0A,
285344,0000025C,false,Rx,0,8,00,00,2E,00,23,63,08,00,
285437,000001BC,false,Rx,0,8,32,00,00,00,03,00,00,00,
286005,0000025D,false,Rx,0,8,00,C8,00,00,00,80,C0,70,
286073,000001BD,false,Rx,0,8,00,00,00,00,00,00,00,00,
286137,0000025E,false,Rx,0,8,97,02,09,0D,00,00,00,00,
286690,000002FE,false,Rx,0,8,00,00,72,01,00,28,00,00,
286730,00000326,false,Rx,0,8,90,AE,3B,00,00,00,00,00,
287691,00000327,false,Rx,0,8,00,00,00,00,05,00,00,00,
287723,00000328,false,Rx,0,8,B4,00,14,00,00,55,00,00,
287755,00000329,false,Rx,0,8,A0,50,00,00,00,00,00,00,
287788,00000331,false,Rx,0,8,58,DC,3B,F1,C8,A0,2C,97,
288688,00000332,false,Rx,0,8,C8,0A,E0,01,00,00,00,00,
288716,00000333,false,Rx,0,8,00,00,00,1C,0C,40,20,A0,
288750,00000334,false,Rx,0,8,C8,00,00,00,40,69,C7,86,
291776,00000036,false,Rx,0,8,F8,BB,54,51,05,00,25,01,
291887,00000037,false,Rx,0,8,00,46,01,10,7A,40,7A,00,
291980,00000038,false,Rx,0,8,04,00,00,00,90,38,96,D4,
292031,00000039,false,Rx,0,8,05,00,00,00,00,00,00,00,
293758,00000487,false,Rx,0,8,00,00,00,00,00,00,00,00,
294736,00000642,false,Rx,0,8,FF,FF,FF,FF,FF,FF,00,00,
295748,00000091,false,Rx,0,8,EA,69,39,00,00,00,00,00,
296070,00000161,false,Rx,0,8,81,7B,C5,03,00,00,00,02,
296111,00000092,false,Rx,0,8,00,00,00,00,00,00,00,00,
296156,0000012B,false,Rx,0,8,46,BE,8A,06,00,00,08,00,
296210,00000093,false,Rx,0,8,00,00,00,00,00,00,00,00,
296248,0000012C,false,Rx,0,8,00,00,01,00,00,64,00,00,
296703,00000094,false,Rx,0,8,00,00,00,00,00,00,00,00,
296738,00000162,false,Rx,0,8,FF,FC,01,00,00,00,00,00,
297775,0000011B,false,Rx,0,8,01,44,8A,05,80,08,A8,02,
297812,000001E1,false,Rx,0,8,4F,01,82,02,00,00,00,00,
297847,0000011C,false,Rx,0,8,00,05,20,00,22,00,01,01,
297894,000001E2,false,Rx,0,8,00,00,00,00,00,00,00,00,
299688,00000146,false,Rx,0,8,97,15,1D,10,04,01,00,00,
299727,00000147,false,Rx,0,8,00,04,7D,00,40,00,00,00,
299770,00000148,false,Rx,0,8,00,00,00,00,00,5E,40,05,
299800,00000149,false,Rx,0,8,00,00,00,00,00,00,00,00,
300690,000001B1,false,Rx,0,8,AC,A2,1D,00,72,00,00,00,
300722,000001B2,false,Rx,0,8,23,00,04,0E,8C,00,79,EA,
300765,000001B3,false,Rx,0,8,8C,16,00,00,61,65,69,65,
300812,000001B4,false,Rx,0,8,63,67,17,00,00,40,01,00,
304698,0000010B,false,Rx,0,8,E4,2E,44,00,00,16,00,05,
304739,00000643,false,Rx,0,8,00,FC,FF,FF,FF,FF,03,00,
304777,0000010C,false,Rx,0,8,FF,F9,E7,1F,34,31,34,32,
304828,0000010D,false,Rx,0,8,F2,02,16,00,10,00,00,35,
304868,0000036F,false,Rx,0,8,47,11,01,00,00,00,00,00,
305694,0000010E,false,Rx,0,8,7A,00,0A,00,7A,C0,AB,57,
305734,000001A1,false,Rx,0,8,05,13,C5,FE,F7,7F,64,00,
305790,0000037F,false,Rx,0,8,8B,D0,52,24,41,02,00,00,
305825,000001A2,false,Rx,0,8,00,00,00,00,00,08,00,00,
306688,00000121,false,Rx,0,8,A0,3F,44,00,00,1E,00,05,
306713,000001A3,false,Rx,0,8,FF,F3,3F,00,00,00,00,00,
306752,00000122,false,Rx,0,8,FF,D9,67,1F,3C,31,3C,33,
306781,000001A4,false,Rx,0,8,FE,07,00,00,00,00,00,00,
307697,00000123,false,Rx,0,8,F2,02,1E,00,10,00,00,35,
307733,000003AA,false,Rx,0,8,FF,00,D0,00,54,00,00,00,
307778,00000061,false,Rx,0,8,3C,04,26,00,00,00,00,00,
307810,00000124,false,Rx,0,8,7A,00,0A,00,7A,00,20,40,
308698,00000062,false,Rx,0,8,02,02,00,02,40,FF,00,FF,
308722,00000063,false,Rx,0,8,9C,01,15,00,00,08,FD,00,
308748,00000064,false,Rx,0,8,00,00,00,04,FF,FA,00,00,
308778,000000A1,false,Rx,0,8,12,DB,26,02,04,00,00,00,
309689,000000A2,false,Rx,0,8,00,00,00,00,00,00,00,00,
309723,000000A3,false,Rx,0,8,00,40,01,00,00,00,00,00,
312687,0000019B,false,Rx,0,8,BB,AE,99,00,00,E4,00,00,
312731,00000111,false,Rx,0,8,62,FD,F6,01,00,00,00,00,
312760,0000019C,false,Rx,0,8,40,20,00,00,00,00,0B,09,
313687,00000112,false,Rx,0,8,00,00,00,00,00,00,00,00,
313723,0000019D,false,Rx,0,8,00,10,00,01,00,00,00,00,
313751,00000113,false,Rx,0,8,00,00,00,00,00,00,00,00,
313789,0000019E,false,Rx,0,8,15,00,00,00,00,32,00,00,
314689,00000114,false,Rx,0,8,00,00,00,00,00,00,00,00,
323687,00000495,false,Rx,0,8,49,00,00,00,00,00,00,00,
327688,00000561,false,Rx,0,8,63,02,00,00,00,00,FF,FF,
331687,00000401,false,Rx,0,8,C6,10,10,00,00,04,00,00,
334702,000004A3,false,Rx,0,8,80,00,48,0B,3E,00,00,00,
335693,000004A4,false,Rx,0,8,FF,FF,FF,00,00,00,00,00,
337689,000001AB,false,Rx,0,8,29,DD,58,40,70,48,00,00,
337727,000001AC,false,Rx,0,8,00,28,00,00,00,00,00,00,
340688,000003B6,false,Rx,0,8,7D,C0,1C,00,00,00,00,33,
340735,000003B7,false,Rx,0,8,32,00,00,00,00,00,00,00,
340782,000003B8,false,Rx,0,8,EE,02,00,00,00,00,69,0E,
341695,000003B9,false,Rx,0,8,00,00,00,00,00,00,00,00,
341718,00000036,false,Rx,0,8,F5,7D,59,51,05,00,25,01,
341742,00000037,false,Rx,0,8,00,46,01,10,7A,40,7A,00,
341768,00000038,false,Rx,0,8,04,00,00,00,90,38,96,D4,
342687,00000039,false,Rx,0,8,05,00,00,00,00,00,00,00,
345688,0000011B,false,Rx,0,8,F7,6C,8F,05,80,08,A8,02,
345733,0000012B,false,Rx,0,8,B0,96,8F,06,00,00,08,00,
346689,0000011C,false,Rx,0,8,00,05,20,00,22,00,01,01,
346716,0000012C,false,Rx,0,8,00,00,01,00,00,64,00,00,
348687,00000475,false,Rx,0,8,12,00,00,00,00,00,00,00,
349709,00000496,false,Rx,0,8,12,00,00,00,00,00,00,00,
354699,0000010B,false,Rx,0,8,E9,E8,49,00,00,16,00,05,
354745,0000010C,false,Rx,0,8,FF,F9,E7,1F,34,31,34,32,
354785,0000010D,false,Rx,0,8,F2,02,16,00,10,00,00,35,
354854,0000010E,false,Rx,0,8,7A,00,0A,00,7A,C0,AB,57,
356694,00000121,false,Rx,0,8,AD,F9,49,00,00,1E,00,05,
356730,00000122,false,Rx,0,8,FF,D9,67,1F,3C,31,3C,33,
356754,00000123,false,Rx,0,8,F2,02,1E,00,10,00,00,35,
356789,00000124,false,Rx,0,8,7A,00,0A,00,7A,00,20,40,
357688,00000061,false,Rx,0,8,31,C2,2B,00,00,00,00,00,
357722,00000062,false,Rx,0,8,02,02,00,02,40,FF,00,FF,
358688,00000063,false,Rx,0,8,9C,01,15,00,00,08,FD,00,
358735,00000064,false,Rx,0,8,00,00,00,04,FF,FA,00,00,
358774,000000A1,false,Rx,0,8,24,98,2B,02,04,00,00,00,
358807,000000A2,false,Rx,0,8,00,00,00,00,00,00,00,00,
359688,000000A3,false,Rx,0,8,00,40,01,00,00,00,00,00,
362691,0000019B,false,Rx,0,8,48,30,9E,00,00,E4,00,00,
362724,0000019C,false,Rx,0,8,40,20,00,00,00,00,0B,09,
362782,0000019D,false,Rx,0,8,00,10,00,01,00,00,00,00,
363700,0000019E,false,Rx,0,8,15,00,00,00,00,32,00,00,
365698,000004F0,false,Rx,0,8,4A,13,27,0A,48,1A,17,02,
376702,00000251,false,Rx,0,8,1C,5F,3A,00,00,00,00,00,
376745,00000252,false,Rx,0,8,00,00,00,00,03,00,00,11,
377689,00000253,false,Rx,0,8,11,00,00,39,39,00,80,30,
378694,00000448,false,Rx,0,8,7F,00,00,00,00,00,00,00,
385704,00000382,false,Rx,0,8,22,3D,00,00,00,01,08,00,
391706,000003A1,false,Rx,0,8,6B,13,2A,00,FF,FF,FF,FF,
391750,00000036,false,Rx,0,8,FA,6C,5E,51,05,00,25,01,
391813,000003A2,false,Rx,0,8,00,00,00,00,00,00,00,00,
391881,00000037,false,Rx,0,8,00,4B,01,10,7C,40,7C,00,
392690,00000038,false,Rx,0,8,04,00,00,00,90,38,96,D4,
392733,000001F1,false,Rx,0,8,61,03,D6,00,00,00,24,00,
392774,00000039,false,Rx,0,8,05,00,00,00,00,00,00,00,
392805,000001F2,false,Rx,0,8,00,00,00,00,00,00,00,00,
395697,00000091,false,Rx,0,8,20,82,3A,00,00,00,00,00,
395740,00000161,false,Rx,0,8,9B,02,CA,03,00,00,00,02,
395798,00000092,false,Rx,0,8,00,00,00,00,00,00,00,00,
395827,0000012B,false,Rx,0,8,72,4C,94,06,00,00,08,00,
396698,00000093,false,Rx,0,8,00,00,00,00,00,00,00,00,
396723,0000012C,false,Rx,0,8,00,00,01,00,00,64,00,00,
396761,00000094,false,Rx,0,8,00,00,00,00,00,00,00,00,
396789,00000162,false,Rx,0,8,FF,FC,01,00,00,00,00,00,
397690,0000011B,false,Rx,0,8,35,B6,94,05,80,08,A8,02,
397727,0000011C,false,Rx,0,8,00,05,20,00,22,00,01,01,
399689,00000146,false,Rx,0,8,78,3C,22,10,04,01,00,00,
399721,00000147,false,Rx,0,8,00,04,7D,00,40,00,00,00,
399753,00000148,false,Rx,0,8,00,00,00,00,00,5E,40,05,
399785,00000149,false,Rx,0,8,00,00,00,00,00,00,00,00,
400690,000001B1,false,Rx,0,8,43,8B,22,00,72,00,00,00,
400716,000001B2,false,Rx,0,8,23,00,04,0E,8C,00,79,EA,
400761,000001B3,false,Rx,0,8,8C,16,00,00,61,65,69,65,
400802,000001B4,false,Rx,0,8,63,67,17,00,00,40,01,00,
402689,000002AB,false,Rx,0,8,D8,FB,3D,2B,00,00,04,00,
402719,000002AC,false,Rx,0,8,00,FF,FF,00,00,40,00,50,
402749,000002AD,false,Rx,0,8,00,01,00,40,FF,FF,FF,0F,
402775,000002AE,false,Rx,0,8,01,00,FF,3F,00,01,00,00,
403690,000002B6,false,Rx,0,8,DD,E9,3D,01,00,00,00,40,
403725,000002B7,false,Rx,0,8,12,01,7F,00,00,04,00,00,
403762,000002B8,false,Rx,0,8,23,B1,0B,00,00,00,00,00,
403799,000002B9,false,Rx,0,8,0A,00,00,00,00,00,00,00,
404693,0000010B,false,Rx,0,8,44,FA,4E,00,00,16,00,05,
404716,000002C1,false,Rx,0,8,4E,68,1F,21,00,41,00,A1,
404743,0000010C,false,Rx,0,8,FF,F9,E7,1F,34,31,34,31,
404765,000002C2,false,Rx,0,8,40,00,00,00,00,00,00,00,
405707,0000010D,false,Rx,0,8,F2,02,16,00,10,00,00,35,
405736,000002C3,false,Rx,0,8,00,00,00,00,00,00,00,00,
405775,0000010E,false,Rx,0,8,7C,00,0A,00,7C,C0,AB,57,
405807,000000C5,false,Rx,0,8,00,00,00,00,00,00,00,00,
406699,000001A1,false,Rx,0,8,84,67,CA,FE,F7,7F,64,00,
406731,000000FF,false,Rx,0,8,CB,10,00,00,00,00,02,00,
406758,00000121,false,Rx,0,8,00,99,4E,00,00,1E,00,05,
406780,000001A2,false,Rx,0,8,00,00,00,00,00,08,00,00,
407718,00000122,false,Rx,0,8,FF,D9,67,1F,3C,31,3C,33,
407766,000001A3,false,Rx,0,8,FF,F3,3F,00,00,00,00,00,
407813,00000123,false,Rx,0,8,F2,02,1E,00,10,00,00,35,
407847,00000061,false,Rx,0,8,4C,07,30,00,00,00,00,00,
407890,00000124,false,Rx,0,8,7C,00,0A,00,7C,00,20,40,
408696,00000062,false,Rx,0,8,02,02,00,02,40,FF,00,FF,
408728,000001A4,false,Rx,0,8,FE,07,00,00,00,00,00,00,
408751,00000063,false,Rx,0,8,9C,01,15,00,00,08,FD,00,
409690,00000244,false,Rx,0,8,FF,FF,FF,FF,FF,FF,FF,FF,
409731,00000064,false,Rx,0,8,00,00,00,04,FF,FA,00,00,
409780,000002C4,false,Rx,0,8,00,00,00,00,00,00,00,00,
409814,000000A1,false,Rx,0,8,4B,29,30,02,04,00,00,00,
409856,000002E1,false,Rx,0,8,03,38,3D,00,00,00,00,40,
410690,000000A2,false,Rx,0,8,00,00,00,00,00,00,00,00,
410718,000002E2,false,Rx,0,8,FD,00,00,00,00,14,00,04,
410743,000000A3,false,Rx,0,8,00,40,01,00,00,00,00,00,
410784,000002E3,false,Rx,0,8,00,00,00,00,00,00,72,01,
411690,0000033B,false,Rx,0,8,FF,35,43,00,00,00,00,00,
411740,000002E4,false,Rx,0,8,02,00,00,00,00,00,00,00,
411774,0000033C,false,Rx,0,8,00,00,00,00,F0,00,00,00,
411814,0000036F,false,Rx,0,8,91,21,01,00,00,00,00,00,
412690,0000033D,false,Rx,0,8,00,00,00,00,00,00,00,00,
412718,00000356,false,Rx,0,8,01,E5,21,00,00,00,00,00,
412753,0000019B,false,Rx,0,8,2B,AB,A3,00,00,E4,00,00,
412789,0000033E,false,Rx,0,8,00,00,00,00,00,00,00,00,
413698,0000019C,false,Rx,0,8,40,20,00,00,00,00,0B,09,
413743,00000357,false,Rx,0,8,00,00,00,00,00,4B,4D,48,
413780,0000019D,false,Rx,0,8,00,10,00,01,00,00,00,00,
413825,00000358,false,Rx,0,8,35,41,45,4D,52,37,33,4F,
414690,0000019E,false,Rx,0,8,15,00,00,00,00,32,00,00,
414722,00000359,false,Rx,0,8,51,4F,34,52,4A,35,33,00,
414746,000003C3,false,Rx,0,8,45,10,31,30,36,00,00,00,
414781,0000037F,false,Rx,0,8,5D,E0,52,24,41,02,00,00,
415690,000003B2,false,Rx,0,8,36,15,FF,02,29,2F,34,00,
415734,00000380,false,Rx,0,8,AD,D7,FF,00,00,00,00,01,
415768,000003E0,false,Rx,0,8,DF,30,01,00,54,03,00,00,
415812,00000383,false,Rx,0,8,C1,AA,00,00,02,00,00,00,
416690,000001FB,false,Rx,0,8,FD,F4,C2,00,00,00,00,00,
416719,00000394,false,Rx,0,8,2A,22,1A,49,00,00,00,00,
416744,000001FC,false,Rx,0,8,00,00,00,00,00,00,00,00,
416775,000003B0,false,Rx,0,8,72,37,FF,C7,00,00,03,C0,
417690,000001FD,false,Rx,0,8,00,1A,03,00,00,00,00,00,
417733,000003B1,false,Rx,0,8,9B,3C,FF,40,00,00,20,00,
417766,000001FE,false,Rx,0,8,00,00,00,00,00,00,00,00,
417819,000003E5,false,Rx,0,8,48,40,01,00,00,00,00,00,
417845,0000041A,false,Rx,0,8,AC,10,12,00,50,41,00,00,
418690,000003E6,false,Rx,0,8,6F,E0,00,00,00,00,00,00,
418715,0000041B,false,Rx,0,8,70,D0,00,00,00,00,00,00,
418745,0000041F,false,Rx,0,8,00,0C,00,00,00,00,00,00,
419690,0000041C,false,Rx,0,8,9C,40,E8,00,00,00,00,00,
419733,000004B4,false,Rx,0,8,00,00,00,00,00,00,00,00,
419774,00000422,false,Rx,0,8,CF,B0,01,00,00,00,00,00,
419813,000004B5,false,Rx,0,8,08,00,F0,07,00,00,00,00,
419839,00000427,false,Rx,0,8,1D,86,FF,00,80,0A,00,00,
420690,000004B7,false,Rx,0,8,08,00,F0,07,00,00,00,00,
420714,00000432,false,Rx,0,8,03,20,02,00,00,00,00,00,
420749,000004CA,false,Rx,0,8,00,00,00,00,00,00,00,00,
420775,00000435,false,Rx,0,8,38,E0,00,10,00,00,00,00,
421738,000004CC,false,Rx,0,8,08,00,00,03,00,00,03,00,
421769,0000042A,false,Rx,0,8,F4,DE,FF,01,00,10,00,00,
421815,000004CE,false,Rx,0,8,14,01,FF,FF,FF,FF,FF,FF,
421838,00000442,false,Rx,0,8,CE,20,11,81,00,00,00,00,
422701,000004D7,false,Rx,0,8,23,01,00,00,00,00,00,00,
422724,00000444,false,Rx,0,8,C5,C0,20,50,55,50,00,00,
422748,000004D8,false,Rx,0,8,41,10,F0,F0,40,F2,1E,CC,
422774,00000445,false,Rx,0,8,67,40,00,00,00,00,00,18,
423690,000004DD,false,Rx,0,8,00,00,FE,00,04,00,00,00,
423723,00000464,false,Rx,0,8,AA,E0,F0,FF,38,7F,05,00,
423767,000004DF,false,Rx,0,8,FF,03,0C,3F,00,00,00,00,
423790,000004E7,false,Rx,0,8,00,30,00,00,00,00,69,00,
424690,000004E8,false,Rx,0,8,FF,FF,FF,02,FF,FF,FF,00,
424721,000004E9,false,Rx,0,8,12,00,00,34,00,00,50,00,
424745,000004EA,false,Rx,0,8,67,00,00,89,00,00,00,00,
424773,000004EB,false,Rx,0,8,40,98,27,0A,80,00,00,00,
425728,00000384,false,Rx,0,8,9C,14,01,00,00,FF,00,21,
425777,00000405,false,Rx,0,8,BD,30,00,00,00,01,00,00,
425820,000004EC,false,Rx,0,8,00,00,00,00,00,00,00,00,
425846,00000410,false,Rx,0,8,3B,10,4C,3C,4F,6A,FF,FF,
426689,000004ED,false,Rx,0,8,00,00,00,00,00,FF,FF,1F,
426712,00000411,false,Rx,0,8,CF,51,50,50,00,00,44,04,
426737,00000413,false,Rx,0,8,54,90,00,41,00,00,00,00,
426766,00000412,false,Rx,0,8,48,10,00,00,00,00,04,00,
427689,00000414,false,Rx,0,8,26,20,00,00,28,00,00,00,
427725,000004EE,false,Rx,0,8,FF,FF,00,00,00,00,00,00,
427767,00000416,false,Rx,0,8,55,00,00,00,00,00,00,00,
427793,000004EF,false,Rx,0,8,59,08,00,00,29,14,00,00,
428689,00000417,false,Rx,0,8,69,30,00,00,00,01,00,00,
428714,000004F0,false,Rx,0,8,4A,13,27,0A,48,1A,17,02,
428740,00000418,false,Rx,0,8,A7,30,00,00,12,4C,00,00,
428767,00000563,false,Rx,0,8,65,02,00,00,00,00,FF,FF,
429686,00000419,false,Rx,0,8,90,D0,2A,D5,7D,89,65,00,
429727,0000063D,false,Rx,0,8,00,80,00,00,00,00,00,00,
429774,0000063E,false,Rx,0,8,FF,FF,FF,FF,FF,FF,FF,FF,
429801,0000063F,false,Rx,0,8,00,10,00,C4,FF,00,00,00,
430689,00000640,false,Rx,0,8,FF,FF,FF,00,FF,FF,FF,00,
430713,00000641,false,Rx,0,8,FF,FF,FF,FF,0F,FF,FF,FF,
430741,00000646,false,Rx,0,8,00,00,00,80,01,00,00,00,
434688,000001E6,false,Rx,0,8,9B,95,7F,02,00,00,00,00,
434728,000001BB,false,Rx,0,8,25,10,7F,02,00,00,00,0A,
434796,000001BC,false,Rx,0,8,32,00,00,00,03,00,00,00,
434846,000001BD,false,Rx,0,8,00,00,00,00,00,00,00,00,
434882,000001E7,false,Rx,0,8,00,00,22,03,20,01,00,00,
437690,000001AB,false,Rx,0,8,DF,F5,5D,40,70,48,00,00,
437720,000001AC,false,Rx,0,8,00,28,00,00,00,00,00,00,
437764,00000226,false,Rx,0,8,6E,C6,45,FF,AA,20,07,42,
437794,00000227,false,Rx,0,8,02,3A,1E,08,00,F2,A7,02,
438689,000002FF,false,Rx,0,8,E0,B2,00,C1,00,00,00,00,
439687,00000316,false,Rx,0,8,C4,61,22,A4,0A,80,0A,00,
439730,00000317,false,Rx,0,8,00,00,05,00,00,00,00,00,
439758,00000472,false,Rx,0,8,5C,EC,00,40,08,41,00,45,
439793,00000473,false,Rx,0,8,5F,24,00,25,00,00,00,78,
439819,000002E6,false,Rx,0,8,16,A6,3A,01,00,00,00,15,
440689,00000256,false,Rx,0,8,24,70,3A,15,00,00,20,01,
440716,000002E7,false,Rx,0,8,0A,00,00,00,00,00,00,00,
440766,00000257,false,Rx,0,8,00,95,2E,1E,72,07,00,95,
440807,000002E8,false,Rx,0,8,00,00,00,00,00,00,00,00,
441697,00000258,false,Rx,0,8,02,40,1D,00,10,15,00,14,
441727,00000036,false,Rx,0,8,99,F7,63,51,05,00,25,01,
441754,00000259,false,Rx,0,8,74,05,8D,3C,50,02,00,00,
441779,00000037,false,Rx,0,8,00,4B,01,10,7C,40,7C,00,
442697,000002E9,false,Rx,0,8,00,00,00,00,00,00,00,00,
442723,00000038,false,Rx,0,8,04,00,00,00,90,38,96,D4,
442759,00000474,false,Rx,0,8,53,98,00,00,00,00,00,10,
442796,00000039,false,Rx,0,8,05,00,00,00,00,00,00,00,
445697,0000011B,false,Rx,0,8,46,8F,99,05,80,08,A8,02,
445726,0000012B,false,Rx,0,8,01,75,99,06,00,00,08,00,
446696,0000011C,false,Rx,0,8,00,05,20,00,22,00,01,01,
446723,0000012C,false,Rx,0,8,00,00,01,00,00,64,00,00,
446748,000001E1,false,Rx,0,8,D0,69,85,02,00,00,00,00,
446774,000002BF,false,Rx,0,8,FF,FF,FF,00,00,00,00,00,
447687,000001E2,false,Rx,0,8,00,00,00,00,00,00,00,00,
447725,0000047F,false,Rx,0,8,FF,FF,FF,FF,FF,FF,FF,FF,
447769,00000653,false,Rx,0,8,0A,19,03,01,02,2A,00,00,
450688,00000419,false,Rx,0,8,08,E0,2A,D5,79,89,65,00,
454718,0000010B,false,Rx,0,8,8C,8A,53,00,00,16,00,05,
454775,0000010C,false,Rx,0,8,FF,F9,E7,1F,34,31,34,32,
454809,0000010D,false,Rx,0,8,F2,02,16,00,10,00,00,35,
454857,0000010E,false,Rx,0,8,7C,00,0A,00,7C,C0,AB,57,
456689,00000121,false,Rx,0,8,C8,9B,53,00,00,1E,00,05,
456743,00000122,false,Rx,0,8,FF,D9,67,1F,3C,31,3C,33,
456771,00000123,false,Rx,0,8,F2,02,1E,00,10,00,00,35,
456800,00000124,false,Rx,0,8,7C,00,0A,00,7C,00,20,40,
457690,000004F0,false,Rx,0,8,4A,13,27,0A,48,1A,17,02,
457727,00000061,false,Rx,0,8,33,2B,35,00,00,00,00,00,
457757,00000062,false,Rx,0,8,02,02,00,02,40,FF,00,FF,
458720,00000063,false,Rx,0,8,9C,01,15,00,00,08,FD,00,
458767,00000064,false,Rx,0,8,00,00,00,04,FF,FA,00,00,
458810,000000A1,false,Rx,0,8,44,C2,35,02,04,00,00,00,
458839,000000A2,false,Rx,0,8,00,00,00,00,00,00,00,00,
459687,000000A3,false,Rx,0,8,00,40,01,00,00,00,00,00,
462691,0000019B,false,Rx,0,8,93,AA,A8,00,00,E4,00,00,
462737,0000019C,false,Rx,0,8,40,20,00,00,00,00,0B,09,
463691,0000019D,false,Rx,0,8,00,10,00,01,00,00,00,00,
463733,0000019E,false,Rx,0,8,15,00,00,00,00,32,00,00,
466688,0000030B,false,Rx,0,8,D5,A6,44,00,04,00,00,00,
466748,0000030C,false,Rx,0,8,00,00,0E,00,2C,00,A0,0F,
466809,0000030D,false,Rx,0,8,00,00,00,00,FF,00,00,00,
467704,0000030E,false,Rx,0,8,00,00,30,05,21,00,00,FE,
477701,00000396,false,Rx,0,8,B7,7E,1D,0F,0C,03,00,02,
477751,00000397,false,Rx,0,8,A1,83,00,00,00,00,00,00,
477809,00000398,false,Rx,0,8,00,00,00,00,00,00,00,00,
478691,000002D6,false,Rx,0,8,79,61,1D,00,00,00,00,00,
478731,000002D7,false,Rx,0,8,00,00,00,00,03,00,00,0A,
479691,000002EB,false,Rx,0,8,7F,E8,1D,0A,0C,03,00,02,
479728,000002D8,false,Rx,0,8,0A,00,00,00,00,00,38,30,
479761,000002EC,false,Rx,0,8,4E,5B,00,00,00,00,00,00,
479785,000002D9,false,Rx,0,8,00,00,00,00,00,00,00,00,
480691,000002ED,false,Rx,0,8,00,00,00,00,00,00,00,00,
480733,000002EE,false,Rx,0,8,00,00,00,00,00,00,00,00,
480781,00000236,false,Rx,0,8,B4,C8,3D,00,4E,48,B6,65,
480822,000002FB,false,Rx,0,8,D7,21,3D,04,FD,09,C4,C4,
481691,00000237,false,Rx,0,8,00,25,95,00,00,6C,1D,00,
481733,00000151,false,Rx,0,8,61,2C,3D,A0,C8,00,28,08,
481763,00000238,false,Rx,0,8,00,00,FD,00,00,00,00,00,
481787,00000152,false,Rx,0,8,07,07,07,00,2E,00,00,00,
482699,00000239,false,Rx,0,8,00,00,00,00,01,00,00,00,
482738,00000153,false,Rx,0,8,00,00,00,00,00,00,00,00,
482779,000001F6,false,Rx,0,8,3B,F0,3D,00,00,00,00,0E,
482817,00000154,false,Rx,0,8,00,00,00,00,00,00,00,00,
483699,000001F7,false,Rx,0,8,2E,00,B4,00,00,00,00,00,
483736,000002FC,false,Rx,0,8,07,00,07,08,00,00,90,97,
483765,000001F8,false,Rx,0,8,00,55,00,50,00,00,00,00,
483787,000002FD,false,Rx,0,8,00,00,00,00,00,1C,09,EA,
484691,000001F9,false,Rx,0,8,14,00,A0,C8,14,00,14,00,
484723,000002FE,false,Rx,0,8,00,00,72,01,00,28,00,00,
484762,0000025B,false,Rx,0,8,A9,FA,3D,40,40,20,00,00,
484798,00000326,false,Rx,0,8,25,69,3D,00,00,00,00,00,
485691,0000025C,false,Rx,0,8,00,00,2E,00,23,63,08,00,
485726,00000327,false,Rx,0,8,00,00,00,00,05,00,00,00,
485753,0000025D,false,Rx,0,8,00,C8,00,00,00,80,C0,70,
485775,00000328,false,Rx,0,8,B4,00,14,00,00,55,00,00,
486691,0000025E,false,Rx,0,8,0B,02,09,01,00,00,00,00,
486716,00000329,false,Rx,0,8,A0,50,00,00,00,00,00,00,
486750,00000331,false,Rx,0,8,ED,1B,3D,F1,C8,A0,2C,97,
486782,00000332,false,Rx,0,8,C8,0A,E0,01,00,00,00,00,
487718,00000333,false,Rx,0,8,00,00,00,1C,0C,40,20,A0,
487755,00000334,false,Rx,0,8,C8,00,00,00,40,69,C7,86,
490297,00000419,false,Rx,0,8,08,E0,2A,D5,79,89,65,00,
491748,00000036,false,Rx,0,8,B9,DB,68,51,05,00,25,01,
491800,00000037,false,Rx,0,8,00,51,01,10,7E,40,7E,00,
491839,00000038,false,Rx,0,8,04,00,00,00,90,38,96,D4,
492874,00000039,false,Rx,0,8,05,00,00,00,00,00,00,00,
495781,00000091,false,Rx,0,8,66,DB,3B,00,00,00,00,00,
495886,00000161,false,Rx,0,8,6D,2A,CF,03,00,00,00,02,
495977,00000092,false,Rx,0,8,00,00,00,00,00,00,00,00,
496031,0000012B,false,Rx,0,8,9E,1D,9E,06,00,00,08,00,
496064,00000093,false,Rx,0,8,00,00,00,00,00,00,00,00,
496890,0000012C,false,Rx,0,8,00,00,01,00,00,64,00,00,
497140,00000094,false,Rx,0,8,00,00,00,00,00,00,00,00,
497225,00000162,false,Rx,0,8,FF,FC,01,00,00,00,00,00,
497273,0000011B,false,Rx,0,8,D9,E7,9E,05,80,08,A8,02,
497320,00000487,false,Rx,0,8,00,00,00,00,00,00,00,00,
497690,0000011C,false,Rx,0,8,00,05,20,00,22,00,01,01,
497733,00000642,false,Rx,0,8,FF,FF,FF,FF,FF,FF,00,00,
499726,00000146,false,Rx,0,8,07,10,27,10,04,01,00,00,
499785,00000147,false,Rx,0,8,00,04,7D,00,40,00,00,00,
499836,00000148,false,Rx,0,8,00,00,00,00,00,5E,40,05,
499901,00000149,false,Rx,0,8,00,00,00,00,00,00,00,00,
500691,000001B1,false,Rx,0,8,1A,96,27,00,72,00,00,00,
500746,000001B2,false,Rx,0,8,23,00,04,0E,8C,00,79,EA,
500786,000001B3,false,Rx,0,8,8C,15,00,00,61,65,69,65,
500826,000001B4,false,Rx,0,8,63,67,17,00,00,40,01,00,
504688,0000010B,false,Rx,0,8,3C,86,58,00,00,17,00,05,
504728,0000010C,false,Rx,0,8,FF,F9,E7,1F,34,31,34,32,
504765,0000010D,false,Rx,0,8,F2,02,17,00,10,00,00,35,
504805,0000010E,false,Rx,0,8,7E,00,0A,00,7E,C0,AB,57,
504862,0000036F,false,Rx,0,8,28,31,01,00,00,00,00,00,
505691,0000037F,false,Rx,0,8,4D,00,52,24,41,02,00,00,
505733,000001A1,false,Rx,0,8,FB,4B,CF,FE,F7,7F,64,00,
506689,000001A2,false,Rx,0,8,00,00,00,00,00,08,00,00,
506724,000003AA,false,Rx,0,8,FF,00,D0,00,54,00,00,00,
506755,00000121,false,Rx,0,8,78,97,58,00,00,1F,00,05,
506784,000001A3,false,Rx,0,8,FF,F3,3F,00,00,00,00,00,
507706,00000122,false,Rx,0,8,FF,D9,67,1F,3C,31,3C,33,
507748,000001A4,false,Rx,0,8,FE,07,00,00,00,00,00,00,
507794,00000123,false,Rx,0,8,F2,02,1F,00,10,00,00,35,
507839,00000061,false,Rx,0,8,B2,5F,3A,00,00,00,00,00,
507876,00000124,false,Rx,0,8,7E,00,0A,00,7E,00,20,40,
508698,00000062,false,Rx,0,8,02,02,00,02,40,FF,00,FF,
508728,00000063,false,Rx,0,8,9C,01,15,00,00,08,FD,00,
508758,00000064,false,Rx,0,8,00,00,00,04,FF,FA,00,00,
509689,000000A1,false,Rx,0,8,74,EF,3A,02,04,00,00,00,
509724,000000A2,false,Rx,0,8,00,00,00,00,00,00,00,00,
509765,000000A3,false,Rx,0,8,00,40,01,00,00,00,00,00,
512689,0000019B,false,Rx,0,8,EC,86,AD,00,00,E4,00,00,
512735,00000111,false,Rx,0,8,24,A4,F7,01,00,00,00,00,
512776,0000019C,false,Rx,0,8,40,20,00,00,00,00,0B,09,
513688,00000112,false,Rx,0,8,00,00,00,00,00,00,00,00,
513724,0000019D,false,Rx,0,8,00,10,00,01,00,00,00,00,
513762,00000113,false,Rx,0,8,00,00,00,00,00,00,00,00,
513795,0000019E,false,Rx,0,8,15,00,00,00,00,32,00,00,
514691,00000114,false,Rx,0,8,00,00,00,00,00,00,00,00,
522688,00000565,false,Rx,0,8,66,02,00,00,00,00,FF,FF,
523691,00000495,false,Rx,0,8,49,00,00,00,00,00,00,00,
530688,00000419,false,Rx,0,8,08,E0,2A,D5,79,89,65,00,
531691,00000401,false,Rx,0,8,C6,10,10,00,00,04,00,00,
537692,000001AB,false,Rx,0,8,DB,E9,62,40,70,48,00,00,
537744,000001AC,false,Rx,0,8,00,28,00,00,00,00,00,00,
537778,000004A3,false,Rx,0,8,80,00,48,0B,3E,00,00,00,
538692,000004A4,false,Rx,0,8,FF,FF,FF,00,00,00,00,00,
540690,000003B6,false,Rx,0,8,49,99,1D,00,00,00,00,33,
540723,000003B7,false,Rx,0,8,32,00,00,00,00,00,00,00,
540761,000003B8,false,Rx,0,8,ED,02,00,00,00,00,69,0E,
541691,000003B9,false,Rx,0,8,00,00,00,00,00,00,00,00,
541725,00000036,false,Rx,0,8,C6,F7,6D,51,05,00,25,01,
541763,00000037,false,Rx,0,8,00,51,01,10,7E,40,7E,00,
541793,00000038,false,Rx,0,8,04,00,00,00,90,38,96,D4,
542691,00000039,false,Rx,0,8,05,00,00,00,00,00,00,00,
542716,000001F1,false,Rx,0,8,7B,7A,D9,00,00,00,24,00,
542744,000001F2,false,Rx,0,8,00,00,00,00,00,00,00,00,
545700,0000011B,false,Rx,0,8,B4,BB,A3,05,80,08,A8,02,
545738,0000012B,false,Rx,0,8,F3,41,A3,06,00,00,08,00,
546710,0000011C,false,Rx,0,8,00,05,20,00,22,00,01,01,
546754,0000012C,false,Rx,0,8,00,00,01,00,00,64,00,00,
548717,00000475,false,Rx,0,8,12,00,00,00,00,00,00,00,
549696,00000496,false,Rx,0,8,12,00,00,00,00,00,00,00,
554686,0000010B,false,Rx,0,8,43,D8,5D,00,00,17,00,05,
554718,0000010C,false,Rx,0,8,FF,F9,E7,1F,34,31,34,31,
554755,0000010D,false,Rx,0,8,F2,02,17,00,10,00,00,35,
554783,0000010E,false,Rx,0,8,7E,00,0A,00,7E,C0,AB,57,
556689,00000121,false,Rx,0,8,07,BB,5D,00,00,1F,00,05,
556743,00000122,false,Rx,0,8,FF,D9,67,1F,3C,31,3C,33,
556776,00000123,false,Rx,0,8,F2,02,1F,00,10,00,00,35,
556822,00000124,false,Rx,0,8,7E,00,0A,00,7E,00,20,40,
557689,00000061,false,Rx,0,8,CD,73,3F,00,00,00,00,00,
557718,00000062,false,Rx,0,8,02,02,00,02,40,FF,00,FF,
558689,000004E8,false,Rx,0,8,FF,FF,FF,02,FF,FF,FF,00,
558723,00000063,false,Rx,0,8,9C,01,15,00,00,08,FD,00,
558750,00000064,false,Rx,0,8,00,00,00,04,FF,FA,00,00,
558787,000000A1,false,Rx,0,8,7B,04,3F,02,04,00,00,00,
559689,000000A2,false,Rx,0,8,00,00,00,00,00,00,00,00,
559732,000000A3,false,Rx,0,8,00,40,01,00,00,00,00,00,
562700,0000019B,false,Rx,0,8,A8,36,B2,00,00,E4,00,00,
562735,0000019C,false,Rx,0,8,40,20,00,00,00,00,0B,09,
562803,0000019D,false,Rx,0,8,00,10,00,01,00,00,00,00,
563693,0000019E,false,Rx,0,8,15,00,00,00,00,32,00,00,
576688,00000251,false,Rx,0,8,16,ED,3C,00,00,00,00,00,
576730,00000252,false,Rx,0,8,00,00,00,00,03,00,00,11,
577691,00000253,false,Rx,0,8,11,00,00,39,39,00,80,30,
578689,00000448,false,Rx,0,8,7F,00,00,00,00,00,00,00,
584689,000001E6,false,Rx,0,8,AF,4D,82,02,00,00,00,00,
584724,00000382,false,Rx,0,8,22,3D,00,00,00,01,08,00,
584770,000001E7,false,Rx,0,8,00,00,22,03,20,01,00,00,
584804,000001BB,false,Rx,0,8,51,A0,82,02,00,00,00,0A,
585691,000001BC,false,Rx,0,8,32,00,00,00,03,00,00,00,
585728,000001BD,false,Rx,0,8,00,00,00,00,00,00,00,00,
591703,000003A1,false,Rx,0,8,4F,BB,2B,00,FF,FF,FF,FF,
591759,000003A2,false,Rx,0,8,00,00,00,00,00,00,00,00,
591809,00000036,false,Rx,0,8,CB,8A,72,51,05,00,25,01,
591853,00000037,false,Rx,0,8,00,57,01,10,82,40,82,00,
591915,00000038,false,Rx,0,8,04,00,00,00,90,38,96,D4,
592700,00000039,false,Rx,0,8,05,00,00,00,00,00,00,00,
595700,00000091,false,Rx,0,8,95,45,3C,00,00,00,00,00,
595744,00000161,false,Rx,0,8,AF,F0,D4,03,00,00,00,02,
595786,00000092,false,Rx,0,8,00,00,00,00,00,00,00,00,
595835,0000012B,false,Rx,0,8,3B,B8,A8,06,00,00,08,00,
596698,00000093,false,Rx,0,8,00,00,00,00,00,00,00,00,
596726,0000012C,false,Rx,0,8,00,00,01,00,00,64,00,00,
596758,00000094,false,Rx,0,8,00,00,00,00,00,00,00,00,
596784,00000162,false,Rx,0,8,FF,FC,01,00,00,00,00,00,
597690,0000011B,false,Rx,0,8,7C,42,A8,05,80,08,A8,02,
597723,000001E1,false,Rx,0,8,A3,50,88,02,00,00,00,00,
597759,0000011C,false,Rx,0,8,00,05,20,00,22,00,01,01,
597805,000001E2,false,Rx,0,8,00,00,00,00,00,00,00,00,
598687,000004E8,false,Rx,0,8,FF,FF,FF,02,FF,FF,FF,00,
599690,00000146,false,Rx,0,8,BF,11,2C,10,04,01,00,00,
599717,00000147,false,Rx,0,8,00,04,7D,00,40,00,00,00,
599749,00000148,false,Rx,0,8,00,00,00,00,00,5E,40,05,
599774,00000149,false,Rx,0,8,00,00,00,00,00,00,00,00,
600690,000001B1,false,Rx,0,8,84,A6,2C,00,72,00,00,00,
600734,000001B2,false,Rx,0,8,23,00,04,0E,8C,00,79,EA,
600778,000001B3,false,Rx,0,8,8C,16,00,00,61,65,69,65,
600815,000001B4,false,Rx,0,8,63,67,17,00,00,40,01,00,
602689,000002AB,false,Rx,0,8,54,49,3F,2B,00,00,04,00,
602716,000002AC,false,Rx,0,8,00,FF,FF,00,00,40,00,50,
602743,000002AD,false,Rx,0,8,00,01,00,40,FF,FF,FF,0F,
602770,000002AE,false,Rx,0,8,01,00,FF,3F,00,01,00,00,
603690,000002B6,false,Rx,0,8,51,5B,3F,01,00,00,00,40,
603735,000002B7,false,Rx,0,8,12,01,7F,00,00,04,00,00,
603776,000002B8,false,Rx,0,8,23,B1,0B,00,00,00,00,00,
603813,000002B9,false,Rx,0,8,0A,00,00,00,00,00,00,00,
604690,0000010B,false,Rx,0,8,38,B7,62,00,00,17,00,05,
604713,000002C1,false,Rx,0,8,A1,41,20,21,00,41,00,A1,
604737,0000010C,false,Rx,0,8,FF,F9,E7,1F,34,31,34,31,
604762,000002C2,false,Rx,0,8,40,00,00,00,00,00,00,00,
605690,0000010D,false,Rx,0,8,F2,02,17,00,10,00,00,35,
605724,000002C3,false,Rx,0,8,00,00,00,00,00,00,00,00,
605770,0000010E,false,Rx,0,8,82,00,0A,00,82,C0,AB,57,
605801,000001A1,false,Rx,0,8,86,8E,D4,FE,F7,7F,64,00,
606733,000002C4,false,Rx,0,8,00,00,00,00,00,00,00,00,
606768,00000121,false,Rx,0,8,EF,DD,62,00,00,20,00,05,
606792,000000FF,false,Rx,0,8,CB,10,00,00,00,00,02,00,
606830,00000122,false,Rx,0,8,FF,D9,67,1F,3C,31,3C,33,
606861,000001A2,false,Rx,0,8,00,00,00,00,00,08,00,00,
607686,00000123,false,Rx,0,8,F2,02,20,00,10,00,00,35,
607732,000001A3,false,Rx,0,8,FF,F3,3F,00,00,00,00,00,
607774,00000061,false,Rx,0,8,6C,0C,44,00,00,00,00,00,
607813,00000124,false,Rx,0,8,82,00,0A,00,82,00,20,40,
608690,00000062,false,Rx,0,8,02,02,00,02,40,FF,00,FF,
608723,000001A4,false,Rx,0,8,FE,07,00,00,00,00,00,00,
608765,00000063,false,Rx,0,8,9C,01,15,00,00,08,FD,00,
608799,000002E1,false,Rx,0,8,8F,8A,3F,00,00,00,00,40,
609900,00000064,false,Rx,0,8,00,00,00,04,FF,FA,00,00,
609950,000002E2,false,Rx,0,8,FD,00,00,00,00,14,00,04,
610002,000000A1,false,Rx,0,8,DF,24,44,02,04,00,00,00,
610036,000002E3,false,Rx,0,8,00,00,00,00,00,00,72,01,
610058,000000A2,false,Rx,0,8,00,00,00,00,00,00,00,00,
610700,000002E4,false,Rx,0,8,02,00,00,00,00,00,00,00,
610740,000000A3,false,Rx,0,8,00,40,01,00,00,00,00,00,
610780,000000C5,false,Rx,0,8,00,00,00,00,00,00,00,00,
611688,0000033B,false,Rx,0,8,4A,F2,45,00,00,00,00,00,
611738,00000244,false,Rx,0,8,FF,FF,FF,FF,FF,FF,FF,FF,
611777,0000033C,false,Rx,0,8,00,00,00,00,F0,00,00,00,
611812,0000036F,false,Rx,0,8,20,41,01,00,00,00,00,00,
612698,0000033D,false,Rx,0,8,00,00,00,00,00,00,00,00,
612736,00000356,false,Rx,0,8,CB,0E,22,00,00,00,00,00,
612766,0000019B,false,Rx,0,8,D7,1A,B7,00,00,E4,00,00,
612807,0000033E,false,Rx,0,8,00,00,00,00,00,00,00,00,
613688,0000019C,false,Rx,0,8,40,20,00,00,00,00,0B,09,
613734,00000357,false,Rx,0,8,00,00,00,00,00,4B,4D,48,
613766,0000019D,false,Rx,0,8,00,10,00,01,00,00,00,00,
613800,00000358,false,Rx,0,8,35,41,45,4D,52,37,33,4F,
614690,0000019E,false,Rx,0,8,15,00,00,00,00,32,00,00,
614728,00000359,false,Rx,0,8,51,4F,34,52,4A,35,33,00,
614758,000003C3,false,Rx,0,8,45,10,31,30,36,00,00,00,
614796,0000037F,false,Rx,0,8,F4,10,52,24,41,02,00,00,
614841,000003B2,false,Rx,0,8,36,15,FF,02,29,2F,34,00,
615688,00000380,false,Rx,0,8,AD,D7,FF,00,00,00,00,01,
615716,000003E0,false,Rx,0,8,DF,30,01,00,54,03,00,00,
615748,00000383,false,Rx,0,8,C1,AA,00,00,02,00,00,00,
616695,000001FB,false,Rx,0,8,48,33,C4,00,00,00,00,00,
616734,00000394,false,Rx,0,8,2A,22,1A,49,00,00,00,00,
616760,000001FC,false,Rx,0,8,00,00,00,00,00,00,00,00,
616808,000003B0,false,Rx,0,8,72,37,FF,C7,00,00,03,C0,
616843,000001FD,false,Rx,0,8,00,1A,03,00,00,00,00,00,
617694,000003B1,false,Rx,0,8,9B,3C,FF,40,00,00,20,00,
617726,000001FE,false,Rx,0,8,00,00,00,00,00,00,00,00,
617763,000003E5,false,Rx,0,8,48,40,01,00,00,00,00,00,
617788,0000041A,false,Rx,0,8,AC,10,12,00,50,41,00,00,
618690,000003E6,false,Rx,0,8,6F,E0,00,00,00,00,00,00,
618718,0000041B,false,Rx,0,8,70,D0,00,00,00,00,00,00,
618763,000004B4,false,Rx,0,8,00,00,00,00,00,00,00,00,
618796,0000041C,false,Rx,0,8,9C,40,E8,00,00,00,00,00,
619690,000004B5,false,Rx,0,8,08,00,F0,07,00,00,00,00,
619714,00000422,false,Rx,0,8,CF,B0,01,00,00,00,00,00,
619750,000004B7,false,Rx,0,8,08,00,F0,07,00,00,00,00,
619773,00000427,false,Rx,0,8,1D,86,FF,00,80,0A,00,00,
620690,000004CA,false,Rx,0,8,00,00,00,00,00,00,00,00,
620726,00000432,false,Rx,0,8,03,20,02,00,00,00,00,00,
620763,000004CC,false,Rx,0,8,08,00,00,03,00,00,03,00,
620795,00000435,false,Rx,0,8,38,E0,00,10,00,00,00,00,
621735,000004CE,false,Rx,0,8,14,01,FF,FF,FF,FF,FF,FF,
621759,0000042A,false,Rx,0,8,F4,DE,FF,01,00,10,00,00,
621786,000004D7,false,Rx,0,8,23,01,00,00,00,00,00,00,
621808,00000442,false,Rx,0,8,CE,20,11,81,00,00,00,00,
622692,000004D8,false,Rx,0,8,41,10,F0,F0,40,F2,1E,CC,
622730,00000444,false,Rx,0,8,C5,C0,20,50,55,50,00,00,
622763,000004DD,false,Rx,0,8,00,00,FE,00,04,00,00,00,
622795,00000445,false,Rx,0,8,67,40,00,00,00,00,00,18,
623735,000004DF,false,Rx,0,8,FF,03,0C,3F,00,00,00,00,
623771,00000464,false,Rx,0,8,AA,E0,F0,FF,38,7F,05,00,
623799,000004E7,false,Rx,0,8,00,30,00,00,00,00,69,00,
623822,00000566,false,Rx,0,8,16,02,00,00,00,00,FF,FF,
623864,000004E9,false,Rx,0,8,12,00,00,34,00,00,50,00,
624786,000004EA,false,Rx,0,8,67,00,00,89,00,00,00,00,
624823,000004EB,false,Rx,0,8,40,98,27,0A,80,00,00,00,
624854,000004EC,false,Rx,0,8,00,00,00,00,00,00,00,00,
624906,00000384,false,Rx,0,8,9C,14,01,00,00,FF,00,21,
625690,00000405,false,Rx,0,8,BD,30,00,00,00,01,00,00,
625718,000004ED,false,Rx,0,8,00,00,00,00,00,FF,FF,1F,
625740,00000410,false,Rx,0,8,3B,10,4C,3C,4F,6A,FF,FF,
626686,000004EE,false,Rx,0,8,FF,FF,00,00,00,00,00,00,
626729,00000411,false,Rx,0,8,CF,51,50,50,00,00,44,04,
626767,000004EF,false,Rx,0,8,59,08,00,00,29,14,00,00,
626799,00000412,false,Rx,0,8,48,10,00,00,00,00,04,00,
626850,00000413,false,Rx,0,8,54,90,00,41,00,00,00,00,
627690,0000063D,false,Rx,0,8,00,80,00,00,00,00,00,00,
627718,00000414,false,Rx,0,8,26,20,00,00,28,00,00,00,
627746,0000063E,false,Rx,0,8,FF,FF,FF,FF,FF,FF,FF,FF,
628686,00000416,false,Rx,0,8,55,00,00,00,00,00,00,00,
628729,0000063F,false,Rx,0,8,00,10,00,C4,FF,00,00,00,
628768,00000417,false,Rx,0,8,69,30,00,00,00,01,00,00,
628812,00000640,false,Rx,0,8,FF,FF,FF,00,FF,FF,FF,00,
628858,00000418,false,Rx,0,8,A7,30,00,00,12,4C,00,00,
629690,00000641,false,Rx,0,8,FF,FF,FF,FF,0F,FF,FF,FF,
629719,00000419,false,Rx,0,8,08,E0,2A,D5,79,89,65,00,
629742,00000646,false,Rx,0,8,00,00,00,80,01,00,00,00,
637697,000001AB,false,Rx,0,8,2D,C1,67,40,70,48,00,00,
637737,000001AC,false,Rx,0,8,00,28,00,00,00,00,00,00,
637785,00000226,false,Rx,0,8,07,86,47,FF,AA,20,07,42,
637824,00000227,false,Rx,0,8,02,3A,1E,08,00,F2,A7,02,
638693,000002FF,false,Rx,0,8,E0,B2,00,C1,00,00,00,00,
638720,00000316,false,Rx,0,8,E0,C9,23,A4,0A,80,0A,00,
639687,00000317,false,Rx,0,8,00,00,05,00,00,00,00,00,
639720,00000472,false,Rx,0,8,5C,EC,00,40,08,41,00,45,
639750,00000473,false,Rx,0,8,5F,24,00,25,00,00,00,78,
639781,000002E6,false,Rx,0,8,A3,61,3C,01,00,00,00,15,
640695,00000256,false,Rx,0,8,1D,B0,3C,15,00,00,30,01,
640731,000002E7,false,Rx,0,8,0A,00,00,00,00,00,00,00,
640774,00000257,false,Rx,0,8,00,95,2E,1F,72,07,00,95,
640800,000002E8,false,Rx,0,8,00,00,00,00,00,00,00,00,
641689,00000258,false,Rx,0,8,02,41,1D,00,10,15,00,14,
641716,00000036,false,Rx,0,8,B4,A6,77,51,05,00,25,01,
641744,00000259,false,Rx,0,8,7E,05,8F,3C,50,02,00,00,
641773,00000037,false,Rx,0,8,00,57,01,10,82,40,82,00,
642690,000002E9,false,Rx,0,8,00,00,00,00,00,00,00,00,
642724,00000038,false,Rx,0,8,04,00,00,00,90,38,96,D4,
642765,00000474,false,Rx,0,8,53,98,00,00,00,00,00,10,
642790,00000039,false,Rx,0,8,05,00,00,00,00,00,00,00,
643727,000004E8,false,Rx,0,8,FF,FF,FF,02,FF,FF,FF,00,
645687,0000011B,false,Rx,0,8,8A,6A,AD,05,80,08,A8,02,
645715,0000012B,false,Rx,0,8,CD,90,AD,06,00,00,08,00,
646690,0000011C,false,Rx,0,8,00,05,20,00,22,00,01,01,
646739,0000012C,false,Rx,0,8,00,00,01,00,00,64,00,00,
646770,000002BF,false,Rx,0,8,FF,FF,FF,00,00,00,00,00,
646815,0000047F,false,Rx,0,8,FF,FF,FF,FF,FF,FF,FF,FF,
647690,00000653,false,Rx,0,8,0A,19,03,01,02,2A,00,00,
650687,00000419,false,Rx,0,8,56,00,2A,D5,7D,89,65,00,
654687,0000010B,false,Rx,0,8,47,9B,67,00,00,17,00,05,
654714,0000010C,false,Rx,0,8,FF,F9,E7,1F,34,31,34,31,
654743,0000010D,false,Rx,0,8,F2,02,17,00,10,00,00,35,
654792,0000010E,false,Rx,0,8,82,00,0A,00,82,C0,AB,57,
656694,00000121,false,Rx,0,8,90,F1,67,00,00,20,00,05,
656755,00000122,false,Rx,0,8,FF,D9,67,1F,3C,31,3C,33,
656784,00000123,false,Rx,0,8,F2,02,20,00,10,00,00,35,
656827,00000124,false,Rx,0,8,82,00,0A,00,82,00,20,40,
657692,00000061,false,Rx,0,8,61,CA,49,00,00,00,00,00,
657717,00000062,false,Rx,0,8,02,02,00,02,40,FF,00,FF,
658688,00000063,false,Rx,0,8,9C,01,15,00,00,08,FD,00,
658730,00000064,false,Rx,0,8,00,00,00,04,FF,FA,00,00,
658763,000000A1,false,Rx,0,8,E9,67,49,02,04,00,00,00,
658805,000000A2,false,Rx,0,8,00,00,00,00,00,00,00,00,
659726,000000A3,false,Rx,0,8,00,40,01,00,00,00,00,00,
662686,0000019B,false,Rx,0,8,6F,1B,BC,00,00,E4,00,00,
662713,0000019C,false,Rx,0,8,40,20,00,00,00,00,0B,09,
663692,0000019D,false,Rx,0,8,00,10,00,01,00,00,00,00,
663721,0000019E,false,Rx,0,8,15,00,00,00,00,32,00,00,
666686,0000030B,false,Rx,0,8,6A,82,46,00,04,00,00,00,
666730,0000030C,false,Rx,0,8,00,00,0E,00,2C,00,A0,0F,
666774,0000030D,false,Rx,0,8,00,00,00,00,FF,00,00,00,
667690,0000030E,false,Rx,0,8,00,00,30,05,21,00,00,02,
677693,00000396,false,Rx,0,8,31,8C,1E,0F,0C,07,00,02,
677724,00000397,false,Rx,0,8,4A,8E,00,00,00,00,00,00,
677754,00000398,false,Rx,0,8,00,00,00,00,00,00,00,00,
678690,000002D6,false,Rx,0,8,B3,8A,1E,00,00,00,00,00,
678733,000002D7,false,Rx,0,8,00,00,00,00,03,00,00,0A,
679686,000002EB,false,Rx,0,8,20,E9,1E,0A,0C,03,00,02,
679732,000002D8,false,Rx,0,8,0A,00,00,00,00,00,38,30,
679764,000002EC,false,Rx,0,8,5F,63,00,00,00,00,00,00,
679792,000002D9,false,Rx,0,8,00,00,00,00,00,00,00,00,
680690,000002ED,false,Rx,0,8,00,00,00,00,00,00,00,00,
680718,000002EE,false,Rx,0,8,00,00,00,00,00,00,00,00,
680753,00000236,false,Rx,0,8,38,7A,3F,00,4E,48,B6,65,
680792,000002FB,false,Rx,0,8,5B,93,3F,04,FD,09,C4,C4,
681686,00000237,false,Rx,0,8,00,25,95,00,00,6C,1D,00,
681737,00000151,false,Rx,0,8,ED,9E,3F,A0,C8,00,28,08,
681768,00000238,false,Rx,0,8,00,00,FD,00,00,00,00,00,
681796,00000152,false,Rx,0,8,07,07,07,00,2E,00,00,00,
682698,00000239,false,Rx,0,8,00,00,00,00,01,00,00,00,
682727,00000153,false,Rx,0,8,00,00,00,00,00,00,00,00,
682757,000001F6,false,Rx,0,8,B7,42,3F,00,00,00,00,0E,
682799,00000154,false,Rx,0,8,00,00,00,00,00,00,00,00,
683694,000001F7,false,Rx,0,8,2E,00,B4,00,00,00,00,00,
683735,000002FC,false,Rx,0,8,07,00,07,08,00,00,90,97,
683765,000001F8,false,Rx,0,8,00,55,00,50,00,00,00,00,
683791,000002FD,false,Rx,0,8,00,00,00,00,00,1C,09,EA,
684690,000001F9,false,Rx,0,8,14,00,A0,C8,14,00,14,00,
684718,000002FE,false,Rx,0,8,00,00,72,01,00,28,00,00,
684748,0000025B,false,Rx,0,8,92,8D,3F,40,40,20,00,00,
684785,00000326,false,Rx,0,8,A9,DB,3F,00,00,00,00,00,
685686,0000025C,false,Rx,0,8,00,00,2E,00,23,63,08,00,
685727,00000327,false,Rx,0,8,00,00,00,00,05,00,00,00,
685756,0000025D,false,Rx,0,8,00,C8,00,00,00,80,C0,70,
685783,00000328,false,Rx,0,8,B4,00,14,00,00,55,00,00,
686696,0000025E,false,Rx,0,8,97,02,09,0D,00,00,00,00,
686724,00000329,false,Rx,0,8,A0,50,00,00,00,00,00,00,
686751,00000331,false,Rx,0,8,61,A9,3F,F1,C8,A0,2C,97,
686788,00000332,false,Rx,0,8,C8,0A,E0,01,00,00,00,00,
687762,00000333,false,Rx,0,8,00,00,00,1C,0C,40,20,A0,
687824,00000334,false,Rx,0,8,C8,00,00,00,40,69,C7,86,
690930,00000419,false,Rx,0,8,56,00,2A,D5,7D,89,65,00,
692022,00000036,false,Rx,0,8,32,64,7C,51,05,00,25,01,
692549,00000037,false,Rx,0,8,00,5C,01,10,82,40,82,00,
692605,00000038,false,Rx,0,8,04,00,00,00,90,38,96,D4,
692670,00000039,false,Rx,0,8,05,00,00,00,00,00,00,00,
692741,000001F1,false,Rx,0,8,8D,52,DC,00,00,00,24,00,
692807,000001F2,false,Rx,0,8,00,00,00,00,00,00,00,00,
695722,00000091,false,Rx,0,8,D3,1C,3D,00,00,00,00,00,
695776,00000092,false,Rx,0,8,00,00,00,00,00,00,00,00,
695815,0000012B,false,Rx,0,8,DD,CA,B2,06,00,00,08,00,
695884,00000093,false,Rx,0,8,00,00,00,00,00,00,00,00,
696689,0000012C,false,Rx,0,8,00,00,01,00,00,64,00,00,
696725,00000094,false,Rx,0,8,00,00,00,00,00,00,00,00,
696776,00000161,false,Rx,0,8,DC,C9,D9,03,00,00,00,02,
696821,0000011B,false,Rx,0,8,9A,30,B2,05,80,08,A8,02,
697689,00000162,false,Rx,0,8,FF,FC,01,00,00,00,00,00,
697724,0000011C,false,Rx,0,8,00,05,20,00,22,00,01,01,
699849,00000146,false,Rx,0,8,77,13,31,10,04,01,00,00,
699939,00000147,false,Rx,0,8,00,04,7D,00,40,00,00,00,
700032,00000148,false,Rx,0,8,00,00,00,00,00,5E,40,05,
700130,00000149,false,Rx,0,8,00,00,00,00,00,00,00,00,
700388,000001B1,false,Rx,0,8,4C,A4,31,00,72,00,00,00,
700497,000001B2,false,Rx,0,8,23,00,04,0E,8C,00,79,EA,
700579,000001B3,false,Rx,0,8,8C,16,00,00,61,65,69,65,
701718,00000487,false,Rx,0,8,00,00,00,00,00,00,00,00,
701759,000001B4,false,Rx,0,8,63,67,17,00,00,40,01,00,
701805,00000642,false,Rx,0,8,FF,FF,FF,FF,FF,FF,00,00,
704686,0000010B,false,Rx,0,8,FF,E8,6C,00,00,17,00,05,
704736,0000010C,false,Rx,0,8,FF,F9,E7,1F,34,31,34,32,
704788,0000010D,false,Rx,0,8,F2,02,17,00,10,00,00,35,
704848,0000010E,false,Rx,0,8,82,00,0A,00,82,C0,AB,57,
704889,0000036F,false,Rx,0,8,99,51,01,00,00,00,00,00,
705690,0000037F,false,Rx,0,8,22,20,52,24,41,02,00,00,
705715,000001A1,false,Rx,0,8,8B,48,D9,FE,F7,7F,64,00,
705759,000001A2,false,Rx,0,8,00,00,00,00,00,08,00,00,
706686,000001A3,false,Rx,0,8,FF,F3,3F,00,00,00,00,00,
706729,00000121,false,Rx,0,8,28,F0,6C,00,00,20,00,05,
706774,000001A4,false,Rx,0,8,FE,07,00,00,00,00,00,00,
706819,00000122,false,Rx,0,8,FF,D9,67,1F,3C,31,3C,33,
706862,000003AA,false,Rx,0,8,FF,00,D0,00,54,00,00,00,
707690,00000123,false,Rx,0,8,F2,02,20,00,10,00,00,35,
707715,00000124,false,Rx,0,8,82,00,0A,00,82,00,20,40,
707748,00000061,false,Rx,0,8,92,54,4E,00,00,00,00,00,
708686,00000062,false,Rx,0,8,02,02,00,02,40,FF,00,FF,
708731,00000063,false,Rx,0,8,9C,01,15,00,00,08,FD,00,
708772,00000064,false,Rx,0,8,00,00,00,04,FF,FA,00,00,
708813,000000A1,false,Rx,0,8,E0,E2,4E,02,04,00,00,00,
709689,000000A2,false,Rx,0,8,00,00,00,00,00,00,00,00,
709722,000000A3,false,Rx,0,8,00,40,01,00,00,00,00,00,
712698,0000019B,false,Rx,0,8,7B,A3,C1,00,00,E4,00,00,
712748,00000111,false,Rx,0,8,A5,D0,F8,01,00,00,00,00,
712797,0000019C,false,Rx,0,8,40,20,00,00,00,00,0B,09,
713712,00000112,false,Rx,0,8,00,00,00,00,00,00,00,00,
713757,0000019D,false,Rx,0,8,00,10,00,01,00,00,00,00,
713800,00000113,false,Rx,0,8,00,00,00,00,00,00,00,00,
713832,0000019E,false,Rx,0,8,15,00,00,00,00,32,00,00,
714690,00000114,false,Rx,0,8,00,00,00,00,00,00,00,00,
720690,00000516,false,Rx,0,8,61,02,00,00,00,00,FF,FF,
723693,00000495,false,Rx,0,8,49,00,00,00,00,00,00,00,
730719,00000419,false,Rx,0,8,56,00,2A,D5,7D,89,65,00,
731692,00000401,false,Rx,0,8,C6,10,10,00,00,04,00,00,
734687,000001E6,false,Rx,0,8,30,25,85,02,00,00,00,00,
734745,000001BB,false,Rx,0,8,58,25,85,02,00,00,00,0A,
734785,000001BC,false,Rx,0,8,32,00,00,00,03,00,00,00,
734814,000001BD,false,Rx,0,8,00,00,00,00,00,00,00,00,
734837,000001E7,false,Rx,0,8,00,00,22,03,20,01,00,00,
737690,000001AB,false,Rx,0,8,E5,38,6C,40,70,48,00,00,
737723,000001AC,false,Rx,0,8,00,28,00,00,00,00,00,00,
740687,000003B6,false,Rx,0,8,83,72,1E,00,00,00,00,33,
740724,000003B7,false,Rx,0,8,32,00,00,00,00,00,00,00,
740778,000003B8,false,Rx,0,8,ED,02,00,00,00,00,69,0E,
741690,000003B9,false,Rx,0,8,00,00,00,00,00,00,00,00,
741730,00000036,false,Rx,0,8,C8,9A,81,51,05,00,25,01,
741753,00000037,false,Rx,0,8,00,5C,01,10,82,40,82,00,
741777,00000038,false,Rx,0,8,04,00,00,00,90,38,96,D4,
742690,000004A3,false,Rx,0,8,80,00,48,0B,3E,00,00,00,
742727,00000039,false,Rx,0,8,05,00,00,00,00,00,00,00,
742761,000004A4,false,Rx,0,8,FF,FF,FF,00,00,00,00,00,
745687,0000011B,false,Rx,0,8,6C,18,B7,05,80,08,A8,02,
745728,0000012B,false,Rx,0,8,2B,E2,B7,06,00,00,08,00,
746690,0000011C,false,Rx,0,8,00,05,20,00,22,00,01,01,
746713,0000012C,false,Rx,0,8,00,00,01,00,00,64,00,00,
746738,000001E1,false,Rx,0,8,EE,B8,8B,02,00,00,00,00,
746765,000001E2,false,Rx,0,8,00,00,00,00,00,00,00,00,
748687,00000475,false,Rx,0,8,12,00,00,00,00,00,00,00,
749690,00000496,false,Rx,0,8,12,00,00,00,00,00,00,00,
754690,0000010B,false,Rx,0,8,37,98,71,00,00,17,00,05,
754733,0000010C,false,Rx,0,8,FF,F9,E7,1F,34,31,34,31,
754768,0000010D,false,Rx,0,8,F2,02,17,00,10,00,00,35,
754793,0000010E,false,Rx,0,8,82,00,0A,00,82,C0,AB,57,
756691,00000121,false,Rx,0,8,E0,F2,71,00,00,20,00,05,
756735,00000122,false,Rx,0,8,FF,D9,67,1F,3C,31,3C,33,
756778,00000123,false,Rx,0,8,F2,02,20,00,10,00,00,35,
756810,00000124,false,Rx,0,8,82,00,0A,00,82,00,20,40,
757808,00000061,false,Rx,0,8,5A,56,53,00,00,00,00,00,
757861,00000062,false,Rx,0,8,02,02,00,02,40,FF,00,FF,
758694,00000063,false,Rx,0,8,9C,01,15,00,00,08,FD,00,
758723,00000064,false,Rx,0,8,00,00,00,04,FF,FA,00,00,
758748,000000A1,false,Rx,0,8,85,E1,53,02,04,00,00,00,
758779,000000A2,false,Rx,0,8,00,00,00,00,00,00,00,00,
759001,000000A3,false,Rx,0,8,00,40,01,00,00,00,00,00,
762697,0000019B,false,Rx,0,8,88,3D,C6,00,00,E4,00,00,
762749,0000019C,false,Rx,0,8,40,20,00,00,00,00,0B,09,
763690,0000019D,false,Rx,0,8,00,10,00,01,00,00,00,00,
763725,0000019E,false,Rx,0,8,15,00,00,00,00,32,00,00,
776696,00000251,false,Rx,0,8,B0,C6,3E,00,00,00,00,00,
776729,00000252,false,Rx,0,8,00,00,00,00,03,00,00,11,
777689,00000253,false,Rx,0,8,11,00,00,39,38,00,80,30,
778690,00000448,false,Rx,0,8,7F,00,00,00,00,00,00,00,
784688,00000382,false,Rx,0,8,22,3D,00,00,00,01,08,00,
790689,000003A1,false,Rx,0,8,D0,D3,2C,00,FF,FF,FF,FF,
791693,000003A2,false,Rx,0,8,00,00,00,00,00,00,00,00,
791729,00000036,false,Rx,0,8,3B,04,86,51,05,00,25,01,
791753,00000037,false,Rx,0,8,00,5C,01,10,82,40,82,00,
791783,00000038,false,Rx,0,8,04,00,00,00,90,38,96,D4,
792687,00000039,false,Rx,0,8,05,00,00,00,00,00,00,00,
795714,00000091,false,Rx,0,8,19,F7,3E,00,00,00,00,00,
795761,00000161,false,Rx,0,8,43,A1,DE,03,00,00,00,02,
795828,00000092,false,Rx,0,8,00,00,00,00,00,00,00,00,
795900,00000162,false,Rx,0,8,FF,FC,01,00,00,00,00,00,
795966,00000093,false,Rx,0,8,00,00,00,00,00,00,00,00,
796697,0000012B,false,Rx,0,8,E3,1B,BC,06,00,00,08,00,
796725,00000094,false,Rx,0,8,00,00,00,00,00,00,00,00,
796755,0000012C,false,Rx,0,8,00,00,01,00,00,64,00,00,
797779,0000011B,false,Rx,0,8,A4,E1,BC,05,80,08,A8,02,
797825,0000011C,false,Rx,0,8,00,05,20,00,22,00,01,01,
799689,00000146,false,Rx,0,8,84,8D,36,10,04,01,00,00,
799725,00000147,false,Rx,0,8,00,04,7D,00,40,00,00,00,
799769,00000148,false,Rx,0,8,00,00,00,00,00,5E,40,05,
799798,00000149,false,Rx,0,8,00,00,00,00,00,00,00,00,
800690,000001B1,false,Rx,0,8,BF,3A,36,00,72,00,00,00,
800728,000001B2,false,Rx,0,8,23,00,04,0E,8C,00,79,EA,
800765,000001B3,false,Rx,0,8,8C,16,00,00,61,65,69,65,
800807,000001B4,false,Rx,0,8,63,67,17,00,00,40,01,00,
802689,000002AB,false,Rx,0,8,8A,1A,41,2B,00,00,04,00,
802723,000002AC,false,Rx,0,8,00,FF,FF,00,00,40,00,50,
802757,000002AD,false,Rx,0,8,00,01,00,40,FF,FF,FF,0F,
802803,000002AE,false,Rx,0,8,01,00,FF,3F,00,01,00,00,
803690,000002B6,false,Rx,0,8,8F,08,41,01,00,00,00,40,
803715,000002B7,false,Rx,0,8,12,01,7F,00,00,04,00,00,
803751,000002B8,false,Rx,0,8,23,B1,0B,00,00,00,00,00,
804690,0000010B,false,Rx,0,8,C4,06,76,00,00,17,00,05,
804732,000002B9,false,Rx,0,8,0A,00,00,00,00,00,00,00,
804761,0000010C,false,Rx,0,8,FF,F9,E7,1F,34,31,34,31,
804790,000002C1,false,Rx,0,8,E7,18,21,21,00,41,00,A1,
804836,0000010D,false,Rx,0,8,F2,02,17,00,10,00,00,35,
805690,000002C2,false,Rx,0,8,40,00,00,00,00,00,00,00,
805716,0000010E,false,Rx,0,8,82,00,0A,00,82,C0,AB,57,
805751,000001A1,false,Rx,0,8,78,D6,DE,FE,F7,7F,64,00,
805799,000002C3,false,Rx,0,8,00,00,00,00,00,00,00,00,
806690,000000FF,false,Rx,0,8,CB,10,00,00,00,00,02,00,
806717,00000121,false,Rx,0,8,13,6C,76,00,00,20,00,05,
806756,000001A2,false,Rx,0,8,00,00,00,00,00,08,00,00,
806797,00000122,false,Rx,0,8,FF,D9,67,1F,3C,31,3C,33,
807690,000001A3,false,Rx,0,8,FF,F3,3F,00,00,00,00,00,
807727,00000123,false,Rx,0,8,F2,02,20,00,10,00,00,35,
807763,00000061,false,Rx,0,8,E2,57,58,00,00,00,00,00,
807794,00000124,false,Rx,0,8,82,00,0A,00,82,00,20,40,
808697,00000062,false,Rx,0,8,02,02,00,02,40,FF,00,FF,
808721,000001A4,false,Rx,0,8,FE,07,00,00,00,00,00,00,
808748,00000063,false,Rx,0,8,9C,01,15,00,00,08,FD,00,
808791,000002C4,false,Rx,0,8,00,00,00,00,00,00,00,00,
809690,00000064,false,Rx,0,8,00,00,00,04,FF,FA,00,00,
809717,000002E1,false,Rx,0,8,51,D9,41,00,00,00,00,40,
809749,000000A1,false,Rx,0,8,B9,10,58,02,04,00,00,00,
809779,000002E2,false,Rx,0,8,FD,00,00,00,00,14,00,04,
810723,000000A2,false,Rx,0,8,00,00,00,00,00,00,00,00,
810758,000002E3,false,Rx,0,8,00,00,00,00,00,00,72,01,
810788,000000A3,false,Rx,0,8,00,40,01,00,00,00,00,00,
810832,000002E4,false,Rx,0,8,02,00,00,00,00,00,00,00,
811692,0000033B,false,Rx,0,8,C6,40,47,00,00,00,00,00,
811725,0000036F,false,Rx,0,8,4F,61,01,00,00,00,00,00,
811758,0000033C,false,Rx,0,8,00,00,00,00,F0,00,00,00,
811788,00000356,false,Rx,0,8,8D,57,23,00,00,00,00,00,
812686,0000033D,false,Rx,0,8,00,00,00,00,00,00,00,00,
812713,00000357,false,Rx,0,8,00,00,00,00,00,4B,4D,48,
812743,0000019B,false,Rx,0,8,85,FB,CB,00,00,E4,00,00,
812786,0000033E,false,Rx,0,8,00,00,00,00,00,00,00,00,
813690,0000019C,false,Rx,0,8,40,20,00,00,00,00,0B,09,
813720,000000C5,false,Rx,0,8,00,00,00,00,00,00,00,00,
813756,0000019D,false,Rx,0,8,00,10,00,01,00,00,00,00,
813787,00000244,false,Rx,0,8,FF,FF,FF,FF,FF,FF,FF,FF,
814744,0000019E,false,Rx,0,8,15,00,00,00,00,32,00,00,
814791,00000358,false,Rx,0,8,35,41,45,4D,52,37,33,4F,
814821,000003C3,false,Rx,0,8,45,10,31,30,36,00,00,00,
814861,00000359,false,Rx,0,8,51,4F,34,52,4A,35,33,00,
814899,000003B2,false,Rx,0,8,36,15,FF,02,29,2F,34,00,
815695,0000037F,false,Rx,0,8,9B,30,52,24,41,02,00,00,
815745,000003E0,false,Rx,0,8,DF,30,01,00,54,03,00,00,
815780,00000380,false,Rx,0,8,AD,D7,FF,00,00,00,00,01,
815824,000003E5,false,Rx,0,8,48,40,01,00,00,00,00,00,
816689,000001FB,false,Rx,0,8,C4,81,C6,00,00,00,00,00,
816730,00000383,false,Rx,0,8,C1,AA,00,00,02,00,00,00,
816762,000001FC,false,Rx,0,8,00,00,00,00,00,00,00,00,
816796,00000394,false,Rx,0,8,2A,22,1A,49,00,00,00,00,
817697,000001FD,false,Rx,0,8,00,1A,03,00,00,00,00,00,
817734,000003B0,false,Rx,0,8,72,37,FF,C7,00,00,03,C0,
817769,000001FE,false,Rx,0,8,00,00,00,00,00,00,00,00,
817812,000003B1,false,Rx,0,8,9B,3C,FF,40,00,00,20,00,
818696,000003E6,false,Rx,0,8,6F,E0,00,00,00,00,00,00,
818728,0000041A,false,Rx,0,8,AC,10,12,00,50,41,00,00,
818753,000004B4,false,Rx,0,8,00,00,00,00,00,00,00,00,
818792,0000041B,false,Rx,0,8,70,D0,00,00,00,00,00,00,
819690,000004B5,false,Rx,0,8,08,00,F0,07,00,00,00,00,
819728,0000041C,false,Rx,0,8,9C,40,E8,00,00,00,00,00,
819762,000004B7,false,Rx,0,8,08,00,F0,07,00,00,00,00,
819805,00000422,false,Rx,0,8,CF,B0,01,00,00,00,00,00,
820690,000004CA,false,Rx,0,8,00,00,00,00,00,00,00,00,
820721,00000427,false,Rx,0,8,1D,86,FF,00,80,0A,00,00,
820744,000004CC,false,Rx,0,8,08,00,00,03,00,00,03,00,
820782,00000432,false,Rx,0,8,03,20,02,00,00,00,00,00,
821729,000004CE,false,Rx,0,8,14,01,FF,FF,FF,FF,FF,FF,
821768,0000042A,false,Rx,0,8,F4,DE,FF,01,00,10,00,00,
821803,000004D7,false,Rx,0,8,23,01,00,00,00,00,00,00,
821851,00000435,false,Rx,0,8,38,E0,00,10,00,00,00,00,
821879,000004D8,false,Rx,0,8,41,10,F0,F0,40,F2,1E,CC,
822697,00000442,false,Rx,0,8,CE,20,11,81,00,00,00,00,
822728,000004DD,false,Rx,0,8,00,00,FE,00,04,00,00,00,
822767,00000444,false,Rx,0,8,C5,C0,20,50,55,50,00,00,
823689,000004DF,false,Rx,0,8,FF,03,0C,3F,00,00,00,00,
823727,00000445,false,Rx,0,8,67,40,00,00,00,00,00,18,
823769,000004E7,false,Rx,0,8,00,30,00,00,00,00,69,00,
823814,00000464,false,Rx,0,8,AA,E0,F0,FF,38,7F,05,00,
823839,000004E8,false,Rx,0,8,FF,FF,FF,02,FF,FF,FF,00,
824689,00000561,false,Rx,0,8,63,02,00,00,00,00,FF,FF,
824714,000004E9,false,Rx,0,8,12,00,00,34,00,00,50,00,
824747,000004EA,false,Rx,0,8,67,00,00,89,00,00,00,00,
824791,00000405,false,Rx,0,8,BD,30,00,00,00,01,00,00,
825690,00000384,false,Rx,0,8,9C,14,01,00,00,FF,00,21,
825733,00000410,false,Rx,0,8,3B,10,4C,3C,4F,6A,FF,FF,
825776,000004EB,false,Rx,0,8,40,98,27,0A,80,00,00,00,
825800,00000411,false,Rx,0,8,CF,51,50,50,00,00,44,04,
826696,000004EC,false,Rx,0,8,00,00,00,00,00,00,00,00,
826721,00000412,false,Rx,0,8,48,10,00,00,00,00,04,00,
826747,00000413,false,Rx,0,8,54,90,00,41,00,00,00,00,
826786,000004ED,false,Rx,0,8,00,00,00,00,00,FF,FF,1F,
827697,00000414,false,Rx,0,8,26,20,00,00,28,00,00,00,
827731,000004EE,false,Rx,0,8,FF,FF,00,00,00,00,00,00,
827774,00000416,false,Rx,0,8,55,00,00,00,00,00,00,00,
827797,000004EF,false,Rx,0,8,59,08,00,00,29,14,00,00,
828743,00000415,false,Rx,0,8,40,13,10,00,08,01,00,00,
828783,0000063D,false,Rx,0,8,00,80,00,00,00,00,00,00,
828816,00000417,false,Rx,0,8,69,30,00,00,00,01,00,00,
828868,0000063E,false,Rx,0,8,FF,FF,FF,FF,FF,FF,FF,FF,
828931,00000418,false,Rx,0,8,A7,30,00,00,12,4C,00,00,
829687,0000063F,false,Rx,0,8,00,10,00,C4,FF,00,00,00,
829730,00000419,false,Rx,0,8,56,00,2A,D5,7D,89,65,00,
829756,00000640,false,Rx,0,8,FF,FF,FF,00,FF,FF,FF,00,
830689,00000641,false,Rx,0,8,FF,FF,FF,FF,0F,FF,FF,FF,
830712,00000646,false,Rx,0,8,00,00,00,80,01,00,00,00,
836688,000001AB,false,Rx,0,8,9C,22,71,40,70,48,00,00,
837690,000001AC,false,Rx,0,8,00,28,00,00,00,00,00,00,
837729,00000226,false,Rx,0,8,39,57,49,FF,AA,20,07,42,
837775,00000227,false,Rx,0,8,02,3A,1E,08,00,F2,A7,02,
837822,00000316,false,Rx,0,8,7F,A1,24,A4,0A,80,0A,00,
837855,00000317,false,Rx,0,8,00,00,05,00,00,00,00,00,
838689,000003CB,false,Rx,0,8,36,14,00,F4,00,00,00,00,
839689,000003CC,false,Rx,0,8,36,31,34,30,33,34,31,00,
839716,00000472,false,Rx,0,8,5C,EC,00,40,08,41,00,45,
839758,00000473,false,Rx,0,8,5F,24,00,25,00,00,00,78,
839793,00000474,false,Rx,0,8,53,98,00,00,00,00,00,10,
839826,000002E6,false,Rx,0,8,2F,D3,3E,01,00,00,00,15,
840687,00000256,false,Rx,0,8,6D,6E,3E,15,00,00,20,01,
840736,000002E7,false,Rx,0,8,0A,00,00,00,00,00,00,00,
840766,00000257,false,Rx,0,8,00,95,2E,1D,72,07,00,95,
840792,000002E8,false,Rx,0,8,00,00,00,00,00,00,00,00,
841694,00000258,false,Rx,0,8,02,41,1D,00,10,15,00,14,
841728,00000036,false,Rx,0,8,36,C2,8B,51,05,00,25,01,
841764,00000259,false,Rx,0,8,73,05,8E,3C,50,02,00,00,
841799,00000037,false,Rx,0,8,00,5C,01,10,82,40,82,00,
842687,000002E9,false,Rx,0,8,00,00,00,00,00,00,00,00,
842721,00000038,false,Rx,0,8,04,00,00,00,90,38,96,D4,
842750,000001F1,false,Rx,0,8,C0,BA,DF,00,00,00,24,00,
842778,00000039,false,Rx,0,8,05,00,00,00,00,00,00,00,
843724,000001F2,false,Rx,0,8,00,00,00,00,00,00,00,00,
843755,000002FF,false,Rx,0,8,E0,B2,00,C1,00,00,00,00,
845695,0000011B,false,Rx,0,8,E1,31,C1,05,80,08,A8,02,
845734,0000012B,false,Rx,0,8,A6,CB,C1,06,00,00,08,00,
846689,0000011C,false,Rx,0,8,00,05,20,00,22,00,01,01,
846733,0000012C,false,Rx,0,8,00,00,01,00,00,64,00,00,
846759,000002BF,false,Rx,0,8,FF,FF,FF,00,00,00,00,00,
846788,0000047F,false,Rx,0,8,FF,FF,FF,FF,FF,FF,FF,FF,
847686,00000653,false,Rx,0,8,0A,19,03,01,02,2A,00,00,
854692,0000010B,false,Rx,0,8,C9,B2,7B,00,00,17,00,05,
854742,0000010C,false,Rx,0,8,FF,F9,E7,1F,34,31,34,32,
854775,0000010D,false,Rx,0,8,F2,02,17,00,10,00,00,35,
854847,0000010E,false,Rx,0,8,82,00,0A,00,82,C0,AB,57,
856689,00000121,false,Rx,0,8,1E,AA,7B,00,00,20,00,05,
856729,00000122,false,Rx,0,8,FF,D9,67,1F,3C,31,3C,33,
856755,00000123,false,Rx,0,8,F2,02,20,00,10,00,00,35,
856791,00000124,false,Rx,0,8,82,00,0A,00,82,00,20,40,
857690,00000061,false,Rx,0,8,9D,7B,5D,00,00,00,00,00,
857728,00000062,false,Rx,0,8,02,02,00,02,40,FF,00,FF,
858695,00000063,false,Rx,0,8,9C,01,15,00,00,08,FD,00,
858740,00000064,false,Rx,0,8,00,00,00,04,FF,FA,00,00,
858773,000000A1,false,Rx,0,8,B6,FB,5D,02,04,00,00,00,
858801,000000A2,false,Rx,0,8,00,00,00,00,00,00,00,00,
859757,000000A3,false,Rx,0,8,00,40,01,00,00,00,00,00,
862702,0000019B,false,Rx,0,8,F8,3E,D0,00,00,E4,00,00,
862739,0000019C,false,Rx,0,8,40,20,00,00,00,00,0B,09,
863691,0000019D,false,Rx,0,8,00,10,00,01,00,00,00,00,
863723,0000019E,false,Rx,0,8,15,00,00,00,00,32,00,00,
866687,0000030B,false,Rx,0,8,AD,AF,48,00,04,00,00,00,
866729,0000030C,false,Rx,0,8,00,00,0E,00,2C,00,A0,0F,
867690,0000030D,false,Rx,0,8,00,00,00,00,FF,00,00,00,
867716,0000030E,false,Rx,0,8,00,00,30,05,21,00,00,02,
878687,00000396,false,Rx,0,8,B4,0E,1F,0F,0C,04,00,02,
878730,000002D6,false,Rx,0,8,F5,D3,1F,00,00,00,00,00,
878777,000002EB,false,Rx,0,8,F6,A5,1F,09,0C,01,00,02,
879690,000002D7,false,Rx,0,8,00,00,00,00,03,00,00,0A,
879741,000002EC,false,Rx,0,8,ED,65,00,00,00,00,00,00,
879780,000002D8,false,Rx,0,8,0A,00,00,00,00,00,38,30,
879818,000002ED,false,Rx,0,8,00,00,00,00,00,00,00,00,
880721,000002D9,false,Rx,0,8,00,00,00,00,00,00,00,00,
880759,000002EE,false,Rx,0,8,00,00,00,00,00,00,00,00,
880792,00000397,false,Rx,0,8,F7,93,00,00,00,00,00,00,
880835,00000236,false,Rx,0,8,E6,29,41,00,4E,48,B6,65,
881686,000002FB,false,Rx,0,8,6C,86,41,04,FD,09,C4,C4,
881731,00000237,false,Rx,0,8,00,25,95,00,00,6C,1D,00,
881770,000002FC,false,Rx,0,8,08,00,07,08,00,00,90,97,
881810,00000238,false,Rx,0,8,00,00,FD,00,00,00,00,00,
882690,00000151,false,Rx,0,8,33,CD,41,A0,C8,00,28,08,
882720,00000239,false,Rx,0,8,00,00,00,00,01,00,00,00,
882751,00000152,false,Rx,0,8,07,07,07,00,2E,00,00,00,
882792,000001F6,false,Rx,0,8,69,11,41,00,00,00,00,0E,
883686,00000153,false,Rx,0,8,00,00,00,00,00,00,00,00,
883730,000001F7,false,Rx,0,8,2E,00,B4,00,00,00,00,00,
883774,00000154,false,Rx,0,8,00,00,00,00,00,00,00,00,
883817,000001F8,false,Rx,0,8,00,55,00,50,00,00,00,00,
883850,000001E6,false,Rx,0,8,43,1C,88,02,00,00,00,00,
884690,000001F9,false,Rx,0,8,14,00,A0,C8,14,00,14,00,
884719,000001E7,false,Rx,0,8,00,00,22,03,20,01,00,00,
884756,0000025B,false,Rx,0,8,0F,22,41,40,40,20,00,00,
884807,000001BB,false,Rx,0,8,6E,66,88,02,00,00,00,0A,
885686,0000025C,false,Rx,0,8,00,00,2E,00,23,63,08,00,
885725,000001BC,false,Rx,0,8,32,00,00,00,03,00,00,00,
885765,0000025D,false,Rx,0,8,00,C8,00,00,00,80,C0,70,
885797,000001BD,false,Rx,0,8,00,00,00,00,00,00,00,00,
886690,0000025E,false,Rx,0,8,05,02,09,01,00,00,00,00,
886718,000002FD,false,Rx,0,8,00,00,00,00,00,1C,09,EA,
886752,00000398,false,Rx,0,8,00,00,00,00,00,00,00,00,
886795,000002FE,false,Rx,0,8,00,00,72,01,00,28,00,00,
887686,00000326,false,Rx,0,8,77,88,41,00,00,00,00,00,
887721,00000327,false,Rx,0,8,00,00,00,00,05,00,00,00,
887755,00000328,false,Rx,0,8,B4,00,14,00,00,55,00,00,
888690,00000329,false,Rx,0,8,A0,50,00,00,00,00,00,00,
888716,00000331,false,Rx,0,8,BF,FA,41,F1,C8,A0,2C,97,
888741,00000332,false,Rx,0,8,C8,0A,E0,01,00,00,00,00,
888777,00000333,false,Rx,0,8,00,00,00,1C,0C,40,20,A0,
889686,00000334,false,Rx,0,8,C8,00,00,00,40,69,C7,86,
891689,00000036,false,Rx,0,8,4B,07,90,51,05,00,25,01,
891722,00000037,false,Rx,0,8,00,5C,01,10,82,40,82,00,
891755,00000038,false,Rx,0,8,04,00,00,00,90,38,96,D4,
892690,00000039,false,Rx,0,8,05,00,00,00,00,00,00,00,
895694,00000091,false,Rx,0,8,5F,AE,3F,00,00,00,00,00,
895722,00000092,false,Rx,0,8,00,00,00,00,00,00,00,00,
895758,00000161,false,Rx,0,8,2E,FD,E3,03,00,00,00,02,
895791,00000093,false,Rx,0,8,00,00,00,00,00,00,00,00,
896689,0000012B,false,Rx,0,8,39,A3,C6,06,00,00,08,00,
897915,00000094,false,Rx,0,8,00,00,00,00,00,00,00,00,
897954,0000012C,false,Rx,0,8,00,00,01,00,00,64,00,00,
897989,0000011B,false,Rx,0,8,7E,59,C6,05,80,08,A8,02,
898015,00000162,false,Rx,0,8,FF,FC,01,00,00,00,00,00,
898041,0000011C,false,Rx,0,8,00,05,20,00,22,00,01,01,
899703,00000146,false,Rx,0,8,89,4B,3B,10,04,01,00,00,
899751,00000147,false,Rx,0,8,00,04,7D,00,40,00,00,00,
899798,00000148,false,Rx,0,8,00,00,00,00,00,5E,40,05,
899824,00000149,false,Rx,0,8,00,00,00,00,00,00,00,00,
900762,000001B1,false,Rx,0,8,B2,FC,3B,00,72,00,00,00,
900873,000001B2,false,Rx,0,8,23,00,04,0E,8C,00,79,EA,
900915,000001B3,false,Rx,0,8,8C,16,00,00,61,65,69,65,
900964,000001B4,false,Rx,0,8,63,67,17,00,00,40,01,00,
904707,00000487,false,Rx,0,8,00,00,00,00,00,00,00,00,
904753,0000010B,false,Rx,0,8,86,8B,80,00,00,17,00,05,
904798,00000642,false,Rx,0,8,FF,FF,FF,FF,FF,FF,00,00,
904824,0000010C,false,Rx,0,8,FF,F9,E7,1F,34,31,34,32,
904858,0000010D,false,Rx,0,8,F2,02,17,00,10,00,00,35,
905689,0000036F,false,Rx,0,8,F6,71,01,00,00,00,00,00,
905716,0000010E,false,Rx,0,8,82,00,0A,00,82,C0,AB,57,
905749,000001A1,false,Rx,0,8,1B,4D,E3,FE,F7,7F,64,00,
905789,0000037F,false,Rx,0,8,93,40,52,24,41,02,00,00,
906687,000001A2,false,Rx,0,8,00,00,00,00,00,08,00,00,
906733,00000121,false,Rx,0,8,51,93,80,00,00,20,00,05,
906763,000001A3,false,Rx,0,8,FF,F3,3F,00,00,00,00,00,
906793,00000122,false,Rx,0,8,FF,D9,67,1F,3C,31,3C,33,
906844,000001A4,false,Rx,0,8,FE,07,00,00,00,00,00,00,
907721,00000123,false,Rx,0,8,F2,02,20,00,10,00,00,35,
907762,000003AA,false,Rx,0,8,FF,00,D0,00,54,00,00,00,
907810,00000061,false,Rx,0,8,72,52,62,00,00,00,00,00,
907853,00000124,false,Rx,0,8,82,00,0A,00,82,00,20,40,
908893,00000062,false,Rx,0,8,02,02,00,02,40,FF,00,FF,
908953,00000063,false,Rx,0,8,9C,01,15,00,00,08,FD,00,
908987,00000064,false,Rx,0,8,00,00,00,04,FF,FA,00,00,
909075,000000A1,false,Rx,0,8,73,16,62,02,04,00,00,00,
909122,000000A2,false,Rx,0,8,00,00,00,00,00,00,00,00,
909697,00000563,false,Rx,0,8,65,02,00,00,00,00,FF,FF,
909736,000000A3,false,Rx,0,8,00,40,01,00,00,00,00,00,
912688,0000019B,false,Rx,0,8,87,12,D5,00,00,E4,00,00,
912742,00000111,false,Rx,0,8,E3,89,F9,01,00,00,00,00,
912784,0000019C,false,Rx,0,8,40,20,00,00,00,00,0B,09,
913689,00000112,false,Rx,0,8,00,00,00,00,00,00,00,00,
913739,0000019D,false,Rx,0,8,00,10,00,01,00,00,00,00,
913767,00000113,false,Rx,0,8,00,00,00,00,00,00,00,00,
913800,0000019E,false,Rx,0,8,15,00,00,00,00,32,00,00,
914691,00000114,false,Rx,0,8,00,00,00,00,00,00,00,00,
914728,0000048B,false,Rx,0,8,A6,DF,94,1E,01,00,00,00,
915686,0000048C,false,Rx,0,8,00,00,00,00,00,00,00,00,
923694,00000495,false,Rx,0,8,49,00,00,00,00,00,00,00,
931697,00000401,false,Rx,0,8,C6,10,10,00,00,04,00,00,
935694,00000419,false,Rx,0,8,F3,10,2A,D5,81,89,65,00,
936702,000001AB,false,Rx,0,8,03,4A,76,40,70,48,00,00,
936735,000001AC,false,Rx,0,8,00,28,00,00,00,00,00,00,
940691,000003B6,false,Rx,0,8,C5,2B,1F,00,00,00,00,33,
940727,000003B7,false,Rx,0,8,32,00,00,00,00,00,00,00,
940783,000003B8,false,Rx,0,8,ED,02,00,00,00,00,69,0E,
941691,000003B9,false,Rx,0,8,00,00,00,00,00,00,00,00,
941727,00000036,false,Rx,0,8,34,2B,95,51,05,00,25,01,
941757,00000037,false,Rx,0,8,00,5C,01,10,82,40,82,00,
941786,00000038,false,Rx,0,8,04,00,00,00,90,38,96,D4,
942688,00000039,false,Rx,0,8,05,00,00,00,00,00,00,00,
944687,000004A3,false,Rx,0,8,80,00,48,0B,3E,00,00,00,
944726,000004A4,false,Rx,0,8,FF,FF,FF,00,00,00,00,00,
945698,0000011B,false,Rx,0,8,0D,60,CB,05,80,08,A8,02,
945728,0000012B,false,Rx,0,8,4A,9A,CB,06,00,00,08,00,
946687,0000011C,false,Rx,0,8,00,05,20,00,22,00,01,01,
946711,0000012C,false,Rx,0,8,00,00,01,00,00,64,00,00,
948687,00000475,false,Rx,0,8,12,00,00,00,00,00,00,00,
949690,00000496,false,Rx,0,8,12,00,00,00,00,00,00,00,
954687,0000010B,false,Rx,0,8,F9,A7,85,00,00,17,00,05,
954725,0000010C,false,Rx,0,8,FF,F9,E7,1F,34,31,34,32,
954770,0000010D,false,Rx,0,8,F2,02,17,00,10,00,00,35,
954804,0000010E,false,Rx,0,8,82,00,0A,00,82,C0,AB,57,
956710,00000121,false,Rx,0,8,2E,BF,85,00,00,20,00,05,
956748,00000122,false,Rx,0,8,FF,D9,67,1F,3C,31,3C,33,
956782,00000123,false,Rx,0,8,F2,02,20,00,10,00,00,35,
956822,00000124,false,Rx,0,8,82,00,0A,00,82,00,20,40,
957700,00000061,false,Rx,0,8,0D,7E,67,00,00,00,00,00,
957736,00000062,false,Rx,0,8,02,02,00,02,40,FF,00,FF,
958692,00000063,false,Rx,0,8,9C,01,15,00,00,08,FD,00,
958721,00000064,false,Rx,0,8,00,00,00,04,FF,FA,00,00,
958747,000000A1,false,Rx,0,8,7C,FD,67,02,04,00,00,00,
958769,000000A2,false,Rx,0,8,00,00,00,00,00,00,00,00,
959690,000000A3,false,Rx,0,8,00,40,01,00,00,00,00,00,
962689,0000019B,false,Rx,0,8,06,66,DA,00,00,E4,00,00,
962736,0000019C,false,Rx,0,8,40,20,00,00,00,00,0B,09,
962779,0000019D,false,Rx,0,8,00,10,00,01,00,00,00,00,
963690,0000019E,false,Rx,0,8,15,00,00,00,00,32,00,00,
974876,00000419,false,Rx,0,8,F3,10,2A,D5,81,89,65,00,
976693,00000251,false,Rx,0,8,BB,48,40,00,00,00,00,00,
976732,00000252,false,Rx,0,8,00,00,00,00,03,00,00,11,
976757,00000253,false,Rx,0,8,11,00,00,39,39,00,80,30,
978690,00000448,false,Rx,0,8,7F,00,00,00,00,00,00,00,
984689,00000382,false,Rx,0,8,22,3D,00,00,00,01,08,00,
990689,000003A1,false,Rx,0,8,F4,7B,2D,00,FF,FF,FF,FF,
991712,000003A2,false,Rx,0,8,00,00,00,00,00,00,00,00,
991744,00000036,false,Rx,0,8,B5,5F,9A,51,05,00,25,01,
991771,00000037,false,Rx,0,8,00,5C,01,10,82,40,82,00,
991797,00000038,false,Rx,0,8,04,00,00,00,90,38,96,D4,
992705,00000039,false,Rx,0,8,05,00,00,00,00,00,00,00,
992750,000001F1,false,Rx,0,8,AD,E6,E2,00,00,00,24,00,
992792,000001F2,false,Rx,0,8,00,00,00,00,00,00,00,00,
995695,00000091,false,Rx,0,8,C7,A4,40,00,00,00,00,00,
995740,00000092,false,Rx,0,8,00,00,00,00,00,00,00,00,
995772,00000161,false,Rx,0,8,E6,04,E8,03,00,00,00,02,
995802,00000093,false,Rx,0,8,00,00,00,00,00,00,00,00,
996698,0000012B,false,Rx,0,8,88,40,D0,06,00,00,08,00,
996727,00000094,false,Rx,0,8,00,00,00,00,00,00,00,00,
996767,0000012C,false,Rx,0,8,00,00,01,00,00,64,00,00,
996809,0000011B,false,Rx,0,8,CF,BA,D0,05,80,08,A8,02,
997711,00000162,false,Rx,0,8,FF,FC,01,00,00,00,00,00,
997913,0000011C,false,Rx,0,8,00,05,20,00,22,00,01,01,
999708,00000146,false,Rx,0,8,28,34,40,10,04,01,00,00,
999750,00000147,false,Rx,0,8,00,04,7D,00,40,00,00,00,
999785,00000148,false,Rx,0,8,00,00,00,00,00,5E,40,05,
999826,00000149,false,Rx,0,8,00,00,00,00,00,00,00,00,
1000698,000001B1,false,Rx,0,8,13,83,40,00,72,00,00,00,
1000749,000001B2,false,Rx,0,8,23,00,04,0E,8C,00,79,EA,
1000790,000001B3,false,Rx,0,8,8C,16,00,00,61,65,69,65,
1000834,000001B4,false,Rx,0,8,63,67,17,00,00,40,01,00,
1002689,000002AB,false,Rx,0,8,06,A8,43,2B,00,00,04,00,
1002722,00000565,false,Rx,0,8,66,02,00,00,00,00,FF,FF,
1002751,000002AC,false,Rx,0,8,00,FF,FF,00,00,40,00,50,
1002802,000002AD,false,Rx,0,8,00,01,00,40,FF,FF,FF,0F,
1002840,000002AE,false,Rx,0,8,01,00,FF,3F,00,01,00,00,
1003693,000002B6,false,Rx,0,8,03,BA,43,01,00,00,00,40,
1003735,000002B7,false,Rx,0,8,12,01,7F,00,00,04,00,00,
1003778,000002B8,false,Rx,0,8,23,B1,0B,00,00,00,00,00,
1003817,000002B9,false,Rx,0,8,0A,00,00,00,00,00,00,00,
1004691,0000010B,false,Rx,0,8,78,A1,8A,00,00,17,00,05,
1004715,000002C1,false,Rx,0,8,2D,F3,22,21,00,41,00,A1,
1004762,0000010C,false,Rx,0,8,FF,F9,E7,1F,34,31,34,31,
1004793,000002C2,false,Rx,0,8,40,00,00,00,00,00,00,00,
1005702,0000010D,false,Rx,0,8,F2,02,17,00,10,00,00,35,
1005743,000002C3,false,Rx,0,8,00,00,00,00,00,00,00,00,
1005784,0000010E,false,Rx,0,8,82,00,0A,00,82,C0,AB,57,
1005813,000001A1,false,Rx,0,8,A3,4C,E8,FE,F7,7F,64,00,
1006691,000000FF,false,Rx,0,8,CB,10,00,00,00,00,02,00,
1006715,00000121,false,Rx,0,8,AF,CB,8A,00,00,20,00,05,
1006753,000001A2,false,Rx,0,8,00,00,00,00,00,08,00,00,
1006781,00000122,false,Rx,0,8,FF,D9,67,1F,3C,31,3C,33,
1007693,000001A3,false,Rx,0,8,FF,F3,3F,00,00,00,00,00,
1007733,00000123,false,Rx,0,8,F2,02,20,00,10,00,00,35,
1007773,000001A4,false,Rx,0,8,FE,07,00,00,00,00,00,00,
1007800,00000061,false,Rx,0,8,B5,7F,6C,00,00,00,00,00,
1008691,00000124,false,Rx,0,8,82,00,0A,00,82,00,20,40,
