Time Stamp,ID,Extended,Dir,Bus,LEN,D1,D2,D3,D4,D5,D6,D7,D8
4298534687,000002E6,false,Rx,0,8,FA,09,A4,01,00,00,00,15,
4298534826,00000256,false,Rx,0,8,7D,C7,A4,05,01,00,00,00,
4298534885,000002E7,false,Rx,0,8,0A,00,00,00,00,00,00,00,
4298534934,00000257,false,Rx,0,8,00,79,00,00,7D,04,41,76,
4298535180,000002E8,false,Rx,0,8,00,00,00,00,00,00,00,00,
4298535699,00000258,false,Rx,0,8,00,62,00,00,10,15,00,28,
4298535785,000002E9,false,Rx,0,8,00,00,00,00,00,00,00,00,
4298535829,00000259,false,Rx,0,8,EA,03,11,3C,E0,01,00,00,
4298549132,00000226,false,Rx,0,8,23,34,29,FF,12,E1,08,42,
4298549227,00000227,false,Rx,0,8,02,73,09,09,00,F1,17,03,
4298550627,000003AA,false,Rx,0,8,FF,00,D0,00,54,00,00,00,
4298551264,0000010B,false,Rx,0,8,57,69,88,00,00,00,00,01,
4298551472,0000010C,false,Rx,0,8,FF,01,00,00,3F,3E,3F,3F,
4298551711,0000010D,false,Rx,0,8,06,00,00,00,00,00,00,35,
4298551963,0000010E,false,Rx,0,8,00,00,0A,00,00,00,00,00,
4298552849,00000036,false,Rx,0,8,28,53,88,01,10,00,20,05,
4298552980,00000037,false,Rx,0,8,00,00,00,10,00,40,00,00,
4298553370,00000038,false,Rx,0,8,02,17,00,00,80,37,02,00,
4298553717,00000039,false,Rx,0,8,00,00,00,00,00,00,00,00,
4298556163,000004A3,false,Rx,1,8,80,00,48,0B,3E,00,00,00,
4298556303,000004A4,false,Rx,1,8,FF,FF,FF,00,00,00,00,00,
4298556351,000004F0,false,Rx,1,8,4A,15,22,1D,5C,1A,11,02,
4298557199,00000475,false,Rx,0,8,12,00,00,00,00,00,00,00,
4298557403,000001A1,false,Rx,0,8,21,BE,46,FE,F7,7F,64,00,
4298558419,00000496,false,Rx,0,8,12,00,00,00,00,00,00,00,
4298558740,0000019B,false,Rx,0,8,FF,1E,86,00,00,E4,00,00,
4298558907,000001A2,false,Rx,0,8,00,00,00,00,00,08,00,00,
4298558976,0000019C,false,Rx,0,8,40,20,00,00,00,00,0B,09,
4298559065,000001A3,false,Rx,0,8,FF,F3,3F,00,00,00,00,00,
4298559119,00000146,false,Rx,0,8,BB,20,37,10,04,01,00,00,
4298559177,000001A4,false,Rx,0,8,FE,07,00,00,00,00,00,00,
4298559320,00000147,false,Rx,0,8,00,04,7D,00,40,00,00,00,
4298559582,0000036F,false,Rx,0,8,28,31,01,00,00,00,00,00,
4298559815,00000148,false,Rx,0,8,00,00,00,00,00,6D,40,05,
4298560057,0000037F,false,Rx,0,8,93,40,52,24,41,02,00,00,
4298560311,00000149,false,Rx,0,8,00,00,00,00,00,00,00,00,
4298560553,000001B1,false,Rx,0,8,61,B2,37,00,72,00,00,00,
4298560782,0000019D,false,Rx,0,8,00,10,00,01,00,00,00,00,
4298561069,000001B2,false,Rx,0,8,23,00,04,0F,58,00,79,EB,
4298561275,0000019E,false,Rx,0,8,15,00,00,00,00,32,00,00,
4298561505,000001B3,false,Rx,0,8,57,1E,00,00,73,76,77,75,
4298561751,0000030B,false,Rx,0,8,1E,27,A7,00,04,00,00,00,
4298562395,000001B4,false,Rx,0,8,77,77,17,00,00,40,00,00,
4298562920,0000030C,false,Rx,0,8,00,00,0E,00,2C,00,A0,0F,
4298563020,0000030D,false,Rx,0,8,00,00,00,00,FF,00,00,00,
4298563073,0000030E,false,Rx,0,8,00,00,30,05,21,00,00,02,
4298563655,00000419,false,Rx,0,8,CF,A0,95,CE,51,60,7C,00,
4298564451,00000121,false,Rx,0,8,45,5A,89,00,00,00,00,01,
4298564797,00000122,false,Rx,0,8,FF,01,00,00,3D,3D,3D,3D,
4298565157,00000123,false,Rx,0,8,08,00,00,00,00,00,00,35,
4298565969,00000124,false,Rx,0,8,00,00,0A,00,00,00,00,00,
4298568627,000001AB,false,Rx,0,8,67,9E,D1,40,70,90,00,00,
4298568866,000001AC,false,Rx,0,8,00,28,00,00,00,00,00,00,
4298569343,000000A1,false,Rx,0,8,43,D8,24,00,00,00,00,00,
4298569552,000000A2,false,Rx,0,8,00,00,00,00,00,00,00,00,
4298569783,00000151,false,Rx,0,8,E6,C1,A7,A0,C8,00,28,17,
4298570028,000000A3,false,Rx,0,8,00,40,01,00,00,00,00,00,
4298570259,00000152,false,Rx,0,8,14,15,14,00,1F,00,00,00,
4298570516,000001F6,false,Rx,0,8,E8,46,A7,00,00,00,00,0C,
4298570763,00000153,false,Rx,0,8,00,00,00,00,00,00,00,00,
4298571003,000001F7,false,Rx,0,8,1C,00,05,00,00,00,00,00,
4298571256,00000154,false,Rx,0,8,00,00,00,00,00,00,00,00,
4298571511,000001F8,false,Rx,0,8,00,03,00,03,00,00,00,00,
4298571746,000002FB,false,Rx,0,8,AB,B6,A7,00,1F,13,C6,C6,
4298571976,000001F9,false,Rx,0,8,01,00,A0,C8,14,00,01,00,
4298572236,000002FC,false,Rx,0,8,00,00,14,17,00,00,78,9F,
4298572705,00000236,false,Rx,0,8,D1,D8,A7,00,62,61,34,6C,
4298572795,000002FD,false,Rx,0,8,00,00,00,00,00,1C,0A,EA,
4298573015,00000237,false,Rx,0,8,00,04,9D,00,00,BB,1D,00,
4298573339,000002FE,false,Rx,0,8,00,00,72,01,00,28,00,00,
4298573791,00000238,false,Rx,0,8,00,00,1F,00,00,00,00,00,
4298573984,00000326,false,Rx,0,8,9E,DB,A7,00,10,00,00,00,
4298574044,00000239,false,Rx,0,8,00,00,00,00,01,00,00,00,
4298574172,00000327,false,Rx,0,8,00,00,00,00,05,00,00,00,
4298574967,0000025B,false,Rx,0,8,EE,51,A7,40,40,20,00,00,
4298575102,00000328,false,Rx,0,8,05,00,01,00,00,03,00,00,
4298575660,0000025C,false,Rx,0,8,00,00,1C,00,58,70,14,00,
4298575730,00000329,false,Rx,0,8,A0,03,00,00,00,00,00,00,
4298576002,0000025D,false,Rx,0,8,00,C8,00,00,00,80,C0,70,
4298576075,00000331,false,Rx,0,8,B9,B5,A7,F1,C8,A0,2C,97,
4298576420,0000025E,false,Rx,0,8,C0,02,09,00,00,00,00,00,
4298576575,00000332,false,Rx,0,8,90,06,3C,00,00,00,00,00,
4298576622,00000333,false,Rx,0,8,00,00,00,1C,0C,40,20,A0,
4298576665,00000334,false,Rx,0,8,C8,00,00,00,85,70,F1,8F,
4298577961,0000011B,false,Rx,0,8,F7,6C,8F,05,80,08,A8,02,
4298578514,0000012B,false,Rx,0,8,B0,96,8F,06,00,00,08,00,
4298578591,0000011C,false,Rx,0,8,00,05,20,00,22,00,01,01,
4298578635,0000012C,false,Rx,0,8,00,00,01,00,00,64,00,00,
4298578683,00000405,false,Rx,0,8,73,90,00,00,00,01,00,00,
4298578740,00000413,false,Rx,0,8,54,90,00,41,00,00,00,00,
4298578837,00000410,false,Rx,0,8,58,20,51,3C,B4,6A,FF,FF,
4298579331,00000061,false,Rx,0,8,36,C8,25,00,00,00,00,00,
4298579430,00000411,false,Rx,0,8,CF,51,50,50,00,00,44,04,
4298579719,00000062,false,Rx,0,8,02,02,00,02,40,FF,00,FF,
4298580036,00000412,false,Rx,0,8,7D,80,00,00,00,00,00,00,
4298580110,00000063,false,Rx,0,8,00,00,05,00,00,08,FD,00,
4298581001,00000414,false,Rx,0,8,26,20,00,00,28,00,00,00,
4298581499,00000064,false,Rx,0,8,00,00,00,04,FF,FA,00,00,
4298581660,00000416,false,Rx,0,8,55,00,00,00,00,00,00,00,
4298581708,00000495,false,Rx,0,8,49,00,00,00,00,00,00,00,
4298581757,00000417,false,Rx,0,8,D8,50,00,00,00,01,00,00,
4298582665,00000418,false,Rx,0,8,B0,80,00,00,12,0C,00,00,
4298593864,000001F1,false,Rx,0,8,0B,C7,6E,01,00,00,28,00,
4298593957,000001F2,false,Rx,0,8,00,00,00,00,00,00,00,00,
4298596148,000004F0,false,Rx,1,8,4A,15,22,1D,5C,1A,11,02,
4298597600,00000091,false,Rx,0,8,8A,74,A5,00,00,00,00,00,
4298597690,00000092,false,Rx,0,8,00,00,00,00,00,00,00,00,
4298598064,00000093,false,Rx,0,8,00,00,00,00,00,00,00,00,
4298598158,00000094,false,Rx,0,8,00,00,00,00,00,00,00,00,
4298601426,0000010B,false,Rx,0,8,28,45,8D,00,00,00,00,01,
4298601529,0000010C,false,Rx,0,8,FF,01,00,00,3F,3E,3F,3F,
4298601915,0000010D,false,Rx,0,8,06,00,00,00,00,00,00,35,
4298601989,0000010E,false,Rx,0,8,00,00,0A,00,00,00,00,00,
4298603051,00000036,false,Rx,0,8,57,7F,8D,01,10,00,20,05,
4298603160,00000037,false,Rx,0,8,00,00,00,10,00,40,00,00,
4298603240,00000038,false,Rx,0,8,02,17,00,00,80,37,02,00,
4298603512,000002AB,false,Rx,0,8,F2,C7,A8,0C,0C,00,00,00,
4298604249,00000039,false,Rx,0,8,00,00,00,00,00,00,00,00,
4298604564,000002AC,false,Rx,0,8,00,FF,FF,00,00,40,00,50,
4298604611,00000251,false,Rx,0,8,7A,5F,A7,00,00,00,00,00,
4298604666,000002AD,false,Rx,0,8,00,02,00,40,FF,FF,FF,0F,
4298604997,00000252,false,Rx,0,8,00,00,00,00,03,00,00,00,
4298605345,000002AE,false,Rx,0,8,01,00,FF,3F,00,01,00,00,
4298605829,00000253,false,Rx,0,8,00,00,00,00,00,00,80,3D,
4298605977,000002B6,false,Rx,0,8,E8,5D,A8,00,00,00,00,40,
4298606051,00000396,false,Rx,0,8,B8,ED,53,0F,04,01,00,00,
4298606105,000002B7,false,Rx,0,8,B9,01,D2,00,00,04,00,00,
4298606155,00000397,false,Rx,0,8,10,00,00,00,00,00,00,00,
4298606384,000002B8,false,Rx,0,8,B9,B1,11,00,00,00,00,00,
4298607427,00000398,false,Rx,0,8,00,00,00,00,00,00,00,00,
4298607927,000002B9,false,Rx,0,8,0A,00,00,00,00,00,00,00,
4298607987,000002EB,false,Rx,0,8,70,79,53,07,04,01,00,00,
4298608054,000002D6,false,Rx,0,8,0D,A1,53,00,00,00,00,00,
4298608100,000002EC,false,Rx,0,8,0A,00,00,00,00,00,00,00,
4298608153,0000019B,false,Rx,0,8,F2,D8,8B,00,00,E4,00,00,
4298608215,000001FB,false,Rx,0,8,DF,16,A8,00,00,00,00,00,
4298608427,00000161,false,Rx,0,8,A7,E2,49,03,00,00,00,02,
4298608580,000001FC,false,Rx,0,8,00,00,00,00,00,00,00,00,
4298608837,00000162,false,Rx,0,8,FF,FC,01,00,00,00,00,00,
4298609431,000001FD,false,Rx,0,8,00,1A,03,00,00,00,00,00,
4298609759,0000019C,false,Rx,0,8,40,20,00,00,00,00,0B,09,
4298609854,000001FE,false,Rx,0,8,00,00,00,00,00,00,00,00,
4298610424,0000019D,false,Rx,0,8,00,10,00,01,00,00,00,00,
4295269798,000002D7,false,Rx,0,8,00,00,00,00,03,00,00,00,
4295270142,0000019E,false,Rx,0,8,15,00,00,00,00,32,00,00,
4295270481,000002D8,false,Rx,0,8,00,00,00,00,00,00,38,3C,
4295270771,000002ED,false,Rx,0,8,00,00,00,00,00,00,00,00,
4295270871,000002D9,false,Rx,0,8,00,00,00,00,00,00,00,00,
4295271178,000002EE,false,Rx,0,8,00,00,00,00,00,00,00,00,
4295271299,000002E1,false,Rx,0,8,1A,DD,A8,00,00,00,00,00,
4295271343,00000356,false,Rx,0,8,67,B7,54,00,00,00,00,00,
4295271385,000002E2,false,Rx,0,8,00,00,00,00,00,7E,00,04,
4295271465,00000357,false,Rx,0,8,00,00,00,00,00,4B,4D,48,
4295271787,000002E3,false,Rx,0,8,00,00,00,00,00,00,72,01,
4295272000,00000358,false,Rx,0,8,35,41,45,4D,52,37,33,4F,
4295272057,000002E4,false,Rx,0,8,02,00,00,00,00,00,00,00,
4295272183,00000359,false,Rx,0,8,51,4F,34,52,4A,35,33,00,
4295272433,00000419,false,Rx,0,8,CF,A0,95,CE,51,60,7C,00,
4295272675,00000565,false,Rx,0,8,66,02,00,00,00,00,FF,FF,
4295273569,00000121,false,Rx,0,8,B6,C4,8E,00,00,00,00,01,
4295273672,00000122,false,Rx,0,8,FF,01,00,00,3D,3D,3D,3D,
4295274170,00000123,false,Rx,0,8,08,00,00,00,00,00,00,35,
4295274268,00000448,false,Rx,0,8,7F,00,00,00,00,00,00,00,
4295274553,00000124,false,Rx,0,8,00,00,0A,00,00,00,00,00,
4295278434,000000A1,false,Rx,0,8,75,9B,29,00,00,00,00,00,
4295278641,000000A2,false,Rx,0,8,00,00,00,00,00,00,00,00,
4295278842,000000A3,false,Rx,0,8,00,40,01,00,00,00,00,00,
4295282228,000002BF,false,Rx,0,8,FF,FF,FF,00,00,00,00,00,
4295282446,0000047F,false,Rx,0,8,FF,FF,FF,FF,FF,FF,F3,FF,
4295282713,00000653,false,Rx,0,8,0A,19,03,01,02,2A,00,00,
4295284588,000000C5,false,Rx,1,8,00,00,00,00,00,00,00,00,
4295284843,00000244,false,Rx,1,8,FF,FF,FF,FF,FF,FF,FF,FF,
4295285153,0000041F,false,Rx,1,8,00,0C,00,00,00,00,00,00,
4295285375,000004B4,false,Rx,1,8,00,00,00,00,00,00,00,00,
4295285672,000004B5,false,Rx,1,8,08,00,F0,07,00,00,00,00,
4295285896,000004B7,false,Rx,1,8,08,00,F0,07,00,00,00,00,
4295286230,000004CA,false,Rx,1,8,00,00,00,00,00,00,00,00,
4295286474,000004CC,false,Rx,1,8,08,00,00,27,00,00,03,00,
4295286741,0000011B,false,Rx,0,8,35,B6,94,05,80,08,A8,02,
4295286812,0000012B,false,Rx,0,8,72,4C,94,06,00,00,08,00,
4295286867,000004CE,false,Rx,1,8,14,01,FF,FF,FF,FF,FF,FF,
4295286922,0000011C,false,Rx,0,8,00,05,20,00,22,00,01,01,
4295286973,000004D7,false,Rx,1,8,23,01,00,00,00,00,00,00,
4295287186,0000012C,false,Rx,0,8,00,00,01,00,00,64,00,00,
4295287475,000004D8,false,Rx,1,8,41,10,F6,F0,40,F2,1E,CC,
4295287944,000004DD,false,Rx,1,8,00,00,FE,00,04,00,00,00,
4295288006,00000061,false,Rx,0,8,B7,BC,2A,00,00,00,00,00,
4295288441,000004DF,false,Rx,1,8,FF,03,0C,3F,00,00,00,00,
4295288521,00000062,false,Rx,0,8,02,02,00,02,40,FF,00,FF,
4295288705,00000401,false,Rx,0,8,FE,70,10,00,00,01,00,00,
4295288923,000004E7,false,Rx,1,8,00,30,00,00,00,00,69,00,
4295288988,00000063,false,Rx,0,8,00,00,05,00,00,08,FD,00,
4295289428,000004E8,false,Rx,1,8,FF,FF,FF,26,FF,FF,FF,00,
4295289503,00000064,false,Rx,0,8,00,00,00,04,FF,FA,00,00,
4295289908,000004E9,false,Rx,1,8,00,00,00,00,00,00,00,00,
4295290396,000004EA,false,Rx,1,8,00,00,00,00,00,00,00,00,
4295290862,000004EB,false,Rx,1,8,04,A8,22,1C,80,00,00,00,
4295291363,000004EC,false,Rx,1,8,FF,FF,FF,FF,FF,FF,FF,0F,
4295291645,000004ED,false,Rx,1,8,FF,FF,FF,FF,FF,FF,FF,1F,
4295291936,000004EE,false,Rx,1,8,FF,FF,00,00,00,00,00,00,
4295292193,000004EF,false,Rx,1,8,60,00,60,00,29,14,00,00,
4295292452,0000063D,false,Rx,1,8,00,80,00,00,00,00,00,00,
4295292752,0000063E,false,Rx,1,8,FF,FF,FF,FF,FF,FF,FF,FF,
4295293015,0000063F,false,Rx,1,8,00,10,00,C4,FF,00,00,00,
4295293291,00000640,false,Rx,1,8,FF,FF,FF,00,FF,FF,FF,00,
4295293546,00000641,false,Rx,1,8,FF,FF,FF,FF,0F,FF,FF,FF,
4295293769,00000646,false,Rx,1,8,00,00,00,80,01,00,00,00,
4295294156,000003B6,false,Rx,0,8,E9,BC,52,00,00,00,00,41,
4295294625,000003B7,false,Rx,0,8,40,00,00,00,00,08,00,00,
4295294818,000003B8,false,Rx,0,8,0A,00,00,00,00,00,69,0E,
4295294967,000004F0,false,Rx,1,8,4A,15,22,1D,5C,1A,11,02,
4295295112,000003B9,false,Rx,0,8,00,00,00,00,00,00,00,00,
4295296872,000001E1,false,Rx,0,8,51,4E,51,02,00,00,00,00,
4295297048,000001E2,false,Rx,0,8,00,00,00,00,00,00,00,00,
4295302383,00000419,false,Rx,0,8,CF,A0,95,CE,51,60,7C,00,
4295307863,000002FF,false,Rx,0,8,83,B9,00,F0,3F,00,00,00,
4295308784,000001E6,false,Rx,0,8,C8,18,4C,02,00,00,00,00,
4295308948,00000316,false,Rx,0,8,19,90,95,24,11,80,0A,00,
4295309229,000001E7,false,Rx,0,8,00,00,22,03,20,01,00,00,
4295309450,00000317,false,Rx,0,8,00,00,05,00,00,00,00,00,
4295309675,000001BB,false,Rx,0,8,B4,F2,4C,02,00,00,00,0A,
4295309920,00000415,false,Rx,0,8,40,13,10,00,08,01,00,00,
4295310167,000001BC,false,Rx,0,8,32,00,00,00,02,00,00,00,
4295310408,0000010B,false,Rx,0,8,6C,F5,92,00,00,00,00,01,
4295310661,000001BD,false,Rx,0,8,00,00,00,00,00,00,00,00,
4295310897,0000010C,false,Rx,0,8,FF,01,00,00,3F,3E,3F,3F,
4295311140,00000472,false,Rx,0,8,5C,EC,00,40,08,41,00,45,
4295311375,0000010D,false,Rx,0,8,06,00,00,00,00,00,00,35,
4295311623,00000473,false,Rx,0,8,5F,24,00,25,00,00,00,78,
4295311872,0000010E,false,Rx,0,8,00,00,0A,00,00,00,00,00,
4295312119,00000474,false,Rx,0,8,53,98,00,00,00,00,00,10,
4295312382,00000036,false,Rx,0,8,13,CF,92,01,10,00,20,05,
4295312973,00000037,false,Rx,0,8,00,00,00,10,00,40,00,00,
4295313112,00000038,false,Rx,0,8,02,17,00,00,80,37,02,00,
4295313173,00000039,false,Rx,0,8,00,00,00,00,00,00,00,00,
4295316379,000001A1,false,Rx,0,8,2C,78,4B,FE,F7,7F,64,00,
4295316478,000001A2,false,Rx,0,8,00,00,00,00,00,08,00,00,
4295316805,000001A3,false,Rx,0,8,FF,F3,3F,00,00,00,00,00,
4295316923,0000019B,false,Rx,0,8,8F,1D,90,00,00,E4,00,00,
4295317177,000001A4,false,Rx,0,8,FE,07,00,00,00,00,00,00,
4295317413,0000019C,false,Rx,0,8,40,20,00,00,00,00,0B,09,
4295317652,0000036F,false,Rx,0,8,20,41,01,00,00,00,00,00,
4295317920,00000146,false,Rx,0,8,03,21,3C,10,04,01,00,00,
4295318134,0000037F,false,Rx,0,8,2A,50,52,24,41,02,00,00,
4295318369,00000147,false,Rx,0,8,00,04,7D,00,40,00,00,00,
4295318635,00000148,false,Rx,0,8,00,00,00,00,00,6D,40,05,
4295318927,00000149,false,Rx,0,8,00,00,00,00,00,00,00,00,
4295319394,0000019D,false,Rx,0,8,00,10,00,01,00,00,00,00,
4295319473,000001B1,false,Rx,0,8,D9,B3,3C,00,72,00,00,00,
4295319724,0000019E,false,Rx,0,8,15,00,00,00,00,32,00,00,
4295319863,000001B2,false,Rx,0,8,23,00,04,0F,58,00,79,EB,
4295320139,000001B3,false,Rx,0,8,57,1E,00,00,73,76,77,75,
4295320342,000001B4,false,Rx,0,8,77,77,17,00,00,40,00,00,
4295323518,00000121,false,Rx,0,8,7E,C6,93,00,00,00,00,01,
4295323649,00000122,false,Rx,0,8,FF,01,00,00,3D,3D,3D,3D,
4295323916,00000123,false,Rx,0,8,08,00,00,00,00,00,00,35,
4295324165,00000124,false,Rx,0,8,00,00,0A,00,00,00,00,00,
4295327381,00000419,false,Rx,0,8,30,B0,94,CE,51,60,7C,00,
4295327554,000001AB,false,Rx,0,8,F8,F6,D6,40,70,90,00,00,
4295327798,000003A1,false,Rx,0,8,36,A1,36,00,FF,FF,FF,FF,
4295328050,000001AC,false,Rx,0,8,00,28,00,00,00,00,00,00,
4295328296,000003A2,false,Rx,0,8,00,00,00,00,00,00,00,00,
4295328541,000000A1,false,Rx,0,8,7C,1E,2E,00,00,00,00,00,
4295328797,000000A2,false,Rx,0,8,00,00,00,00,00,00,00,00,
4295329043,000000A3,false,Rx,0,8,00,40,01,00,00,00,00,00,
4295336378,0000011B,false,Rx,0,8,46,8F,99,05,80,08,A8,02,
4295336571,0000012B,false,Rx,0,8,01,75,99,06,00,00,08,00,
4295336799,0000011C,false,Rx,0,8,00,05,20,00,22,00,01,01,
4295337054,0000012C,false,Rx,0,8,00,00,01,00,00,64,00,00,
4295337933,00000061,false,Rx,0,8,C8,90,2F,00,00,00,00,00,
4295338127,00000062,false,Rx,0,8,02,02,00,02,40,FF,00,FF,
4295338376,00000063,false,Rx,0,8,00,00,05,00,00,08,FD,00,
4295338629,00000064,false,Rx,0,8,00,00,00,04,FF,FA,00,00,
4295342508,000000FF,false,Rx,0,8,CB,10,00,00,00,00,02,00,
4295343218,00000394,false,Rx,0,8,2A,22,1A,49,00,00,00,00,
4295343462,000003C3,false,Rx,0,8,45,10,31,30,36,00,00,00,
4295343703,000003E0,false,Rx,0,8,76,C0,01,00,54,03,00,00,
4295344445,000003E5,false,Rx,0,8,2F,10,01,00,00,00,00,00,
4295344659,000003E6,false,Rx,0,8,77,70,00,00,00,00,00,00,
4295344906,0000041A,false,Rx,0,8,6A,C0,12,00,50,41,00,00,
4295345173,0000041B,false,Rx,0,8,BE,70,00,00,00,00,00,00,
4295345430,0000041C,false,Rx,0,8,F3,60,E8,00,00,00,00,00,
4295345692,00000422,false,Rx,0,8,5B,A0,01,00,00,00,04,00,
4295346108,00000432,false,Rx,0,8,03,20,02,00,00,00,00,00,
4295347770,00000435,false,Rx,0,8,2E,B0,00,40,00,00,00,00,
4295347965,00000442,false,Rx,0,8,CE,20,11,81,00,00,00,00,
4295348266,00000444,false,Rx,0,8,25,E0,20,46,55,50,00,00,
4295348536,00000445,false,Rx,0,8,18,80,00,00,00,00,00,18,
4295348905,00000464,false,Rx,0,8,DD,50,F0,FF,38,7F,05,00,
4295356478,00000091,false,Rx,0,8,40,9F,A6,00,00,00,00,00,
4295357035,00000092,false,Rx,0,8,00,00,00,00,00,00,00,00,
4295357132,00000093,false,Rx,0,8,00,00,00,00,00,00,00,00,
4295357188,00000094,false,Rx,0,8,00,00,00,00,00,00,00,00,
4295360678,0000010B,false,Rx,0,8,13,D9,97,00,00,00,00,01,
4295360806,0000010C,false,Rx,0,8,FF,01,00,00,3F,3E,3F,3F,
4295360859,0000010D,false,Rx,0,8,06,00,00,00,00,00,00,35,
4295361099,0000010E,false,Rx,0,8,00,00,0A,00,00,00,00,00,
4295361735,00000036,false,Rx,0,8,6C,E3,97,01,10,00,20,05,
4295361985,00000037,false,Rx,0,8,00,00,00,10,00,40,00,00,
4295362229,00000038,false,Rx,0,8,02,17,00,00,80,37,02,00,
4295362540,00000039,false,Rx,0,8,00,00,00,00,00,00,00,00,
4295363826,000002C1,false,Rx,0,8,C7,13,55,21,00,41,00,A1,
4295363928,000002C2,false,Rx,0,8,40,00,00,00,00,00,00,00,
4295364287,000002C3,false,Rx,0,8,00,00,00,00,00,00,00,00,
4295364634,000002C4,false,Rx,0,8,00,00,00,00,00,00,00,00,
4295365301,0000033B,false,Rx,0,8,33,91,A9,00,00,00,00,00,
4295365509,0000033C,false,Rx,0,8,00,00,00,00,F0,00,00,00,
4295365784,0000033D,false,Rx,0,8,00,00,00,00,00,00,00,00,
4295366343,0000033E,false,Rx,0,8,00,00,00,00,00,00,00,00,
4295366439,00000161,false,Rx,0,8,38,8A,4E,03,00,00,00,02,
4295366735,00000162,false,Rx,0,8,FF,FC,01,00,00,00,00,00,
4295366818,0000019B,false,Rx,0,8,F0,31,95,00,00,E4,00,00,
4295367377,0000019C,false,Rx,0,8,40,20,00,00,00,00,0B,09,
4295367742,00000380,false,Rx,0,8,AD,D7,FF,00,00,00,00,01,
4295367825,0000019D,false,Rx,0,8,00,10,00,01,00,00,00,00,
4295367916,00000419,false,Rx,0,8,30,B0,94,CE,51,60,7C,00,
4295368024,0000019E,false,Rx,0,8,15,00,00,00,00,32,00,00,
4295368404,00000382,false,Rx,0,8,F1,7A,01,00,00,01,08,00,
4295368777,00000566,false,Rx,0,8,16,02,00,00,00,00,FF,FF,
4295369497,00000383,false,Rx,0,8,12,ED,01,00,02,00,00,00,
4295370490,00000384,false,Rx,0,8,E9,DC,02,00,00,FF,00,21,
4295371579,000003B0,false,Rx,0,8,72,37,FF,C7,00,00,03,C0,
4295372413,000003B1,false,Rx,0,8,9B,3C,FF,40,00,00,20,00,
4295373002,00000111,false,Rx,0,8,E8,00,1D,01,00,00,00,00,
4295373106,00000112,false,Rx,0,8,00,00,00,00,00,00,00,00,
4295373687,000003B2,false,Rx,0,8,36,15,FF,02,29,2F,34,00,
4295373752,00000113,false,Rx,0,8,00,00,00,00,00,00,00,00,
4295373794,00000121,false,Rx,0,8,7C,C6,98,00,00,00,00,01,
4295374109,00000114,false,Rx,0,8,00,00,00,00,00,00,00,00,
4295374228,00000122,false,Rx,0,8,FF,01,00,00,3D,3D,3D,3D,
4295374774,00000123,false,Rx,0,8,07,00,00,00,00,00,00,35,
4295374829,00000124,false,Rx,0,8,00,00,0A,00,00,00,00,00,
4295375386,00000427,false,Rx,0,8,1D,86,FF,00,80,0A,00,00,
4295376068,00000487,false,Rx,1,8,00,00,00,00,00,00,00,00,
4295376398,00000642,false,Rx,1,8,FF,FF,FF,FF,FF,FF,00,00,
4295378811,0000042A,false,Rx,0,8,F4,DE,FF,01,00,10,00,00,
4295379033,000000A1,false,Rx,0,8,19,1D,33,00,00,00,00,00,
4295379099,000000A2,false,Rx,0,8,00,00,00,00,00,00,00,00,
4295379144,000000A3,false,Rx,0,8,00,40,01,00,00,00,00,00,
4295379903,0000048B,false,Rx,0,8,21,FF,11,1E,01,00,00,00,
4295380010,0000048C,false,Rx,0,8,00,00,00,00,00,00,00,00,
4295386448,0000011B,false,Rx,0,8,D9,E7,9E,05,80,08,A8,02,
4295386553,0000012B,false,Rx,0,8,9E,1D,9E,06,00,00,08,00,
4295386907,0000011C,false,Rx,0,8,00,05,20,00,22,00,01,01,
4295386993,0000012C,false,Rx,0,8,00,00,01,00,00,64,00,00,
4295388055,00000061,false,Rx,0,8,B5,55,34,00,00,00,00,00,
4295388151,00000062,false,Rx,0,8,02,02,00,02,40,FF,00,FF,
4295388519,00000063,false,Rx,0,8,00,00,05,00,00,08,FD,00,
4295388649,00000064,false,Rx,0,8,00,00,00,04,FF,FA,00,00,
4295393325,000002E6,false,Rx,0,8,76,BB,A6,01,00,00,00,15,
4295393421,00000256,false,Rx,0,8,F1,75,A6,05,01,00,00,00,
4295393814,000002E7,false,Rx,0,8,0A,00,00,00,00,00,00,00,
4295393872,00000257,false,Rx,0,8,00,79,00,00,7D,04,41,76,
4295394597,000002E8,false,Rx,0,8,00,00,00,00,00,00,00,00,
4295394892,00000258,false,Rx,0,8,00,62,00,00,10,15,00,28,
4295394980,000002E9,false,Rx,0,8,00,00,00,00,00,00,00,00,
4295395040,00000259,false,Rx,0,8,EA,03,11,3C,E0,01,00,00,
4295402894,000001F1,false,Rx,0,8,1B,9D,71,01,00,00,28,00,
4295402987,000001F2,false,Rx,0,8,00,00,00,00,00,00,00,00,
4295407750,00000419,false,Rx,0,8,30,B0,94,CE,51,60,7C,00,
4295407845,00000226,false,Rx,0,8,4A,74,2B,FF,12,E1,08,42,
4295407991,00000227,false,Rx,0,8,02,73,09,09,00,F1,17,03,
4295409991,000003AA,false,Rx,0,8,FF,00,D0,00,54,00,00,00,
4295410269,0000010B,false,Rx,0,8,AB,D8,9C,00,00,00,00,01,
4295410478,0000010C,false,Rx,0,8,FF,01,00,00,3F,3E,3F,3F,
4295410873,0000010D,false,Rx,0,8,06,00,00,00,00,00,00,35,
4295411731,0000010E,false,Rx,0,8,00,00,0A,00,00,00,00,00,
4295412119,00000036,false,Rx,0,8,D4,E2,9C,01,10,00,20,05,
4295412218,00000037,false,Rx,0,8,00,00,00,10,00,40,00,00,
4295412263,00000038,false,Rx,0,8,02,17,00,00,80,37,02,00,
4295412626,00000039,false,Rx,0,8,00,00,00,00,00,00,00,00,
4295415869,000004A3,false,Rx,1,8,80,00,48,0B,3E,00,00,00,
4295416086,00000475,false,Rx,0,8,12,00,00,00,00,00,00,00,
4295416208,000004A4,false,Rx,1,8,FF,FF,FF,00,00,00,00,00,
4295416280,00000496,false,Rx,0,8,12,00,00,00,00,00,00,00,
4295416348,000001A1,false,Rx,0,8,51,BD,50,FE,F7,7F,64,00,
4295416802,000001A2,false,Rx,0,8,00,00,00,00,00,08,00,00,
4295416975,0000019B,false,Rx,0,8,71,45,9A,00,00,E4,00,00,
4295417535,000001A3,false,Rx,0,8,FF,F3,3F,00,00,00,00,00,
4295417655,0000019C,false,Rx,0,8,40,20,00,00,00,00,0B,09,
4295417715,000001A4,false,Rx,0,8,FE,07,00,00,00,00,00,00,
4295417988,00000146,false,Rx,0,8,17,99,41,10,04,01,00,00,
4295418356,0000036F,false,Rx,0,8,99,51,01,00,00,00,00,00,
4295418798,00000147,false,Rx,0,8,00,04,7D,00,40,00,00,00,
4295418888,0000037F,false,Rx,0,8,FC,60,52,24,41,02,00,00,
4295418930,00000148,false,Rx,0,8,00,00,00,00,00,6D,40,05,
4295420047,00000149,false,Rx,0,8,00,00,00,00,00,00,00,00,
4295420307,000001B1,false,Rx,0,8,CD,0B,41,00,72,00,00,00,
4295420359,0000019D,false,Rx,0,8,00,10,00,01,00,00,00,00,
4295420410,000001B2,false,Rx,0,8,23,00,04,0F,58,00,79,EB,
4295420478,0000019E,false,Rx,0,8,15,00,00,00,00,32,00,00,
4295420564,000001B3,false,Rx,0,8,57,1E,00,00,73,76,77,75,
4295420810,0000030B,false,Rx,0,8,79,B8,A9,00,04,00,00,00,
4295421030,000001B4,false,Rx,0,8,77,77,17,00,00,40,00,00,
4295421529,0000030C,false,Rx,0,8,00,00,0E,00,2C,00,A0,0F,
4295421603,0000030D,false,Rx,0,8,00,00,00,00,FF,00,00,00,
4295421880,0000030E,false,Rx,0,8,00,00,30,05,21,00,00,04,
4295423428,00000121,false,Rx,0,8,03,EA,9D,00,00,00,00,01,
4295423657,00000122,false,Rx,0,8,FF,01,00,00,3D,3D,3D,3D,
4295423914,00000123,false,Rx,0,8,07,00,00,00,00,00,00,35,
4295424194,00000124,false,Rx,0,8,00,00,0A,00,00,00,00,00,
4295427399,000001AB,false,Rx,0,8,8B,CF,DB,40,70,90,00,00,
4295427901,000001AC,false,Rx,0,8,00,28,00,00,00,00,00,00,
4295428512,000000A1,false,Rx,0,8,25,EC,38,00,00,00,00,00,
4295428604,000000A2,false,Rx,0,8,00,00,00,00,00,00,00,00,
4295429238,00000151,false,Rx,0,8,21,EC,A9,A0,C8,00,28,17,
4295429307,000000A3,false,Rx,0,8,00,40,01,00,00,00,00,00,
4295429353,00000152,false,Rx,0,8,14,15,14,00,1F,00,00,00,
4295429513,00000236,false,Rx,0,8,16,F5,A9,00,62,61,34,6C,
4295429785,00000153,false,Rx,0,8,00,00,00,00,00,00,00,00,
4295429982,000001F6,false,Rx,0,8,2F,6B,A9,00,00,00,00,0C,
4295430245,00000154,false,Rx,0,8,00,00,00,00,00,00,00,00,
4295430746,000001F7,false,Rx,0,8,1C,00,05,00,00,00,00,00,
4295431077,000002FB,false,Rx,0,8,6C,9B,A9,00,1F,13,C6,C6,
4295431579,000001F8,false,Rx,0,8,00,03,00,03,00,00,00,00,
4295431694,000002FC,false,Rx,0,8,00,00,14,17,00,00,78,9F,
4295431749,000001F9,false,Rx,0,8,01,00,A0,C8,14,00,01,00,
4295431805,000002FD,false,Rx,0,8,00,00,00,00,00,1C,0A,EA,
4295432211,00000237,false,Rx,0,8,00,04,9D,00,00,BB,1D,00,
4295432332,000002FE,false,Rx,0,8,00,00,72,01,00,28,00,00,
4295432435,00000238,false,Rx,0,8,00,00,1F,00,00,00,00,00,
4295432682,00000326,false,Rx,0,8,59,F6,A9,00,10,00,00,00,
4295433152,00000239,false,Rx,0,8,00,00,00,00,01,00,00,00,
4295433257,00000327,false,Rx,0,8,00,00,00,00,05,00,00,00,
4295433512,0000025B,false,Rx,0,8,82,6E,A9,40,40,20,00,00,
4295433874,00000328,false,Rx,0,8,05,00,01,00,00,03,00,00,
4295434202,0000025C,false,Rx,0,8,00,00,1C,00,58,70,14,00,
4295434284,00000329,false,Rx,0,8,A0,03,00,00,00,00,00,00,
4295434491,0000025D,false,Rx,0,8,00,C8,00,00,00,80,C0,70,
4295434640,00000331,false,Rx,0,8,7E,98,A9,F1,C8,A0,2C,97,
4295435490,0000025E,false,Rx,0,8,3D,02,09,06,00,00,00,00,
4295436031,00000332,false,Rx,0,8,90,06,3C,00,00,00,00,00,
4295436121,00000333,false,Rx,0,8,00,00,00,1C,0C,40,20,A0,
4295436607,00000334,false,Rx,0,8,C8,00,00,00,85,70,F1,8F,
4295436938,0000011B,false,Rx,0,8,B4,BB,A3,05,80,08,A8,02,
4295437080,0000012B,false,Rx,0,8,F3,41,A3,06,00,00,08,00,
4295437127,0000011C,false,Rx,0,8,00,05,20,00,22,00,01,01,
4295437170,0000012C,false,Rx,0,8,00,00,01,00,00,64,00,00,
4295437675,00000405,false,Rx,0,8,73,90,00,00,00,01,00,00,
4295438655,00000413,false,Rx,0,8,54,90,00,41,00,00,00,00,
4295438732,00000410,false,Rx,0,8,58,20,51,3C,B4,6A,FF,FF,
4295438806,00000061,false,Rx,0,8,B8,93,39,00,00,00,00,00,
4295438850,00000411,false,Rx,0,8,CF,51,50,50,00,00,44,04,
4295438893,00000062,false,Rx,0,8,02,02,00,02,40,FF,00,FF,
4295438938,00000412,false,Rx,0,8,7D,80,00,00,00,00,00,00,
4295439089,00000063,false,Rx,0,8,00,00,05,00,00,08,FD,00,
4295439600,00000414,false,Rx,0,8,26,20,00,00,28,00,00,00,
4295439933,00000064,false,Rx,0,8,00,00,00,04,FF,FA,00,00,
4295440393,00000416,false,Rx,0,8,55,00,00,00,00,00,00,00,
4295440586,00000495,false,Rx,0,8,49,00,00,00,00,00,00,00,
4295441025,00000417,false,Rx,0,8,D8,50,00,00,00,01,00,00,
4295441388,00000418,false,Rx,0,8,B0,80,00,00,12,0C,00,00,
4295441469,00000419,false,Rx,0,8,30,B0,94,CE,51,60,7C,00,
4295446749,000001E1,false,Rx,0,8,A7,66,54,02,00,00,00,00,
4295446844,000001E2,false,Rx,0,8,00,00,00,00,00,00,00,00,
4295456640,00000091,false,Rx,0,8,06,C6,A7,00,00,00,00,00,
4295456734,00000092,false,Rx,0,8,00,00,00,00,00,00,00,00,
4295457119,00000093,false,Rx,0,8,00,00,00,00,00,00,00,00,
4295457210,00000094,false,Rx,0,8,00,00,00,00,00,00,00,00,
4295458949,000001E6,false,Rx,0,8,85,F0,4F,02,00,00,00,00,
4295459476,000001BB,false,Rx,0,8,B1,AB,4F,02,00,00,00,0A,
4295459566,000001BC,false,Rx,0,8,32,00,00,00,02,00,00,00,
4295459627,000001BD,false,Rx,0,8,00,00,00,00,00,00,00,00,
4295460270,000001E7,false,Rx,0,8,00,00,22,03,20,01,00,00,
4295460336,0000010B,false,Rx,0,8,C8,43,A1,00,00,00,00,01,
4295460605,0000010C,false,Rx,0,8,FF,01,00,00,3F,3E,3F,3F,
4295460729,0000010D,false,Rx,0,8,06,00,00,00,00,00,00,35,
4295460964,0000010E,false,Rx,0,8,00,00,0A,00,00,00,00,00,
4295461754,00000036,false,Rx,0,8,B7,79,A1,01,10,00,20,05,
4295461987,00000037,false,Rx,0,8,00,00,00,10,00,40,00,00,
4295462319,00000038,false,Rx,0,8,02,17,00,00,80,37,02,00,
4295462745,000002AB,false,Rx,0,8,7E,75,AA,0C,0C,00,00,00,
4295463074,00000039,false,Rx,0,8,00,00,00,00,00,00,00,00,
4295463539,000002AC,false,Rx,0,8,00,FF,FF,00,00,40,00,50,
4295463595,00000251,false,Rx,0,8,49,45,A9,00,00,00,00,00,
4295463673,000002AD,false,Rx,0,8,00,02,00,40,FF,FF,FF,0F,
4295464093,00000252,false,Rx,0,8,00,00,00,00,03,00,00,00,
4295464187,000002AE,false,Rx,0,8,01,00,FF,3F,00,01,00,00,
4295464232,00000253,false,Rx,0,8,00,00,00,00,00,00,80,3D,
4295464410,000002B6,false,Rx,0,8,64,EF,AA,00,00,00,00,40,
4295464638,00000396,false,Rx,0,8,79,69,54,0F,04,01,00,00,
4295464872,000002B7,false,Rx,0,8,B9,01,D2,00,00,04,00,00,
4295465124,00000397,false,Rx,0,8,1C,00,00,00,00,00,00,00,
4295465354,000002B8,false,Rx,0,8,B9,B1,11,00,00,00,00,00,
4295465614,00000398,false,Rx,0,8,00,00,00,00,00,00,00,00,
4295465855,000002B9,false,Rx,0,8,0A,00,00,00,00,00,00,00,
4295466097,000002EB,false,Rx,0,8,2E,D4,54,07,04,01,00,00,
4295466334,000002D6,false,Rx,0,8,FE,3F,54,00,00,00,00,00,
4295466587,000002EC,false,Rx,0,8,02,00,00,00,00,00,00,00,
4295466892,0000019B,false,Rx,0,8,0E,69,9F,00,00,E4,00,00,
4295467326,000004E8,false,Rx,1,8,FF,FF,FF,26,FF,FF,FF,00,
4295467393,000001FB,false,Rx,0,8,53,A4,AA,00,00,00,00,00,
4295467438,00000161,false,Rx,0,8,41,90,53,03,00,00,00,02,
4295467584,000001FC,false,Rx,0,8,00,00,00,00,00,00,00,00,
4295467912,00000162,false,Rx,0,8,FF,FC,01,00,00,00,00,00,
4295468228,000001FD,false,Rx,0,8,00,1A,03,00,00,00,00,00,
4295468290,0000019C,false,Rx,0,8,40,20,00,00,00,00,0B,09,
4295468602,000001FE,false,Rx,0,8,00,00,00,00,00,00,00,00,
4295469233,0000019D,false,Rx,0,8,00,10,00,01,00,00,00,00,
4295469609,000002D7,false,Rx,0,8,00,00,00,00,03,00,00,00,
4295469941,0000019E,false,Rx,0,8,15,00,00,00,00,32,00,00,
4295470399,000002D8,false,Rx,0,8,00,00,00,00,00,00,38,3C,
4295470507,000002ED,false,Rx,0,8,00,00,00,00,00,00,00,00,
4295470964,000002D9,false,Rx,0,8,00,00,00,00,00,00,00,00,
4295471281,000002EE,false,Rx,0,8,00,00,00,00,00,00,00,00,
4295471583,000002E1,false,Rx,0,8,96,6F,AA,00,00,00,00,00,
4295471668,00000356,false,Rx,0,8,21,EE,55,00,00,00,00,00,
4295471975,000002E2,false,Rx,0,8,00,00,00,00,00,7E,00,04,
4295472461,00000357,false,Rx,0,8,00,00,00,00,00,4B,4D,48,
4295472518,000002E3,false,Rx,0,8,00,00,00,00,00,00,72,01,
4295472564,00000358,false,Rx,0,8,35,41,45,4D,52,37,33,4F,
4295472613,000002E4,false,Rx,0,8,02,00,00,00,00,00,00,00,
4295472992,00000359,false,Rx,0,8,51,4F,34,52,4A,35,33,00,
4295473161,00000516,false,Rx,0,8,61,02,00,00,00,00,FF,FF,
4295473774,00000121,false,Rx,0,8,56,C2,A2,00,00,00,00,01,
4295473828,00000122,false,Rx,0,8,FF,01,00,00,3D,3D,3D,3D,
4295473906,00000123,false,Rx,0,8,08,00,00,00,00,00,00,35,
4295474935,00000448,false,Rx,0,8,7F,00,00,00,00,00,00,00,
4295475301,00000124,false,Rx,0,8,00,00,0A,00,00,00,00,00,
4295478673,000000A1,false,Rx,0,8,2A,07,3D,00,00,00,00,00,
4295478960,000000A2,false,Rx,0,8,00,00,00,00,00,00,00,00,
4295479003,000000A3,false,Rx,0,8,00,40,01,00,00,00,00,00,
4295482734,000002BF,false,Rx,0,8,FF,FF,FF,00,00,00,00,00,
4295482835,0000047F,false,Rx,0,8,FF,FF,FF,FF,FF,FF,F3,FF,
4295482882,00000653,false,Rx,0,8,0A,19,03,01,02,2A,00,00,
4295486615,0000011B,false,Rx,0,8,7C,42,A8,05,80,08,A8,02,
4295486706,0000012B,false,Rx,0,8,3B,B8,A8,06,00,00,08,00,
4295486804,000000C5,false,Rx,1,8,00,00,00,00,00,00,00,00,
4295486859,0000011C,false,Rx,0,8,00,05,20,00,22,00,01,01,
4295486910,00000244,false,Rx,1,8,FF,FF,FF,FF,FF,FF,FF,FF,
4295486964,0000012C,false,Rx,0,8,00,00,01,00,00,64,00,00,
4295487700,000004B4,false,Rx,1,8,00,00,00,00,00,00,00,00,
4295488066,000004B5,false,Rx,1,8,08,00,F0,07,00,00,00,00,
4295488406,00000061,false,Rx,0,8,4B,0D,3E,00,00,00,00,00,
4295488870,000004B7,false,Rx,1,8,08,00,F0,07,00,00,00,00,
4295489255,00000062,false,Rx,0,8,02,02,00,02,40,FF,00,FF,
4295490275,00000401,false,Rx,0,8,FE,70,10,00,00,01,00,00,
4295490805,000004CA,false,Rx,1,8,00,00,00,00,00,00,00,00,
4295491544,00000063,false,Rx,0,8,00,00,05,00,00,08,FD,00,
4295491691,000004CC,false,Rx,1,8,08,00,00,27,00,00,03,00,
4295491954,000004CE,false,Rx,1,8,14,01,FF,FF,FF,FF,FF,FF,
4295492115,00000064,false,Rx,0,8,00,00,00,04,FF,FA,00,00,
4295492169,000004D7,false,Rx,1,8,23,01,00,00,00,00,00,00,
4295492238,000004D8,false,Rx,1,8,41,10,F6,F0,40,F2,1E,CC,
4295492292,000004DD,false,Rx,1,8,00,00,FE,00,04,00,00,00,
4295492360,000004DF,false,Rx,1,8,FF,03,0C,3F,00,00,00,00,
4295492421,000004E7,false,Rx,1,8,00,30,00,00,00,00,69,00,
4295492509,000004E9,false,Rx,1,8,00,00,00,00,00,00,00,00,
4295492564,000004EA,false,Rx,1,8,00,00,00,00,00,00,00,00,
4295492627,000004EB,false,Rx,1,8,04,A8,22,1C,80,00,00,00,
4295492816,000004EC,false,Rx,1,8,FF,FF,FF,FF,FF,FF,FF,0F,
4295493328,000004ED,false,Rx,1,8,FF,FF,FF,FF,FF,FF,FF,1F,
4295493647,000004EE,false,Rx,1,8,FF,FF,00,00,00,00,00,00,
4295493943,000004EF,false,Rx,1,8,60,00,60,00,29,14,00,00,
4295494376,0000063D,false,Rx,1,8,00,80,00,00,00,00,00,00,
4295494803,000003B6,false,Rx,0,8,AF,E5,53,00,00,00,00,41,
4295494896,0000063E,false,Rx,1,8,FF,FF,FF,FF,FF,FF,FF,FF,
4295495674,0000063F,false,Rx,1,8,00,10,00,C4,FF,00,00,00,
4295495865,000003B7,false,Rx,0,8,40,00,00,00,00,08,00,00,
4295495982,00000640,false,Rx,1,8,FF,FF,FF,00,FF,FF,FF,00,
4295496032,00000641,false,Rx,1,8,FF,FF,FF,FF,0F,FF,FF,FF,
4295496348,000003B8,false,Rx,0,8,0A,00,00,00,00,00,69,0E,
4295496484,00000646,false,Rx,1,8,00,00,00,80,01,00,00,00,
4295496812,000003B9,false,Rx,0,8,00,00,00,00,00,00,00,00,
4295506859,000004E8,false,Rx,1,8,FF,FF,FF,26,FF,FF,FF,00,
4295508033,000002FF,false,Rx,0,8,83,B9,00,F0,3F,00,00,00,
4295508124,00000316,false,Rx,0,8,54,78,96,24,11,80,0A,00,
4295508202,00000317,false,Rx,0,8,00,00,05,00,00,00,00,00,
4295509003,00000472,false,Rx,0,8,5C,EC,00,40,08,41,00,45,
4295509727,00000473,false,Rx,0,8,5F,24,00,25,00,00,00,78,
4295509841,00000474,false,Rx,0,8,53,98,00,00,00,00,00,10,
4295510789,0000010B,false,Rx,0,8,3B,DD,A6,00,00,00,00,01,
4295510891,0000010C,false,Rx,0,8,FF,01,00,00,3F,3E,3F,3F,
4295510941,0000010D,false,Rx,0,8,06,00,00,00,00,00,00,35,
4295511077,0000010E,false,Rx,0,8,00,00,0A,00,00,00,00,00,
4295512015,00000036,false,Rx,0,8,44,E7,A6,01,10,00,20,05,
4295512335,00000037,false,Rx,0,8,00,00,00,10,00,40,00,00,
4295512405,00000038,false,Rx,0,8,02,17,00,00,80,37,02,00,
4295512824,00000039,false,Rx,0,8,00,00,00,00,00,00,00,00,
4295516439,000001A1,false,Rx,0,8,2E,91,55,FE,F7,7F,64,00,
4295516539,000001A2,false,Rx,0,8,00,00,00,00,00,08,00,00,
4295516912,000001A3,false,Rx,0,8,FF,F3,3F,00,00,00,00,00,
4295516980,0000019B,false,Rx,0,8,D8,35,A4,00,00,E4,00,00,
4295517376,000001A4,false,Rx,0,8,FE,07,00,00,00,00,00,00,
4295517460,0000019C,false,Rx,0,8,40,20,00,00,00,00,0B,09,
4295517699,0000036F,false,Rx,0,8,4F,61,01,00,00,00,00,00,
4295518434,00000146,false,Rx,0,8,E4,07,46,10,04,01,00,00,
4295518798,0000037F,false,Rx,0,8,45,70,52,24,41,02,00,00,
4295519657,00000147,false,Rx,0,8,00,04,7D,00,40,00,00,00,
4295519831,00000148,false,Rx,0,8,00,00,00,00,00,6D,40,05,
4295519918,00000149,false,Rx,0,8,00,00,00,00,00,00,00,00,
4295519974,0000019D,false,Rx,0,8,00,10,00,01,00,00,00,00,
4295520023,000001B1,false,Rx,0,8,3E,95,46,00,72,00,00,00,
4295520381,0000019E,false,Rx,0,8,15,00,00,00,00,32,00,00,
4295520683,000001B2,false,Rx,0,8,23,00,04,0F,58,00,79,EB,
4295520788,000001B3,false,Rx,0,8,57,1E,00,00,73,76,77,75,
4295521057,000001B4,false,Rx,0,8,77,77,17,00,00,40,00,00,
4295524197,00000121,false,Rx,0,8,29,EE,A7,00,00,00,00,01,
4295524357,00000122,false,Rx,0,8,FF,01,00,00,3D,3D,3D,3D,
4295524569,00000123,false,Rx,0,8,08,00,00,00,00,00,00,35,
4295524619,00000124,false,Rx,0,8,00,00,0A,00,00,00,00,00,
4295527832,000001AB,false,Rx,0,8,5D,53,E0,40,70,90,00,00,
4295528146,000003A1,false,Rx,0,8,12,09,37,00,FF,FF,FF,FF,
4295528340,000001AC,false,Rx,0,8,00,28,00,00,00,00,00,00,
4295528422,000003A2,false,Rx,0,8,00,00,00,00,00,00,00,00,
4295528494,000000A1,false,Rx,0,8,82,FB,42,00,00,00,00,00,
4295528592,000000A2,false,Rx,0,8,00,00,00,00,00,00,00,00,
4295528828,000000A3,false,Rx,0,8,00,40,01,00,00,00,00,00,
4295536426,0000011B,false,Rx,0,8,8A,6A,AD,05,80,08,A8,02,
4295536583,0000012B,false,Rx,0,8,CD,90,AD,06,00,00,08,00,
4295536875,0000011C,false,Rx,0,8,00,05,20,00,22,00,01,01,
4295537071,0000012C,false,Rx,0,8,00,00,01,00,00,64,00,00,
4295537864,00000061,false,Rx,0,8,5F,B5,43,00,00,00,00,00,
4295538183,00000062,false,Rx,0,8,02,02,00,02,40,FF,00,FF,
4295538365,00000063,false,Rx,0,8,00,00,05,00,00,08,FD,00,
4295538623,00000064,false,Rx,0,8,00,00,00,04,FF,FA,00,00,
4295542348,000000FF,false,Rx,0,8,CB,10,00,00,00,00,02,00,
4295543063,00000394,false,Rx,0,8,2A,22,1A,49,00,00,00,00,
4295543235,000003C3,false,Rx,0,8,45,10,31,30,36,00,00,00,
4295543550,000003E0,false,Rx,0,8,76,C0,01,00,54,03,00,00,
4295544307,000003E5,false,Rx,0,8,2F,10,01,00,00,00,00,00,
4295544509,000003E6,false,Rx,0,8,77,70,00,00,00,00,00,00,
4295544764,0000041A,false,Rx,0,8,6A,C0,12,00,50,41,00,00,
4295545019,0000041B,false,Rx,0,8,BE,70,00,00,00,00,00,00,
4295545286,0000041C,false,Rx,0,8,F3,60,E8,00,00,00,00,00,
4295545556,00000422,false,Rx,0,8,5B,A0,01,00,00,00,04,00,
4295545951,00000432,false,Rx,0,8,03,20,02,00,00,00,00,00,
4295546832,000004E8,false,Rx,1,8,FF,FF,FF,26,FF,FF,FF,00,
4295547653,00000435,false,Rx,0,8,2E,B0,00,40,00,00,00,00,
4295547855,00000442,false,Rx,0,8,CE,20,11,81,00,00,00,00,
4295548143,00000444,false,Rx,0,8,25,E0,20,46,55,50,00,00,
4295548409,00000445,false,Rx,0,8,18,80,00,00,00,00,00,18,
4295548747,00000464,false,Rx,0,8,DD,50,F0,FF,38,7F,05,00,
4295552750,000001F1,false,Rx,0,8,ED,B5,74,01,00,00,28,00,
4295552989,000001F2,false,Rx,0,8,00,00,00,00,00,00,00,00,
4295556491,00000091,false,Rx,0,8,87,B2,A8,00,00,00,00,00,
4295556742,00000092,false,Rx,0,8,00,00,00,00,00,00,00,00,
4295557001,00000093,false,Rx,0,8,00,00,00,00,00,00,00,00,
4295557264,00000094,false,Rx,0,8,00,00,00,00,00,00,00,00,
4295560282,0000010B,false,Rx,0,8,36,1B,AB,00,00,00,00,01,
4295560465,0000010C,false,Rx,0,8,FF,01,00,00,3F,3E,3F,3F,
4295560720,0000010D,false,Rx,0,8,06,00,00,00,00,00,00,35,
4295560999,0000010E,false,Rx,0,8,00,00,0A,00,00,00,00,00,
4295561705,00000036,false,Rx,0,8,49,21,AB,01,10,00,20,05,
4295561953,00000037,false,Rx,0,8,00,00,00,10,00,40,00,00,
4295562247,00000038,false,Rx,0,8,02,17,00,00,80,37,02,00,
4295562486,00000039,false,Rx,0,8,00,00,00,00,00,00,00,00,
4295563478,000002C1,false,Rx,0,8,0D,F8,56,21,00,41,00,A1,
4295563672,000002C2,false,Rx,0,8,40,00,00,00,00,00,00,00,
4295563942,000002C3,false,Rx,0,8,00,00,00,00,00,00,00,00,
4295564199,000002C4,false,Rx,0,8,00,00,00,00,00,00,00,00,
4295565300,0000033B,false,Rx,0,8,BF,23,AB,00,00,00,00,00,
4295565511,0000033C,false,Rx,0,8,00,00,00,00,F0,00,00,00,
4295565784,0000033D,false,Rx,0,8,00,00,00,00,00,00,00,00,
4295566061,0000033E,false,Rx,0,8,00,00,00,00,00,00,00,00,
4295566301,00000161,false,Rx,0,8,89,69,58,03,00,00,00,02,
4295566558,00000162,false,Rx,0,8,FF,FC,01,00,00,00,00,00,
4295566795,0000019B,false,Rx,0,8,D5,F3,A9,00,00,E4,00,00,
4295567059,0000019C,false,Rx,0,8,40,20,00,00,00,00,0B,09,
4295567304,00000380,false,Rx,0,8,AD,D7,FF,00,00,00,00,01,
4295567561,0000019D,false,Rx,0,8,00,10,00,01,00,00,00,00,
4295567805,0000019E,false,Rx,0,8,15,00,00,00,00,32,00,00,
4295569337,00000382,false,Rx,0,8,F1,7A,01,00,00,01,08,00,
4295570472,00000383,false,Rx,0,8,12,ED,01,00,02,00,00,00,
4295571199,00000384,false,Rx,0,8,E9,DC,02,00,00,FF,00,21,
4295572322,000003B0,false,Rx,0,8,72,37,FF,C7,00,00,03,C0,
4295573005,00000111,false,Rx,0,8,22,EB,1E,01,00,00,00,00,
4295573182,000003B1,false,Rx,0,8,9B,3C,FF,40,00,00,20,00,
4295573429,00000112,false,Rx,0,8,00,00,00,00,00,00,00,00,
4295573676,00000121,false,Rx,0,8,2B,EE,AC,00,00,00,00,01,
4295573913,00000113,false,Rx,0,8,00,00,00,00,00,00,00,00,
4295574145,00000122,false,Rx,0,8,FF,01,00,00,3D,3D,3D,3D,
4295574405,00000114,false,Rx,0,8,00,00,00,00,00,00,00,00,
4295574648,00000123,false,Rx,0,8,07,00,00,00,00,00,00,35,
4295574921,000003B2,false,Rx,0,8,36,15,FF,02,29,2F,34,00,
4295575133,00000124,false,Rx,0,8,00,00,0A,00,00,00,00,00,
4295575366,00000427,false,Rx,0,8,1D,86,FF,00,80,0A,00,00,
4295575611,00000561,false,Rx,0,8,63,02,00,00,00,00,FF,FF,
4295577269,00000487,false,Rx,1,8,00,00,00,00,00,00,00,00,
4295577564,00000642,false,Rx,1,8,FF,FF,FF,FF,FF,FF,00,00,
4295578387,0000042A,false,Rx,0,8,F4,DE,FF,01,00,10,00,00,
4295578483,000000A1,false,Rx,0,8,8D,10,47,00,00,00,00,00,
4295578892,000000A2,false,Rx,0,8,00,00,00,00,00,00,00,00,
4295578990,000000A3,false,Rx,0,8,00,40,01,00,00,00,00,00,
4295586489,0000011B,false,Rx,0,8,9A,30,B2,05,80,08,A8,02,
4295586585,0000012B,false,Rx,0,8,DD,CA,B2,06,00,00,08,00,
4295586938,0000011C,false,Rx,0,8,00,05,20,00,22,00,01,01,
4295587025,0000012C,false,Rx,0,8,00,00,01,00,00,64,00,00,
4295587992,00000061,false,Rx,0,8,E7,B4,48,00,00,00,00,00,
4295588273,00000062,false,Rx,0,8,02,02,00,02,40,FF,00,FF,
4295588417,00000063,false,Rx,0,8,00,00,05,00,00,08,FD,00,
4295588860,00000064,false,Rx,0,8,00,00,00,04,FF,FA,00,00,
4295593320,000002E6,false,Rx,0,8,B1,96,A8,01,00,00,00,15,
4295593408,00000256,false,Rx,0,8,73,37,A8,05,01,00,00,00,
4295593597,000002E7,false,Rx,0,8,0A,00,00,00,00,00,00,00,
4295593833,00000257,false,Rx,0,8,00,79,00,00,7D,04,41,76,
4295594113,000002E8,false,Rx,0,8,00,00,00,00,00,00,00,00,
4295594332,00000258,false,Rx,0,8,00,62,00,00,10,15,00,28,
4295594588,000002E9,false,Rx,0,8,00,00,00,00,00,00,00,00,
4295594820,00000259,false,Rx,0,8,EB,03,11,3C,E0,01,00,00,
4295596892,000001E1,false,Rx,0,8,EA,8E,57,02,00,00,00,00,
4295597086,000001E2,false,Rx,0,8,00,00,00,00,00,00,00,00,
4295607762,00000226,false,Rx,0,8,F1,B4,2D,FF,12,E1,08,42,
4295607854,00000227,false,Rx,0,8,02,73,09,09,00,F1,17,03,
4295608984,000001E6,false,Rx,0,8,FC,EA,52,02,00,00,00,00,
4295609060,000001BB,false,Rx,0,8,D4,A8,52,02,00,00,00,0A,
4295609390,000001BC,false,Rx,0,8,32,00,00,00,02,00,00,00,
4295609573,000003AA,false,Rx,0,8,FF,00,D0,00,54,00,00,00,
4295609819,000001BD,false,Rx,0,8,00,00,00,00,00,00,00,00,
4295610062,000001E7,false,Rx,0,8,00,00,22,03,20,01,00,00,
4295610307,0000010B,false,Rx,0,8,4B,DE,B0,00,00,00,00,01,
4295610552,0000010C,false,Rx,0,8,FF,01,00,00,3F,3E,3F,3F,
4295610887,0000010D,false,Rx,0,8,06,00,00,00,00,00,00,35,
4295611222,0000010E,false,Rx,0,8,00,00,0A,00,00,00,00,00,
4295612270,00000036,false,Rx,0,8,34,E4,B0,01,10,00,20,05,
4295612556,00000037,false,Rx,0,8,00,00,00,10,00,40,00,00,
4295612603,00000038,false,Rx,0,8,02,17,00,00,80,37,02,00,
4295612664,00000039,false,Rx,0,8,00,00,00,00,00,00,00,00,
4295616125,00000475,false,Rx,0,8,12,00,00,00,00,00,00,00,
4295616294,00000496,false,Rx,0,8,12,00,00,00,00,00,00,00,
4295616340,000001A1,false,Rx,0,8,AF,E5,5A,FE,F7,7F,64,00,
4295617115,000001A2,false,Rx,0,8,00,00,00,00,00,08,00,00,
4295617207,000001A3,false,Rx,0,8,FF,F3,3F,00,00,00,00,00,
4295617518,000004A3,false,Rx,1,8,80,00,48,0B,3E,00,00,00,
4295617949,0000019B,false,Rx,0,8,26,6D,AE,00,00,E4,00,00,
4295618096,000004A4,false,Rx,1,8,FF,FF,FF,00,00,00,00,00,
4295618179,000001A4,false,Rx,0,8,FE,07,00,00,00,00,00,00,
4295618234,0000019C,false,Rx,0,8,40,20,00,00,00,00,0B,09,
4295618297,0000036F,false,Rx,0,8,F6,71,01,00,00,00,00,00,
4295618419,00000146,false,Rx,0,8,E9,C1,4B,10,04,01,00,00,
4295618483,0000037F,false,Rx,0,8,EC,80,52,24,41,02,00,00,
4295618526,00000147,false,Rx,0,8,00,04,7D,00,40,00,00,00,
4295619682,00000148,false,Rx,0,8,00,00,00,00,00,6D,40,05,
4295619768,00000149,false,Rx,0,8,00,00,00,00,00,00,00,00,
4295619816,000001B1,false,Rx,0,8,33,53,4B,00,72,00,00,00,
4295619889,0000019D,false,Rx,0,8,00,10,00,01,00,00,00,00,
4295620129,000001B2,false,Rx,0,8,23,00,04,0F,58,00,79,EB,
4295620362,0000019E,false,Rx,0,8,15,00,00,00,00,32,00,00,
4295620582,000001B3,false,Rx,0,8,57,1E,00,00,73,76,77,75,
4295620818,0000030B,false,Rx,0,8,F0,F0,AB,00,04,00,00,00,
4295621115,000001B4,false,Rx,0,8,77,77,17,00,00,40,00,00,
4295621463,0000030C,false,Rx,0,8,00,00,0E,00,2C,00,A0,0F,
4295621789,0000030D,false,Rx,0,8,00,00,00,00,3A,00,00,00,
4295622048,0000030E,false,Rx,0,8,00,00,30,05,21,00,00,04,
4295622860,00000419,false,Rx,0,8,F7,C0,93,CE,51,60,7C,00,
4295623442,00000121,false,Rx,0,8,59,ED,B1,00,00,00,00,01,
4295623670,00000122,false,Rx,0,8,FF,01,00,00,3D,3D,3D,3D,
4295623961,00000123,false,Rx,0,8,08,00,00,00,00,00,00,35,
4295624212,00000124,false,Rx,0,8,00,00,0A,00,00,00,00,00,
4295627438,000001AB,false,Rx,0,8,AB,7B,E5,40,70,90,00,00,
4295627630,000001AC,false,Rx,0,8,00,28,00,00,00,00,00,00,
4295628503,000000A1,false,Rx,0,8,B1,E1,4C,00,00,00,00,00,
4295628634,00000236,false,Rx,0,8,9A,47,AB,00,62,61,34,6C,
4295629009,000000A2,false,Rx,0,8,00,00,00,00,00,00,00,00,
4295629083,00000151,false,Rx,0,8,AD,5E,AB,A0,C8,00,28,17,
4295630014,000000A3,false,Rx,0,8,00,40,01,00,00,00,00,00,
4295630091,00000152,false,Rx,0,8,14,15,14,00,1F,00,00,00,
4295630135,00000237,false,Rx,0,8,00,04,9D,00,00,BB,1D,00,
4295630181,00000153,false,Rx,0,8,00,00,00,00,00,00,00,00,
4295630288,000001F6,false,Rx,0,8,A3,D9,AB,00,00,00,00,0C,
4295630940,00000154,false,Rx,0,8,00,00,00,00,00,00,00,00,
4295631315,000001F7,false,Rx,0,8,1C,00,05,00,00,00,00,00,
4295631837,000002FB,false,Rx,0,8,E0,29,AB,00,1F,13,C6,C6,
4295631900,000001F8,false,Rx,0,8,00,03,00,03,00,00,00,00,
4295632393,000002FC,false,Rx,0,8,00,00,14,17,00,00,78,9F,
4295632552,000001F9,false,Rx,0,8,01,00,A0,C8,14,00,01,00,
4295632595,000002FD,false,Rx,0,8,00,00,00,00,00,1C,0A,EA,
4295632640,00000238,false,Rx,0,8,00,00,1F,00,00,00,00,00,
4295632710,000002FE,false,Rx,0,8,00,00,72,01,00,28,00,00,
4295632767,00000239,false,Rx,0,8,00,00,00,00,01,00,00,00,
4295632965,00000326,false,Rx,0,8,D5,44,AB,00,10,00,00,00,
4295633206,0000025B,false,Rx,0,8,1F,99,AB,40,40,20,00,00,
4295633448,00000327,false,Rx,0,8,00,00,00,00,05,00,00,00,
4295633686,0000025C,false,Rx,0,8,00,00,1C,00,58,70,14,00,
4295633930,00000328,false,Rx,0,8,05,00,01,00,00,03,00,00,
4295634345,0000025D,false,Rx,0,8,00,C8,00,00,00,80,C0,70,
4295634486,00000329,false,Rx,0,8,A0,03,00,00,00,00,00,00,
4295634677,0000025E,false,Rx,0,8,BD,02,09,00,00,00,00,00,
4295635039,00000331,false,Rx,0,8,F2,2A,AB,F1,C8,A0,2C,97,
4295635376,00000332,false,Rx,0,8,90,06,3C,00,00,00,00,00,
4295635667,00000333,false,Rx,0,8,00,00,00,1C,0C,40,20,A0,
4295635733,00000334,false,Rx,0,8,C8,00,00,00,85,70,F1,8F,
4295636751,0000011B,false,Rx,0,8,6C,18,B7,05,80,08,A8,02,
4295637174,0000012B,false,Rx,0,8,2B,E2,B7,06,00,00,08,00,
4295637221,0000011C,false,Rx,0,8,00,05,20,00,22,00,01,01,
4295637333,0000012C,false,Rx,0,8,00,00,01,00,00,64,00,00,
4295637382,00000405,false,Rx,0,8,73,90,00,00,00,01,00,00,
4295637722,00000413,false,Rx,0,8,54,90,00,41,00,00,00,00,
4295638081,00000410,false,Rx,0,8,58,20,51,3C,B4,6A,FF,FF,
4295638387,00000061,false,Rx,0,8,98,98,4D,00,00,00,00,00,
4295638951,00000411,false,Rx,0,8,CF,51,50,50,00,00,44,04,
4295639321,00000062,false,Rx,0,8,02,02,00,02,40,FF,00,FF,
4295639393,00000412,false,Rx,0,8,7D,80,00,00,00,00,00,00,
4295639463,00000063,false,Rx,0,8,00,00,05,00,00,08,FD,00,
4295639505,00000414,false,Rx,0,8,26,20,00,00,28,00,00,00,
4295639575,00000064,false,Rx,0,8,00,00,00,04,FF,FA,00,00,
4295639846,00000416,false,Rx,0,8,55,00,00,00,00,00,00,00,
4295640075,00000495,false,Rx,0,8,49,00,00,00,00,00,00,00,
4295640315,00000417,false,Rx,0,8,D8,50,00,00,00,01,00,00,
4295640560,0000048F,false,Rx,0,8,AD,10,41,00,05,00,00,00,
4295641023,00000418,false,Rx,0,8,B0,80,00,00,12,0C,00,00,
4295656385,00000091,false,Rx,0,8,C1,EB,A9,00,00,00,00,00,
4295656485,00000092,false,Rx,0,8,00,00,00,00,00,00,00,00,
4295656864,00000093,false,Rx,0,8,00,00,00,00,00,00,00,00,
4295657270,00000094,false,Rx,0,8,00,00,00,00,00,00,00,00,
4295660522,0000010B,false,Rx,0,8,34,F2,B5,00,00,00,00,01,
4295660630,0000010C,false,Rx,0,8,FF,01,00,00,3F,3E,3F,3F,
4295660725,0000010D,false,Rx,0,8,06,00,00,00,00,00,00,35,
4295660992,0000010E,false,Rx,0,8,00,00,0A,00,00,00,00,00,
4295661941,00000036,false,Rx,0,8,4B,C8,B5,01,10,00,20,05,
4295662152,00000037,false,Rx,0,8,00,00,00,10,00,40,00,00,
4295662240,00000038,false,Rx,0,8,02,17,00,00,80,37,02,00,
4295662760,000002AB,false,Rx,0,8,CB,B2,AC,0C,0C,00,00,00,
4295663063,00000039,false,Rx,0,8,00,00,00,00,00,00,00,00,
4295663112,00000251,false,Rx,0,8,4F,2B,AB,00,00,00,00,00,
4295663411,000002AC,false,Rx,0,8,00,FF,FF,00,00,40,00,50,
4295663524,00000252,false,Rx,0,8,00,00,00,00,03,00,00,00,
4295663738,000002AD,false,Rx,0,8,00,02,00,40,FF,FF,FF,0F,
4295664038,00000253,false,Rx,0,8,00,00,00,00,00,00,80,3D,
4295664223,000002AE,false,Rx,0,8,01,00,FF,3F,00,01,00,00,
4295664546,00000396,false,Rx,0,8,EA,5D,55,0F,04,01,00,00,
4295664681,000002B6,false,Rx,0,8,D1,28,AC,00,00,00,00,40,
4295664960,00000397,false,Rx,0,8,04,00,00,00,00,00,00,00,
4295665168,000002B7,false,Rx,0,8,B9,01,D2,00,00,04,00,00,
4295665416,00000398,false,Rx,0,8,00,00,00,00,00,00,00,00,
4295665773,000002B8,false,Rx,0,8,B9,B1,11,00,00,00,00,00,
4295666091,00000419,false,Rx,0,8,F7,C0,93,CE,51,60,7C,00,
4295666653,000002B9,false,Rx,0,8,0A,00,00,00,00,00,00,00,
4295667058,000002EB,false,Rx,0,8,41,03,55,06,04,01,00,00,
4295667431,000002D6,false,Rx,0,8,B8,66,55,00,00,00,00,00,
4295667612,0000019B,false,Rx,0,8,EE,6F,B3,00,00,E4,00,00,
4295667659,000001FB,false,Rx,0,8,E6,63,AC,00,00,00,00,00,
4295667702,00000161,false,Rx,0,8,7F,41,5D,03,00,00,00,02,
4295667750,000001FC,false,Rx,0,8,00,00,00,00,00,00,00,00,
4295667872,00000162,false,Rx,0,8,FF,FC,01,00,00,00,00,00,
4295668107,000001FD,false,Rx,0,8,00,1A,03,00,00,00,00,00,
4295668661,0000019C,false,Rx,0,8,40,20,00,00,00,00,0B,09,
4295669077,000001FE,false,Rx,0,8,00,00,00,00,00,00,00,00,
4295669216,0000019D,false,Rx,0,8,00,10,00,01,00,00,00,00,
4295669291,000002D7,false,Rx,0,8,00,00,00,00,03,00,00,00,
4295669336,0000019E,false,Rx,0,8,15,00,00,00,00,32,00,00,
4295669588,000002D8,false,Rx,0,8,00,00,00,00,00,00,38,3C,
4295669823,000002EC,false,Rx,0,8,02,00,00,00,00,00,00,00,
4295670053,000002D9,false,Rx,0,8,00,00,00,00,00,00,00,00,
4295670300,000002ED,false,Rx,0,8,00,00,00,00,00,00,00,00,
4295670553,000002E1,false,Rx,0,8,23,A8,AC,00,00,00,00,00,
4295670786,000002EE,false,Rx,0,8,00,00,00,00,00,00,00,00,
4295671058,000002E2,false,Rx,0,8,00,00,00,00,00,7E,00,04,
4295671281,00000356,false,Rx,0,8,EB,05,56,00,00,00,00,00,
4295671529,000002E3,false,Rx,0,8,00,00,00,00,00,00,72,01,
4295671760,00000357,false,Rx,0,8,00,00,00,00,00,4B,4D,48,
4295672050,000002E4,false,Rx,0,8,02,00,00,00,00,00,00,00,
4295672510,00000358,false,Rx,0,8,35,41,45,4D,52,37,33,4F,
4295672572,00000359,false,Rx,0,8,51,4F,34,52,4A,35,33,00,
4295673615,00000121,false,Rx,0,8,AA,73,B6,00,00,00,00,01,
4295673686,00000122,false,Rx,0,8,FF,01,00,00,3D,3D,3D,3D,
4295674104,00000123,false,Rx,0,8,08,00,00,00,00,00,00,35,
4295674181,00000124,false,Rx,0,8,00,00,0A,00,00,00,00,00,
4295674465,00000448,false,Rx,0,8,7F,00,00,00,00,00,00,00,
4295674880,00000563,false,Rx,1,8,65,02,00,00,00,00,FF,FF,
4295678439,000000A1,false,Rx,0,8,D4,E2,51,00,00,00,00,00,
4295678583,000000A2,false,Rx,0,8,00,00,00,00,00,00,00,00,
4295678843,000000A3,false,Rx,0,8,00,40,01,00,00,00,00,00,
4295682755,000002BF,false,Rx,0,8,FF,FF,FF,00,00,00,00,00,
4295682852,0000047F,false,Rx,0,8,FF,FF,FF,FF,FF,FF,F3,FF,
4295682898,00000653,false,Rx,0,8,0A,19,03,01,02,2A,00,00,
4295686498,0000011B,false,Rx,0,8,A4,E1,BC,05,80,08,A8,02,
4295686593,0000012B,false,Rx,0,8,E3,1B,BC,06,00,00,08,00,
4295686970,0000011C,false,Rx,0,8,00,05,20,00,22,00,01,01,
4295687050,0000012C,false,Rx,0,8,00,00,01,00,00,64,00,00,
4295688176,00000061,false,Rx,0,8,DC,28,52,00,00,00,00,00,
4295688349,00000062,false,Rx,0,8,02,02,00,02,40,FF,00,FF,
4295688411,00000063,false,Rx,0,8,00,00,05,00,00,08,FD,00,
4295688680,00000401,false,Rx,0,8,FE,70,10,00,00,01,00,00,
4295689269,00000064,false,Rx,0,8,00,00,00,04,FF,FA,00,00,
4295689785,000000C5,false,Rx,1,8,00,00,00,00,00,00,00,00,
4295690149,00000244,false,Rx,1,8,FF,FF,FF,FF,FF,FF,FF,FF,
4295690621,000004B4,false,Rx,1,8,00,00,00,00,00,00,00,00,
4295691451,000004B5,false,Rx,1,8,08,00,F0,07,00,00,00,00,
4295692263,000004B7,false,Rx,1,8,08,00,F0,07,00,00,00,00,
4295692398,000004CA,false,Rx,1,8,00,00,00,00,00,00,00,00,
4295692503,000004CC,false,Rx,1,8,08,00,00,27,00,00,03,00,
4295692583,000004CE,false,Rx,1,8,14,01,FF,FF,FF,FF,FF,FF,
4295692629,000004D7,false,Rx,1,8,23,01,00,00,00,00,00,00,
4295692678,000004D8,false,Rx,1,8,41,10,F6,F0,40,F2,1E,CC,
4295692729,000004DD,false,Rx,1,8,00,00,FE,00,04,00,00,00,
4295693041,000004DF,false,Rx,1,8,FF,03,0C,3F,00,00,00,00,
4295693591,000004E7,false,Rx,1,8,00,30,00,00,00,00,69,00,
4295694082,000004E8,false,Rx,1,8,FF,FF,FF,26,FF,FF,FF,00,
4295694551,000004E9,false,Rx,1,8,00,00,00,00,00,00,00,00,
4295694873,000004EA,false,Rx,1,8,00,00,00,00,00,00,00,00,
4295695313,000003B6,false,Rx,0,8,5C,7B,54,00,00,00,00,41,
4295695426,000004EB,false,Rx,1,8,04,A8,22,1C,80,00,00,00,
4295695513,000003B7,false,Rx,0,8,40,00,00,00,00,08,00,00,
4295695570,000004EC,false,Rx,1,8,FF,FF,FF,FF,FF,FF,FF,0F,
4295695616,000004ED,false,Rx,1,8,FF,FF,FF,FF,FF,FF,FF,1F,
4295695662,000003B8,false,Rx,0,8,0A,00,00,00,00,00,69,0E,
4295695722,000004EE,false,Rx,1,8,FF,FF,00,00,00,00,00,00,
4295695788,000004EF,false,Rx,1,8,60,00,60,00,29,14,00,00,
4295695833,000003B9,false,Rx,0,8,00,00,00,00,00,00,00,00,
4295695889,000004F0,false,Rx,1,8,4A,15,22,1D,5C,1A,11,02,
4295696400,000004F1,false,Rx,1,8,00,C0,00,00,00,00,00,00,
4295696883,000004F2,false,Rx,1,8,02,FF,DD,FF,03,01,00,00,
4295697378,000004F3,false,Rx,1,8,00,00,00,00,F0,00,00,00,
4295697671,000004F9,false,Rx,1,8,E0,FF,FF,FF,FF,FF,FF,FF,
4295697902,000004FE,false,Rx,1,8,69,23,00,03,CF,00,48,A8,
4295698190,0000063D,false,Rx,1,8,00,80,00,00,00,00,00,00,
4295698453,0000063E,false,Rx,1,8,FF,FF,FF,FF,FF,FF,FF,FF,
4295698733,0000063F,false,Rx,1,8,00,10,00,C4,FF,00,00,00,
4295698997,00000640,false,Rx,1,8,FF,FF,FF,00,FF,FF,FF,00,
4295699272,00000641,false,Rx,1,8,FF,FF,FF,FF,0F,FF,FF,FF,
4295699752,00000646,false,Rx,1,8,00,00,00,80,01,00,00,00,
4295702721,00000419,false,Rx,0,8,F7,C0,93,CE,51,60,7C,00,
4295702816,000001F1,false,Rx,0,8,A0,5D,77,01,00,00,28,00,
4295703274,000001F2,false,Rx,0,8,00,00,00,00,00,00,00,00,
4295707900,000002FF,false,Rx,0,8,83,B9,00,F0,3F,00,00,00,
4295708002,00000316,false,Rx,0,8,70,D0,97,24,11,80,0A,00,
4295708347,00000317,false,Rx,0,8,00,00,05,00,00,00,00,00,
4295709951,00000472,false,Rx,0,8,5C,EC,00,40,08,41,00,45,
4295710047,00000473,false,Rx,0,8,5F,24,00,25,00,00,00,78,
4295710092,00000474,false,Rx,0,8,53,98,00,00,00,00,00,10,
4295710242,0000010B,false,Rx,0,8,B5,86,BA,00,00,00,00,01,
4295710498,0000010C,false,Rx,0,8,FF,01,00,00,3F,3E,3F,3F,
4295710707,0000010D,false,Rx,0,8,06,00,00,00,00,00,00,35,
4295710984,0000010E,false,Rx,0,8,00,00,0A,00,00,00,00,00,
4295711876,00000036,false,Rx,0,8,CA,BC,BA,01,10,00,20,05,
4295711973,00000037,false,Rx,0,8,00,00,00,10,00,40,00,00,
4295712303,00000038,false,Rx,0,8,02,17,00,00,80,37,02,00,
4295712544,00000039,false,Rx,0,8,00,00,00,00,00,00,00,00,
4295716446,000001A1,false,Rx,0,8,D0,C9,5F,FE,F7,7F,64,00,
4295716854,000001A2,false,Rx,0,8,00,00,00,00,00,08,00,00,
4295716942,000001A3,false,Rx,0,8,FF,F3,3F,00,00,00,00,00,
4295717046,0000019B,false,Rx,0,8,56,6E,B8,00,00,E4,00,00,
4295717430,000001A4,false,Rx,0,8,FE,07,00,00,00,00,00,00,
4295717952,0000019C,false,Rx,0,8,40,20,00,00,00,00,0B,09,
4295718039,0000036F,false,Rx,0,8,5F,81,01,00,00,00,00,00,
4295718535,00000146,false,Rx,0,8,94,04,50,10,04,01,00,00,
4295718832,0000037F,false,Rx,0,8,55,90,52,24,41,02,00,00,
4295719128,00000147,false,Rx,0,8,00,04,7D,00,40,00,00,00,
4295719408,00000148,false,Rx,0,8,00,00,00,00,00,6D,40,05,
4295719762,00000149,false,Rx,0,8,00,00,00,00,00,00,00,00,
4295720068,000001B1,false,Rx,0,8,4E,96,50,00,72,00,00,00,
4295720154,0000019D,false,Rx,0,8,00,10,00,01,00,00,00,00,
4295720424,000001B2,false,Rx,0,8,23,00,04,0F,58,00,79,EB,
4295720512,0000019E,false,Rx,0,8,15,00,00,00,00,32,00,00,
4295720613,000001B3,false,Rx,0,8,57,1E,00,00,73,76,77,75,
4295720656,000001B4,false,Rx,0,8,77,77,17,00,00,40,00,00,
4295723625,00000121,false,Rx,0,8,A7,B5,BB,00,00,00,00,01,
4295723717,00000122,false,Rx,0,8,FF,01,00,00,3D,3D,3D,3D,
4295724045,00000123,false,Rx,0,8,08,00,00,00,00,00,00,35,
4295724177,00000124,false,Rx,0,8,00,00,0A,00,00,00,00,00,
4295727501,000003A1,false,Rx,0,8,08,70,38,00,FF,FF,FF,FF,
4295727720,000001AB,false,Rx,0,8,B1,02,EA,40,70,90,00,00,
4295727774,000003A2,false,Rx,0,8,00,00,00,00,00,00,00,00,
4295728034,000001AC,false,Rx,0,8,00,28,00,00,00,00,00,00,
4295728805,00000419,false,Rx,0,8,08,D0,92,CE,51,60,7C,00,
4295728921,000000A1,false,Rx,0,8,DD,67,56,00,00,00,00,00,
4295728967,000000A2,false,Rx,0,8,00,00,00,00,00,00,00,00,
4295729009,000000A3,false,Rx,0,8,00,40,01,00,00,00,00,00,
4295736598,0000011B,false,Rx,0,8,E1,31,C1,05,80,08,A8,02,
4295736692,0000011C,false,Rx,0,8,00,05,20,00,22,00,01,01,
4295737081,0000012B,false,Rx,0,8,A6,CB,C1,06,00,00,08,00,
4295737201,0000012C,false,Rx,0,8,00,00,01,00,00,64,00,00,
4295738044,00000061,false,Rx,0,8,A3,04,57,00,00,00,00,00,
4295738123,00000062,false,Rx,0,8,02,02,00,02,40,FF,00,FF,
4295738596,00000063,false,Rx,0,8,00,00,05,00,00,08,FD,00,
4295738700,00000064,false,Rx,0,8,00,00,00,04,FF,FA,00,00,
4295742385,000000FF,false,Rx,0,8,CB,10,00,00,00,00,02,00,
4295742964,00000394,false,Rx,0,8,2A,22,1A,49,00,00,00,00,
4295743120,000003C3,false,Rx,0,8,45,10,31,30,36,00,00,00,
4295743396,000003E0,false,Rx,0,8,76,C0,01,00,54,03,00,00,
4295744163,000003E5,false,Rx,0,8,2F,10,01,00,00,00,00,00,
4295744378,000003E6,false,Rx,0,8,77,70,00,00,00,00,00,00,
4295744640,0000041A,false,Rx,0,8,6A,C0,12,00,50,41,00,00,
4295745131,0000041B,false,Rx,0,8,BE,70,00,00,00,00,00,00,
4295745478,0000041C,false,Rx,0,8,F3,60,E8,00,00,00,00,00,
4295745600,00000422,false,Rx,0,8,5B,A0,01,00,00,00,04,00,
4295745985,00000432,false,Rx,0,8,03,20,02,00,00,00,00,00,
4295747002,000001E1,false,Rx,0,8,99,B7,5A,02,00,00,00,00,
4295747138,000001E2,false,Rx,0,8,00,00,00,00,00,00,00,00,
4295748287,00000435,false,Rx,0,8,2E,B0,00,40,00,00,00,00,
4295748378,00000442,false,Rx,0,8,CE,20,11,81,00,00,00,00,
4295748425,00000444,false,Rx,0,8,25,E0,20,46,55,50,00,00,
4295748799,00000445,false,Rx,0,8,18,80,00,00,00,00,00,18,
4295749022,00000464,false,Rx,0,8,DD,50,F0,FF,38,7F,05,00,
4295756425,00000091,false,Rx,0,8,0B,00,AA,00,00,00,00,00,
4295756527,00000092,false,Rx,0,8,00,00,00,00,00,00,00,00,
4295756874,00000093,false,Rx,0,8,00,00,00,00,00,00,00,00,
4295757401,00000094,false,Rx,0,8,00,00,00,00,00,00,00,00,
4295759082,000001E6,false,Rx,0,8,63,82,55,02,00,00,00,00,
4295759176,000001BB,false,Rx,0,8,DD,2D,55,02,00,00,00,0A,
4295759558,000001BC,false,Rx,0,8,32,00,00,00,02,00,00,00,
4295759643,000001BD,false,Rx,0,8,00,00,00,00,00,00,00,00,
4295760066,000001E7,false,Rx,0,8,00,00,22,03,20,01,00,00,
4295760393,0000010B,false,Rx,0,8,CA,AA,BF,00,00,00,00,01,
4295761025,0000010C,false,Rx,0,8,FF,01,00,00,3F,3E,3F,3F,
4295761470,0000010D,false,Rx,0,8,06,00,00,00,00,00,00,35,
4295761526,0000010E,false,Rx,0,8,00,00,0A,00,00,00,00,00,
4295762027,00000036,false,Rx,0,8,B5,90,BF,01,10,00,20,05,
4295762077,00000037,false,Rx,0,8,00,00,00,10,00,40,00,00,
4295762251,00000038,false,Rx,0,8,02,17,00,00,80,37,02,00,
4295762578,00000039,false,Rx,0,8,00,00,00,00,00,00,00,00,
4295764320,000002C1,false,Rx,0,8,4B,A1,57,21,00,41,00,A1,
4295764762,000002C2,false,Rx,0,8,40,00,00,00,00,00,00,00,
4295764877,000002C3,false,Rx,0,8,00,00,00,00,00,00,00,00,
4295764944,000002C4,false,Rx,0,8,00,00,00,00,00,00,00,00,
4295765218,0000034B,false,Rx,0,8,DB,DC,11,31,D8,0D,05,01,
4295765532,0000033B,false,Rx,0,8,0A,E4,AD,00,00,00,00,00,
4295765676,0000034C,false,Rx,0,8,00,00,00,00,00,00,00,00,
4295765931,0000033C,false,Rx,0,8,00,00,00,00,F0,00,00,00,
4295766211,00000161,false,Rx,0,8,7B,5D,62,03,00,00,00,02,
4295766412,0000033D,false,Rx,0,8,00,00,00,00,00,00,00,00,
4295766667,00000162,false,Rx,0,8,FF,FC,01,00,00,00,00,00,
4295766907,0000033E,false,Rx,0,8,00,00,00,00,00,00,00,00,
4295767303,0000019B,false,Rx,0,8,29,42,BD,00,00,E4,00,00,
4295767406,0000034D,false,Rx,0,8,00,00,00,00,00,00,00,00,
4295767913,0000019C,false,Rx,0,8,40,20,00,00,00,00,0B,09,
4295768233,0000034E,false,Rx,0,8,00,00,00,00,00,00,00,00,
4295768556,0000019D,false,Rx,0,8,00,10,00,01,00,00,00,00,
4295768668,00000380,false,Rx,0,8,AD,D7,FF,00,00,00,00,01,
4295768908,0000019E,false,Rx,0,8,15,00,00,00,00,32,00,00,
4295768974,00000419,false,Rx,0,8,08,D0,92,CE,51,60,7C,00,
4295769342,00000382,false,Rx,0,8,F1,7A,01,00,00,01,08,00,
4295770758,00000383,false,Rx,0,8,12,ED,01,00,02,00,00,00,
4295770866,00000565,false,Rx,0,8,66,02,00,00,00,00,FF,FF,
4295771414,00000384,false,Rx,0,8,E9,DC,02,00,00,FF,00,21,
4295772927,000003B0,false,Rx,0,8,72,37,FF,C7,00,00,03,C0,
4295773039,00000111,false,Rx,0,8,64,B2,1F,01,00,00,00,00,
4295773502,000003B1,false,Rx,0,8,9B,3C,FF,40,00,00,20,00,
4295773703,00000112,false,Rx,0,8,00,00,00,00,00,00,00,00,
4295773755,00000121,false,Rx,0,8,06,CA,C0,00,00,00,00,01,
4295773855,00000113,false,Rx,0,8,00,00,00,00,00,00,00,00,
4295774239,00000122,false,Rx,0,8,FF,01,00,00,3D,3D,3D,3D,
4295774364,00000114,false,Rx,0,8,00,00,00,00,00,00,00,00,
4295774582,00000123,false,Rx,0,8,08,00,00,00,00,00,00,35,
4295774807,000003B2,false,Rx,0,8,36,15,FF,02,29,2F,34,00,
4295775059,00000124,false,Rx,0,8,00,00,0A,00,00,00,00,00,
4295776066,00000427,false,Rx,0,8,1D,86,FF,00,80,0A,00,00,
4295778661,000000A1,false,Rx,0,8,EB,24,5B,00,00,00,00,00,
4295778755,000000A2,false,Rx,0,8,00,00,00,00,00,00,00,00,
4295778897,000000A3,false,Rx,0,8,00,40,01,00,00,00,00,00,
4295779771,00000487,false,Rx,1,8,00,00,00,00,00,00,00,00,
4295780231,00000642,false,Rx,1,8,FF,FF,FF,FF,FF,FF,00,00,
4295780513,0000042A,false,Rx,0,8,F4,DE,FF,01,00,10,00,00,
4295780604,00000645,false,Rx,1,8,FF,BE,08,F9,85,58,56,00,
4295786377,0000011B,false,Rx,0,8,7E,59,C6,05,80,08,A8,02,
4295786536,0000012B,false,Rx,0,8,39,A3,C6,06,00,00,08,00,
4295786775,0000011C,false,Rx,0,8,00,05,20,00,22,00,01,01,
4295787022,0000012C,false,Rx,0,8,00,00,01,00,00,64,00,00,
4295787768,00000061,false,Rx,0,8,1B,05,5C,00,00,00,00,00,
4295788019,00000062,false,Rx,0,8,02,02,00,02,40,FF,00,FF,
4295788338,00000063,false,Rx,0,8,00,00,05,00,00,08,FD,00,
4295788619,00000064,false,Rx,0,8,00,00,00,04,FF,FA,00,00,
4295790537,00000485,false,Rx,0,8,00,40,11,02,00,00,00,00,
4295793179,000002E6,false,Rx,0,8,3D,24,AA,01,00,00,00,15,
4295793348,00000256,false,Rx,0,8,58,FA,AA,05,01,00,00,00,
4295793598,000002E7,false,Rx,0,8,0A,00,00,00,00,00,00,00,
4295793840,00000257,false,Rx,0,8,00,79,00,00,7D,04,41,76,
4295794081,000002E8,false,Rx,0,8,00,00,00,00,00,00,00,00,
4295794327,00000258,false,Rx,0,8,00,63,00,00,10,15,00,28,
4295794581,000002E9,false,Rx,0,8,00,00,00,00,00,00,00,00,
4295794810,00000259,false,Rx,0,8,EA,03,11,3C,E0,01,00,00,
4295807707,00000226,false,Rx,0,8,98,F4,2F,FF,12,E1,08,42,
4295807857,00000227,false,Rx,0,8,02,73,09,09,00,F1,17,03,
4295808078,00000419,false,Rx,0,8,08,D0,92,CE,51,60,7C,00,
4295809561,000003AA,false,Rx,0,8,FF,00,D0,00,54,00,00,00,
4295810269,0000010B,false,Rx,0,8,6B,D5,C4,00,00,00,00,01,
4295810449,0000010C,false,Rx,0,8,FF,01,00,00,3F,3E,3F,3F,
4295810707,0000010D,false,Rx,0,8,06,00,00,00,00,00,00,35,
4295810965,0000010E,false,Rx,0,8,00,00,0A,00,00,00,00,00,
4295811705,00000036,false,Rx,0,8,14,EF,C4,01,10,00,20,05,
4295811948,00000037,false,Rx,0,8,00,00,00,10,00,40,00,00,
4295812251,00000038,false,Rx,0,8,02,17,00,00,80,37,02,00,
4295812512,00000039,false,Rx,0,8,00,00,00,00,00,00,00,00,
4295815661,00000475,false,Rx,0,8,12,00,00,00,00,00,00,00,
4295815911,00000496,false,Rx,0,8,12,00,00,00,00,00,00,00,
4295816231,000001A1,false,Rx,0,8,06,95,64,FE,F7,7F,64,00,
4295816506,000001A2,false,Rx,0,8,00,00,00,00,00,08,00,00,
4295816748,000001A3,false,Rx,0,8,FF,F3,3F,00,00,00,00,00,
4295816980,0000019B,false,Rx,0,8,B1,48,C2,00,00,E4,00,00,
4295817219,000001A4,false,Rx,0,8,FE,07,00,00,00,00,00,00,
4295817483,0000019C,false,Rx,0,8,40,20,00,00,00,00,0B,09,
4295817706,0000036F,false,Rx,0,8,E6,91,01,00,00,00,00,00,
4295817929,00000146,false,Rx,0,8,EB,28,55,10,04,01,00,00,
4295818181,0000037F,false,Rx,0,8,83,A0,52,24,41,02,00,00,
4295818429,00000147,false,Rx,0,8,00,04,7D,00,40,00,00,00,
4295818706,00000148,false,Rx,0,8,00,00,00,00,00,6D,40,05,
4295818965,00000149,false,Rx,0,8,00,00,00,00,00,00,00,00,
4295819224,000001B1,false,Rx,0,8,31,BA,55,00,72,00,00,00,
4295819462,0000019D,false,Rx,0,8,00,10,00,01,00,00,00,00,
4295819689,000001B2,false,Rx,0,8,23,00,04,0F,58,00,79,EB,
4295819910,000004A3,false,Rx,1,8,80,00,48,0B,3E,00,00,00,
4295819983,0000019E,false,Rx,0,8,15,00,00,00,00,32,00,00,
4295820207,000001B3,false,Rx,0,8,57,1E,00,00,73,76,77,75,
4295820314,000004A4,false,Rx,1,8,FF,FF,FF,00,00,00,00,00,
4295820652,000001B4,false,Rx,0,8,77,77,17,00,00,40,00,00,
4295820959,0000030B,false,Rx,0,8,42,42,AD,00,04,00,00,00,
4295822101,0000030C,false,Rx,0,8,00,00,0C,00,2C,00,A0,0F,
4295822209,0000030D,false,Rx,0,8,00,00,00,00,3A,00,00,00,
4295822255,0000030E,false,Rx,0,8,00,00,30,05,21,00,00,0A,
4295823522,00000121,false,Rx,0,8,C3,E7,C5,00,00,00,00,01,
4295823704,00000122,false,Rx,0,8,FF,01,00,00,3D,3D,3D,3D,
4295823915,00000123,false,Rx,0,8,07,00,00,00,00,00,00,35,
4295824205,00000124,false,Rx,0,8,00,00,0A,00,00,00,00,00,
4295827460,000001AB,false,Rx,0,8,47,2A,EF,40,70,90,00,00,
4295827551,000001AC,false,Rx,0,8,00,28,00,00,00,00,00,00,
4295828534,000000A1,false,Rx,0,8,22,15,60,00,00,00,00,00,
4295828641,000000A2,false,Rx,0,8,00,00,00,00,00,00,00,00,
4295829492,00000151,false,Rx,0,8,18,99,AD,A0,C8,00,28,17,
4295829606,000000A3,false,Rx,0,8,00,40,01,00,00,00,00,00,
4295829653,00000152,false,Rx,0,8,14,15,14,00,1F,00,00,00,
4295829830,000001F6,false,Rx,0,8,16,1E,AD,00,00,00,00,0C,
4295829882,00000153,false,Rx,0,8,00,00,00,00,00,00,00,00,
4295830375,000001F7,false,Rx,0,8,1C,00,05,00,00,00,00,00,
4295830524,00000154,false,Rx,0,8,00,00,00,00,00,00,00,00,
4295830575,000001F8,false,Rx,0,8,00,03,00,03,00,00,00,00,
4295831164,000002FB,false,Rx,0,8,55,EE,AD,00,1F,13,C6,C6,
4295831258,000001F9,false,Rx,0,8,01,00,A0,C8,14,00,01,00,
4295831304,000002FC,false,Rx,0,8,00,00,14,17,00,00,78,9F,
4295832175,00000236,false,Rx,0,8,2F,80,AD,00,62,61,34,6C,
4295832347,000002FD,false,Rx,0,8,00,00,00,00,00,1C,0A,EA,
4295832391,00000237,false,Rx,0,8,00,04,9D,00,00,BB,1D,00,
4295832451,000002FE,false,Rx,0,8,00,00,72,01,00,28,00,00,
4295832525,00000238,false,Rx,0,8,00,00,1F,00,00,00,00,00,
4295832716,00000326,false,Rx,0,8,60,83,AD,00,10,00,00,00,
4295833100,00000239,false,Rx,0,8,00,00,00,00,01,00,00,00,
4295833227,00000327,false,Rx,0,8,00,00,00,00,05,00,00,00,
4295833491,0000025B,false,Rx,0,8,10,09,AD,40,40,20,00,00,
4295833751,00000328,false,Rx,0,8,05,00,01,00,00,03,00,00,
4295834399,0000025C,false,Rx,0,8,00,00,1C,00,58,70,14,00,
4295834892,00000329,false,Rx,0,8,A0,03,00,00,00,00,00,00,
4295835021,0000025D,false,Rx,0,8,00,C8,00,00,00,80,C0,70,
4295835067,00000331,false,Rx,0,8,47,ED,AD,F1,C8,A0,2C,97,
4295835141,0000025E,false,Rx,0,8,C0,02,09,00,00,00,00,00,
4295835189,00000332,false,Rx,0,8,90,06,3C,00,00,00,00,00,
4295835515,00000333,false,Rx,0,8,00,00,00,1C,0C,40,20,A0,
4295835969,00000334,false,Rx,0,8,C8,00,00,00,85,70,F1,8F,
4295836894,0000011B,false,Rx,0,8,0D,60,CB,05,80,08,A8,02,
4295837005,0000011C,false,Rx,0,8,00,05,20,00,22,00,01,01,
4295837050,0000012B,false,Rx,0,8,4A,9A,CB,06,00,00,08,00,
4295837182,0000012C,false,Rx,0,8,00,00,01,00,00,64,00,00,
4295837585,00000405,false,Rx,0,8,73,90,00,00,00,01,00,00,
4295837823,00000413,false,Rx,0,8,54,90,00,41,00,00,00,00,
4295838044,00000410,false,Rx,0,8,58,20,51,3C,B4,6A,FF,FF,
4295838128,00000061,false,Rx,0,8,78,9E,61,00,00,00,00,00,
4295838356,00000411,false,Rx,0,8,CF,51,50,50,00,00,44,04,
4295838754,00000062,false,Rx,0,8,02,02,00,02,40,FF,00,FF,
4295838841,00000412,false,Rx,0,8,7D,80,00,00,00,00,00,00,
4295839136,00000063,false,Rx,0,8,00,00,05,00,00,08,FD,00,
4295839362,00000414,false,Rx,0,8,26,20,00,00,28,00,00,00,
4295839589,00000064,false,Rx,0,8,00,00,00,04,FF,FA,00,00,
4295839822,00000416,false,Rx,0,8,55,00,00,00,00,00,00,00,
4295840095,00000495,false,Rx,0,8,49,00,00,00,00,00,00,00,
4295840318,00000417,false,Rx,0,8,D8,50,00,00,00,01,00,00,
4295840588,00000418,false,Rx,0,8,B0,80,00,00,12,0C,00,00,
4295840828,00000419,false,Rx,0,8,08,D0,92,CE,51,60,7C,00,
4295852859,000001F1,false,Rx,0,8,D3,64,7A,01,00,00,28,00,
4295852985,000001F2,false,Rx,0,8,00,00,00,00,00,00,00,00,
4295856447,00000091,false,Rx,0,8,4D,59,AB,00,00,00,00,00,
4295856539,00000092,false,Rx,0,8,00,00,00,00,00,00,00,00,
4295856841,00000093,false,Rx,0,8,00,00,00,00,00,00,00,00,
4295857002,00000094,false,Rx,0,8,00,00,00,00,00,00,00,00,
4295860407,0000010B,false,Rx,0,8,66,13,C9,00,00,00,00,01,
4295860506,0000010C,false,Rx,0,8,FF,01,00,00,3F,3E,3F,3F,
4295860835,0000010D,false,Rx,0,8,06,00,00,00,00,00,00,35,
4295861079,0000010E,false,Rx,0,8,00,00,0A,00,00,00,00,00,
4295861827,00000036,false,Rx,0,8,19,29,C9,01,10,00,20,05,
4295862023,00000037,false,Rx,0,8,00,00,00,10,00,40,00,00,
4295862502,00000038,false,Rx,0,8,02,17,00,00,80,37,02,00,
4295862571,000002AB,false,Rx,0,8,47,00,AE,0C,0C,00,00,00,
4295862916,00000039,false,Rx,0,8,00,00,00,00,00,00,00,00,
4295863326,000002AC,false,Rx,0,8,00,FF,FF,00,00,40,00,50,
4295863920,00000251,false,Rx,0,8,45,99,AD,00,00,00,00,00,
4295864004,000002AD,false,Rx,0,8,00,02,00,40,FF,FF,FF,0F,
4295864334,00000252,false,Rx,0,8,00,00,00,00,03,00,00,00,
4295864414,000002AE,false,Rx,0,8,01,00,FF,3F,00,01,00,00,
4295864680,00000253,false,Rx,0,8,00,00,00,00,00,00,80,3D,
4295864765,000002B6,false,Rx,0,8,5D,9A,AE,00,00,00,00,40,
4295865005,00000396,false,Rx,0,8,B7,06,56,0F,04,01,00,00,
4295865057,000002B7,false,Rx,0,8,B9,01,D2,00,00,04,00,00,
4295865600,00000397,false,Rx,0,8,10,00,00,00,00,00,00,00,
4295865697,000002B8,false,Rx,0,8,B9,B1,11,00,00,00,00,00,
4295865744,00000398,false,Rx,0,8,00,00,00,00,00,00,00,00,
4295866139,000002B9,false,Rx,0,8,0A,00,00,00,00,00,00,00,
4295866700,000002EB,false,Rx,0,8,8B,E8,56,06,04,01,00,00,
4295866764,000002D6,false,Rx,0,8,72,8D,56,00,00,00,00,00,
4295866866,000002EC,false,Rx,0,8,02,00,00,00,00,00,00,00,
4295867134,0000019B,false,Rx,0,8,CE,64,C7,00,00,E4,00,00,
4295867242,000001FB,false,Rx,0,8,6A,D1,AE,00,00,00,00,00,
4295867372,00000161,false,Rx,0,8,8D,75,67,03,00,00,00,02,
4295867617,000001FC,false,Rx,0,8,00,00,00,00,00,00,00,00,
4295868098,00000162,false,Rx,0,8,FF,FC,01,00,00,00,00,00,
4295868216,000001FD,false,Rx,0,8,00,1A,03,00,00,00,00,00,
4295868534,0000019C,false,Rx,0,8,40,20,00,00,00,00,0B,09,
4295869072,000001FE,false,Rx,0,8,00,00,00,00,00,00,00,00,
4295869158,0000019D,false,Rx,0,8,00,10,00,01,00,00,00,00,
4295869208,000002D7,false,Rx,0,8,00,00,00,00,03,00,00,00,
4295869529,0000019E,false,Rx,0,8,15,00,00,00,00,32,00,00,
4295869622,000002D8,false,Rx,0,8,00,00,00,00,00,00,38,3C,
4295870011,000002ED,false,Rx,0,8,00,00,00,00,00,00,00,00,
4295870112,000002D9,false,Rx,0,8,00,00,00,00,00,00,00,00,
4295870368,000002EE,false,Rx,0,8,00,00,00,00,00,00,00,00,
4295870579,000002E1,false,Rx,0,8,AF,1A,AE,00,00,00,00,00,
4295871236,00000356,false,Rx,0,8,AD,5C,57,00,00,00,00,00,
4295871573,000002E2,false,Rx,0,8,00,00,00,00,00,7E,00,04,
4295872092,00000357,false,Rx,0,8,00,00,00,00,00,4B,4D,48,
4295872159,000002E3,false,Rx,0,8,00,00,00,00,00,00,72,01,
4295872495,00000358,false,Rx,0,8,35,41,45,4D,52,37,33,4F,
4295872586,000002E4,false,Rx,0,8,02,00,00,00,00,00,00,00,
4295872791,00000359,false,Rx,0,8,51,4F,34,52,4A,35,33,00,
4295872851,00000566,false,Rx,0,8,16,02,00,00,00,00,FF,FF,
4295873849,00000121,false,Rx,0,8,42,93,CA,00,00,00,00,01,
4295873945,00000122,false,Rx,0,8,FF,01,00,00,3D,3D,3D,3D,
4295874198,00000123,false,Rx,0,8,07,00,00,00,00,00,00,35,
4295874312,00000448,false,Rx,0,8,7F,00,00,00,00,00,00,00,
4295874627,00000124,false,Rx,0,8,00,00,0A,00,00,00,00,00,
4295878688,000000A1,false,Rx,0,8,2D,FE,65,00,00,00,00,00,
4295878762,000000A2,false,Rx,0,8,00,00,00,00,00,00,00,00,
4295878832,000000A3,false,Rx,0,8,00,40,01,00,00,00,00,00,
4295882399,000002BF,false,Rx,0,8,FF,FF,FF,00,00,00,00,00,
4295882510,0000047F,false,Rx,0,8,FF,FF,FF,FF,FF,FF,F3,FF,
4295882872,00000653,false,Rx,0,8,0A,19,03,01,02,2A,00,00,
4295886524,0000011B,false,Rx,0,8,CF,BA,D0,05,80,08,A8,02,
4295886612,0000012B,false,Rx,0,8,88,40,D0,06,00,00,08,00,
4295886923,0000011C,false,Rx,0,8,00,05,20,00,22,00,01,01,
4295887053,0000012C,false,Rx,0,8,00,00,01,00,00,64,00,00,
4295887879,00000061,false,Rx,0,8,8B,00,66,00,00,00,00,00,
4295888612,00000062,false,Rx,0,8,02,02,00,02,40,FF,00,FF,
4295888718,00000063,false,Rx,0,8,00,00,05,00,00,08,FD,00,
4295888769,00000064,false,Rx,0,8,00,00,00,04,FF,FA,00,00,
4295889331,00000401,false,Rx,0,8,FE,70,10,00,00,01,00,00,
4295891275,000000C5,false,Rx,1,8,00,00,00,00,00,00,00,00,
4295891618,00000244,false,Rx,1,8,FF,FF,FF,FF,FF,FF,FF,FF,
4295891714,000003E4,false,Rx,1,8,FE,00,00,00,00,00,00,00,
4295891768,0000041F,false,Rx,1,8,00,0C,00,00,00,00,00,00,
4295891815,000004B4,false,Rx,1,8,00,00,00,00,00,00,00,00,
4295892320,000004B5,false,Rx,1,8,08,00,F0,07,00,00,00,00,
4295892389,000004B7,false,Rx,1,8,08,00,F0,07,00,00,00,00,
4295892498,000004CA,false,Rx,1,8,00,00,00,00,00,00,00,00,
4295892751,000004CC,false,Rx,1,8,08,00,00,27,00,00,03,00,
4295893510,000004CE,false,Rx,1,8,14,01,FF,FF,FF,FF,FF,FF,
4295893629,000004D7,false,Rx,1,8,23,01,00,00,00,00,00,00,
4295893679,000004D8,false,Rx,1,8,41,10,F6,F0,40,F2,1E,CC,
4295893760,000004DD,false,Rx,1,8,00,00,FE,00,04,00,00,00,
4295894601,000004DF,false,Rx,1,8,FF,03,0C,3F,00,00,00,00,
4295895539,000003B6,false,Rx,0,8,1A,22,55,00,00,00,00,41,
4295895894,000004E7,false,Rx,1,8,00,30,00,00,00,00,69,00,
4295896104,000004E8,false,Rx,1,8,FF,FF,FF,26,FF,FF,FF,00,
4295896422,000003B7,false,Rx,0,8,40,00,00,00,00,08,00,00,
4295896505,000004E9,false,Rx,1,8,00,00,00,00,00,00,00,00,
4295896556,000003B8,false,Rx,0,8,0A,00,00,00,00,00,69,0E,
4295896628,000004EA,false,Rx,1,8,00,00,00,00,00,00,00,00,
4295896695,000004EB,false,Rx,1,8,04,A8,22,1D,80,00,00,00,
4295896757,000003B9,false,Rx,0,8,00,00,00,00,00,00,00,00,
4295896806,000004EC,false,Rx,1,8,FF,FF,FF,FF,FF,FF,FF,0F,
4295896874,000004ED,false,Rx,1,8,FF,FF,FF,FF,FF,FF,FF,1F,
4295896923,000004EE,false,Rx,1,8,FF,FF,00,00,00,00,00,00,
4295896982,000004EF,false,Rx,1,8,60,00,60,00,29,14,00,00,
4295897148,000001E1,false,Rx,0,8,06,DF,5D,02,00,00,00,00,
4295897229,0000063D,false,Rx,1,8,00,80,00,00,00,00,00,00,
4295897632,000001E2,false,Rx,0,8,00,00,00,00,00,00,00,00,
4295897698,0000063E,false,Rx,1,8,FF,FF,FF,FF,FF,FF,FF,FF,
4295898189,0000063F,false,Rx,1,8,00,10,00,C4,FF,00,00,00,
4295898890,00000640,false,Rx,1,8,FF,FF,FF,00,FF,FF,FF,00,
4295899780,00000641,false,Rx,1,8,FF,FF,FF,FF,0F,FF,FF,FF,
4295899892,00000646,false,Rx,1,8,00,00,00,80,01,00,00,00,
4295907368,00000415,false,Rx,0,8,40,13,10,00,08,01,00,00,
4295907827,00000316,false,Rx,0,8,6A,A9,98,24,11,80,0A,00,
4295908289,00000317,false,Rx,0,8,00,00,05,00,00,00,00,00,
4295908997,000001E6,false,Rx,0,8,10,BB,58,02,00,00,00,00,
4295909071,000003CB,false,Rx,0,8,36,14,00,F4,00,00,00,00,
4295909492,000001E7,false,Rx,0,8,00,00,22,03,20,01,00,00,
4295909558,000003CC,false,Rx,0,8,36,31,34,30,33,34,31,00,
4295909997,000001BB,false,Rx,0,8,EB,6E,58,02,00,00,00,0A,
4295910371,00000472,false,Rx,0,8,5C,EC,00,40,08,41,00,45,
4295910489,0000010B,false,Rx,0,8,95,8D,CE,00,00,00,00,01,
4295910569,000001BC,false,Rx,0,8,32,00,00,00,02,00,00,00,
4295910812,0000010C,false,Rx,0,8,FF,01,00,00,3F,3E,3F,3F,
4295910976,000001BD,false,Rx,0,8,00,00,00,00,00,00,00,00,
4295911304,0000010D,false,Rx,0,8,06,00,00,00,00,00,00,35,
4295911462,000002FF,false,Rx,0,8,83,B9,00,F0,3F,00,00,00,
4295911715,0000010E,false,Rx,0,8,00,00,0A,00,00,00,00,00,
4295911941,00000473,false,Rx,0,8,5F,24,00,25,00,00,00,78,
4295912341,00000036,false,Rx,0,8,EA,B7,CE,01,10,00,20,05,
4295912660,00000474,false,Rx,0,8,53,98,00,00,00,00,00,10,
4295912930,00000037,false,Rx,0,8,00,00,00,10,00,40,00,00,
4295913414,00000038,false,Rx,0,8,02,17,00,00,80,37,02,00,
4295913565,00000039,false,Rx,0,8,00,00,00,00,00,00,00,00,
4295916802,000001A1,false,Rx,0,8,0B,53,69,FE,F7,7F,64,00,
4295916910,000001A2,false,Rx,0,8,00,00,00,00,00,08,00,00,
4295917033,000001A3,false,Rx,0,8,FF,F3,3F,00,00,00,00,00,
4295917077,0000019B,false,Rx,0,8,76,65,CC,00,00,E4,00,00,
4295917558,000001A4,false,Rx,0,8,FE,07,00,00,00,00,00,00,
4295917640,0000019C,false,Rx,0,8,40,20,00,00,00,00,0B,09,
4295918041,0000036F,false,Rx,0,8,30,A1,01,00,00,00,00,00,
4295918279,00000146,false,Rx,0,8,6A,5C,5A,10,04,01,00,00,
4295918343,0000037F,false,Rx,0,8,3A,B0,52,24,41,02,00,00,
4295918469,00000147,false,Rx,0,8,00,04,7D,00,40,00,00,00,
4295918743,00000148,false,Rx,0,8,00,00,00,00,00,6D,40,05,
4295918998,00000149,false,Rx,0,8,00,00,00,00,00,00,00,00,
4295919227,000001B1,false,Rx,0,8,B0,CE,5A,00,72,00,00,00,
4295919490,0000019D,false,Rx,0,8,00,10,00,01,00,00,00,00,
4295919713,000001B2,false,Rx,0,8,23,00,04,0F,58,00,79,EB,
4295919968,0000019E,false,Rx,0,8,15,00,00,00,00,32,00,00,
4295920347,000001B3,false,Rx,0,8,57,1E,00,00,73,76,77,75,
4295920665,000001B4,false,Rx,0,8,77,77,17,00,00,40,00,00,
4295923670,00000121,false,Rx,0,8,3D,BF,CF,00,00,00,00,01,
4295923762,00000122,false,Rx,0,8,FF,01,00,00,3D,3D,3D,3D,
4295924038,00000123,false,Rx,0,8,07,00,00,00,00,00,00,35,
4295924181,00000124,false,Rx,0,8,00,00,0A,00,00,00,00,00,
4295927339,000003A1,false,Rx,0,8,2C,D8,39,00,FF,FF,FF,FF,
4295927502,000003A2,false,Rx,0,8,00,00,00,00,00,00,00,00,
4295927574,000001AB,false,Rx,0,8,85,F0,F4,40,70,90,00,00,
4295927779,000001AC,false,Rx,0,8,00,28,00,00,00,00,00,00,
4295928592,000000A1,false,Rx,0,8,1D,D3,6A,00,00,00,00,00,
4295928959,000000A2,false,Rx,0,8,00,00,00,00,00,00,00,00,
4295929033,000000A3,false,Rx,0,8,00,40,01,00,00,00,00,00,
4295936647,0000011B,false,Rx,0,8,39,92,D5,05,80,08,A8,02,
4295936739,0000011C,false,Rx,0,8,00,05,20,00,22,00,01,01,
4295937122,0000012B,false,Rx,0,8,7E,68,D5,06,00,00,08,00,
4295937222,0000012C,false,Rx,0,8,00,00,01,00,00,64,00,00,
4295937983,00000061,false,Rx,0,8,86,C6,6B,00,00,00,00,00,
4295938114,00000062,false,Rx,0,8,02,02,00,02,40,FF,00,FF,
4295938401,00000063,false,Rx,0,8,00,00,05,00,00,08,FD,00,
4295938846,00000064,false,Rx,0,8,00,00,00,04,FF,FA,00,00,
4295942349,000000FF,false,Rx,0,8,CB,10,00,00,00,00,02,00,
4295942841,00000394,false,Rx,0,8,2A,22,1A,49,00,00,00,00,
4295943383,000003C3,false,Rx,0,8,45,10,31,30,36,00,00,00,
4295943479,000003E0,false,Rx,0,8,76,C0,01,00,54,03,00,00,
4295944425,000003E5,false,Rx,0,8,2F,10,01,00,00,00,00,00,
4295944582,000003E6,false,Rx,0,8,77,70,00,00,00,00,00,00,
4295944657,0000041A,false,Rx,0,8,6A,C0,12,00,50,41,00,00,
4295945222,0000041B,false,Rx,0,8,BE,70,00,00,00,00,00,00,
4295945683,0000041C,false,Rx,0,8,F3,60,E8,00,00,00,00,00,
4295945762,00000422,false,Rx,0,8,5B,A0,01,00,00,00,04,00,
4295945883,00000432,false,Rx,0,8,03,20,02,00,00,00,00,00,
4295947807,00000435,false,Rx,0,8,2E,B0,00,40,00,00,00,00,
4295947931,00000442,false,Rx,0,8,CE,20,11,81,00,00,00,00,
4295948122,00000444,false,Rx,0,8,25,E0,20,46,55,50,00,00,
4295948186,00000445,false,Rx,0,8,18,80,00,00,00,00,00,18,
4295948616,00000464,false,Rx,0,8,DD,50,F0,FF,38,7F,05,00,
4295956408,00000091,false,Rx,0,8,BE,C7,AC,00,00,00,00,00,
4295956509,00000092,false,Rx,0,8,00,00,00,00,00,00,00,00,
4295956897,00000093,false,Rx,0,8,00,00,00,00,00,00,00,00,
4295957270,00000094,false,Rx,0,8,00,00,00,00,00,00,00,00,
4295960499,0000010B,false,Rx,0,8,5D,8F,D3,00,00,00,00,01,
4295960595,0000010C,false,Rx,0,8,FF,01,00,00,3F,3E,3F,3F,
4295960983,0000010D,false,Rx,0,8,06,00,00,00,00,00,00,35,
4295961057,0000010E,false,Rx,0,8,00,00,0A,00,00,00,00,00,
4295961798,00000036,false,Rx,0,8,22,B5,D3,01,10,00,20,05,
4295961979,00000037,false,Rx,0,8,00,00,00,10,00,40,00,00,
4295962239,00000038,false,Rx,0,8,02,17,00,00,80,37,02,00,
4295962493,00000039,false,Rx,0,8,00,00,00,00,00,00,00,00,
4295964276,000002C1,false,Rx,0,8,CA,D5,58,21,00,41,00,A1,
4295964760,000002C2,false,Rx,0,8,40,00,00,00,00,00,00,00,
4295964868,000002C3,false,Rx,0,8,00,00,00,00,00,00,00,00,
4295965176,000002C4,false,Rx,0,8,00,00,00,00,00,00,00,00,
4295965576,0000033B,false,Rx,0,8,86,56,AF,00,00,00,00,00,
4295965790,0000033C,false,Rx,0,8,00,00,00,00,F0,00,00,00,
4295965840,0000033D,false,Rx,0,8,00,00,00,00,00,00,00,00,
4295966632,0000033E,false,Rx,0,8,00,00,00,00,00,00,00,00,
4295966825,00000161,false,Rx,0,8,45,8C,6C,03,00,00,00,02,
4295967137,00000162,false,Rx,0,8,FF,FC,01,00,00,00,00,00,
4295967713,0000019B,false,Rx,0,8,BE,67,D1,00,00,E4,00,00,
4295968050,0000019C,false,Rx,0,8,40,20,00,00,00,00,0B,09,
4295968152,00000380,false,Rx,0,8,AD,D7,FF,00,00,00,00,01,
4295968403,0000019D,false,Rx,0,8,00,10,00,01,00,00,00,00,
4295968506,0000019E,false,Rx,0,8,15,00,00,00,00,32,00,00,
4295969112,00000382,false,Rx,0,8,F1,7A,01,00,00,01,08,00,
4295970356,00000383,false,Rx,0,8,12,ED,01,00,02,00,00,00,
4295971521,00000384,false,Rx,0,8,E9,DC,02,00,00,FF,00,21,
4295972679,00000516,false,Rx,0,8,61,02,00,00,00,00,FF,FF,
4295972768,000003B0,false,Rx,0,8,72,37,FF,C7,00,00,03,C0,
4295973056,00000111,false,Rx,0,8,8B,9B,20,01,00,00,00,00,
4295973164,000003B1,false,Rx,0,8,9B,3C,FF,40,00,00,20,00,
4295973440,00000112,false,Rx,0,8,00,00,00,00,00,00,00,00,
4295973691,00000121,false,Rx,0,8,40,7A,D4,00,00,00,00,01,
4295973912,00000113,false,Rx,0,8,00,00,00,00,00,00,00,00,
4295974231,00000122,false,Rx,0,8,FF,01,00,00,3D,3D,3D,3D,
4295974617,00000114,false,Rx,0,8,00,00,00,00,00,00,00,00,
4295975179,00000123,false,Rx,0,8,07,00,00,00,00,00,00,35,
4295975250,000003B2,false,Rx,0,8,36,15,FF,02,29,2F,34,00,
4295975517,00000124,false,Rx,0,8,00,00,0A,00,00,00,00,00,
4295976238,00000427,false,Rx,0,8,1D,86,FF,00,80,0A,00,00,
4295978633,000000A1,false,Rx,0,8,12,38,6F,00,00,00,00,00,
4295978741,000000A2,false,Rx,0,8,00,00,00,00,00,00,00,00,
4295979089,000000A3,false,Rx,0,8,00,40,01,00,00,00,00,00,
4295980328,0000042A,false,Rx,0,8,F4,DE,FF,01,00,10,00,00,
4295981713,00000487,false,Rx,1,8,00,00,00,00,00,00,00,00,
4295981920,00000642,false,Rx,1,8,FF,FF,FF,FF,FF,FF,00,00,
4295986540,0000011B,false,Rx,0,8,23,EB,DA,05,80,08,A8,02,
4295986637,0000012B,false,Rx,0,8,64,11,DA,06,00,00,08,00,
4295987018,0000011C,false,Rx,0,8,00,05,20,00,22,00,01,01,
4295987094,0000012C,false,Rx,0,8,00,00,01,00,00,64,00,00,
4295988219,00000061,false,Rx,0,8,FB,03,70,00,00,00,00,00,
4295988368,00000062,false,Rx,0,8,02,02,00,02,40,FF,00,FF,
4295988438,00000063,false,Rx,0,8,00,00,05,00,00,08,FD,00,
4295988710,00000064,false,Rx,0,8,00,00,00,04,FF,FA,00,00,
4295992160,00000643,false,Rx,1,8,00,FC,FF,FF,FF,FF,03,00,
4295993503,000002E6,false,Rx,0,8,88,E3,AC,01,00,00,00,15,
4295993620,000002E7,false,Rx,0,8,0A,00,00,00,00,00,00,00,
4295994011,000002E8,false,Rx,0,8,00,00,00,00,00,00,00,00,
4295994171,00000256,false,Rx,0,8,ED,3D,AC,05,01,00,00,00,
4295994226,000002E9,false,Rx,0,8,00,00,00,00,00,00,00,00,
4295994453,00000257,false,Rx,0,8,00,79,00,00,7D,04,41,76,
4295995261,00000258,false,Rx,0,8,00,63,00,00,10,15,00,28,
4295995556,00000259,false,Rx,0,8,EA,03,11,3C,E0,01,00,00,
4296002896,000001F1,false,Rx,0,8,4C,0C,7D,01,00,00,28,00,
4296002988,000001F2,false,Rx,0,8,00,00,00,00,00,00,00,00,
4296007849,00000226,false,Rx,0,8,AC,06,31,FF,12,E1,08,42,
4296007944,00000227,false,Rx,0,8,02,73,09,09,00,F1,17,03,
4296009735,000003AA,false,Rx,0,8,FF,00,D0,00,54,00,00,00,
4296010437,0000010B,false,Rx,0,8,E5,8E,D8,00,00,00,00,01,
4296010519,0000010C,false,Rx,0,8,FF,01,00,00,3F,3E,3F,3F,
4296010935,0000010D,false,Rx,0,8,06,00,00,00,00,00,00,35,
4296011020,0000010E,false,Rx,0,8,00,00,0A,00,00,00,00,00,
4296012105,00000036,false,Rx,0,8,9A,B4,D8,01,10,00,20,05,
4296012308,00000037,false,Rx,0,8,00,00,00,10,00,40,00,00,
4296012353,00000038,false,Rx,0,8,02,17,00,00,80,37,02,00,
4296012582,00000039,false,Rx,0,8,00,00,00,00,00,00,00,00,
4296016190,00000475,false,Rx,0,8,12,00,00,00,00,00,00,00,
4296016325,00000496,false,Rx,0,8,12,00,00,00,00,00,00,00,
4296016373,000001A1,false,Rx,0,8,F8,CD,6E,FE,F7,7F,64,00,
4296016746,000001A2,false,Rx,0,8,00,00,00,00,00,08,00,00,
4296017104,000001A3,false,Rx,0,8,FF,F3,3F,00,00,00,00,00,
4296017435,0000019B,false,Rx,0,8,4D,F9,D6,00,00,E4,00,00,
4296017721,000001A4,false,Rx,0,8,FE,07,00,00,00,00,00,00,
4296017802,0000019C,false,Rx,0,8,40,20,00,00,00,00,0B,09,
4296017855,0000036F,false,Rx,0,8,89,B1,01,00,00,00,00,00,
4296018069,00000146,false,Rx,0,8,15,70,5F,10,04,01,00,00,
4296018430,0000037F,false,Rx,0,8,32,C0,52,24,41,02,00,00,
4296018760,00000147,false,Rx,0,8,00,04,7D,00,40,00,00,00,
4296019289,00000148,false,Rx,0,8,00,00,00,00,00,6D,40,05,
4296019771,00000149,false,Rx,0,8,00,00,00,00,00,00,00,00,
4296020080,000001B1,false,Rx,0,8,CF,E2,5F,00,72,00,00,00,
4296020377,0000019D,false,Rx,0,8,00,10,00,01,00,00,00,00,
4296020500,000001B2,false,Rx,0,8,23,00,04,0F,58,00,79,EB,
4296020767,0000019E,false,Rx,0,8,15,00,00,00,00,32,00,00,
4296020823,000001B3,false,Rx,0,8,57,1E,00,00,73,76,77,75,
4296021115,000001B4,false,Rx,0,8,77,77,17,00,00,40,00,00,
4296021200,0000030B,false,Rx,0,8,AD,B3,AF,00,04,00,00,00,
4296021374,0000030C,false,Rx,0,8,00,00,0C,00,2C,00,A0,0F,
4296021431,0000030D,false,Rx,0,8,00,00,00,00,3A,00,00,00,
4296022124,0000030E,false,Rx,0,8,00,00,30,05,21,00,00,1A,
4296022729,000004A3,false,Rx,1,8,80,00,48,0B,3E,00,00,00,
4296023057,000004A4,false,Rx,1,8,FF,FF,FF,00,00,00,00,00,
4296023220,00000419,false,Rx,0,8,98,E0,93,CE,51,60,7C,00,
4296023689,00000121,false,Rx,0,8,4D,BC,D9,00,00,00,00,01,
4296024387,00000122,false,Rx,0,8,FF,01,00,00,3D,3D,3D,3D,
4296024490,00000123,false,Rx,0,8,07,00,00,00,00,00,00,35,
4296024961,00000124,false,Rx,0,8,00,00,0A,00,00,00,00,00,
4296027437,000001AB,false,Rx,0,8,F6,C9,F9,40,70,90,00,00,
4296027536,000001AC,false,Rx,0,8,00,28,00,00,00,00,00,00,
4296028358,000000A1,false,Rx,0,8,7D,89,74,00,00,00,00,00,
4296028566,000000A2,false,Rx,0,8,00,00,00,00,00,00,00,00,
4296028806,00000151,false,Rx,0,8,94,2B,AF,A0,C8,00,28,17,
4296029045,000000A3,false,Rx,0,8,00,40,01,00,00,00,00,00,
4296029291,00000152,false,Rx,0,8,14,15,14,00,1F,00,00,00,
4296029532,000001F6,false,Rx,0,8,9A,AC,AF,00,00,00,00,0C,
4296029785,00000153,false,Rx,0,8,00,00,00,00,00,00,00,00,
4296030020,000001F7,false,Rx,0,8,1C,00,05,00,00,00,00,00,
4296030278,00000154,false,Rx,0,8,00,00,00,00,00,00,00,00,
4296030540,000001F8,false,Rx,0,8,00,03,00,03,00,00,00,00,
4296030767,000002FB,false,Rx,0,8,D9,5C,AF,00,1F,13,C6,C6,
4296030991,000001F9,false,Rx,0,8,01,00,A0,C8,14,00,01,00,
4296031270,000002FC,false,Rx,0,8,00,00,14,17,00,00,78,9F,
4296031479,00000236,false,Rx,0,8,A3,32,AF,00,62,61,34,6C,
4296031710,000002FD,false,Rx,0,8,00,00,00,00,00,1C,0A,EA,
4296031951,00000237,false,Rx,0,8,00,04,9D,00,00,BB,1D,00,
4296032237,000002FE,false,Rx,0,8,00,00,72,01,00,28,00,00,
4296032462,00000238,false,Rx,0,8,00,00,1F,00,00,00,00,00,
4296032686,00000326,false,Rx,0,8,EC,31,AF,00,10,00,00,00,
4296032935,00000239,false,Rx,0,8,00,00,00,00,01,00,00,00,
4296033219,00000327,false,Rx,0,8,00,00,00,00,05,00,00,00,
4296033419,0000025B,false,Rx,0,8,9C,BB,AF,40,40,20,00,00,
4296033668,00000328,false,Rx,0,8,05,00,01,00,00,03,00,00,
4296033905,0000025C,false,Rx,0,8,00,00,1C,00,58,70,14,00,
4296034191,00000329,false,Rx,0,8,A0,03,00,00,00,00,00,00,
4296034396,0000025D,false,Rx,0,8,00,C8,00,00,00,80,C0,70,
4296034623,00000331,false,Rx,0,8,CB,5F,AF,F1,C8,A0,2C,97,
4296034871,0000025E,false,Rx,0,8,C0,02,09,00,00,00,00,00,
4296035299,00000332,false,Rx,0,8,90,06,3C,00,00,00,00,00,
4296035611,00000333,false,Rx,0,8,00,00,00,1C,0C,40,20,A0,
4296035674,00000334,false,Rx,0,8,C8,00,00,00,85,70,F1,8F,
4296036400,0000011B,false,Rx,0,8,D5,C3,DF,05,80,08,A8,02,
4296036662,0000011C,false,Rx,0,8,00,05,20,00,22,00,01,01,
4296036879,0000012B,false,Rx,0,8,92,39,DF,06,00,00,08,00,
4296037247,0000012C,false,Rx,0,8,00,00,01,00,00,64,00,00,
4296037401,00000405,false,Rx,0,8,73,90,00,00,00,01,00,00,
4296037686,00000413,false,Rx,0,8,54,90,00,41,00,00,00,00,
4296037902,00000061,false,Rx,0,8,84,2F,75,00,00,00,00,00,
4296038118,00000410,false,Rx,0,8,58,20,51,3C,B4,6A,FF,FF,
4296038360,00000062,false,Rx,0,8,02,02,00,02,40,FF,00,FF,
4296038598,00000411,false,Rx,0,8,CF,51,50,50,00,00,44,04,
4296038843,00000063,false,Rx,0,8,00,00,05,00,00,08,FD,00,
4296039126,00000412,false,Rx,0,8,7D,80,00,00,00,00,00,00,
4296039340,00000064,false,Rx,0,8,00,00,00,04,FF,FA,00,00,
4296039590,00000414,false,Rx,0,8,26,20,00,00,28,00,00,00,
4296039828,00000495,false,Rx,0,8,49,00,00,00,00,00,00,00,
4296040122,00000416,false,Rx,0,8,55,00,00,00,00,00,00,00,
4296040340,00000417,false,Rx,0,8,D8,50,00,00,00,01,00,00,
4296040605,00000418,false,Rx,0,8,B0,80,00,00,12,0C,00,00,
4296047479,000001E1,false,Rx,0,8,6B,83,60,02,00,00,00,00,
4296047663,000001E2,false,Rx,0,8,00,00,00,00,00,00,00,00,
4296056239,00000091,false,Rx,0,8,F8,9E,AD,00,00,00,00,00,
4296056430,00000092,false,Rx,0,8,00,00,00,00,00,00,00,00,
4296056707,00000093,false,Rx,0,8,00,00,00,00,00,00,00,00,
4296056973,00000094,false,Rx,0,8,00,00,00,00,00,00,00,00,
4296058805,000001E6,false,Rx,0,8,5D,53,5B,02,00,00,00,00,
4296059048,000001BB,false,Rx,0,8,EE,37,5B,02,00,00,00,0A,
4296059297,000001BC,false,Rx,0,8,32,00,00,00,02,00,00,00,
4296059557,000001BD,false,Rx,0,8,00,00,00,00,00,00,00,00,
4296059804,000001E7,false,Rx,0,8,00,00,22,03,20,01,00,00,
4296060198,0000010B,false,Rx,0,8,9A,A2,DD,00,00,00,00,01,
4296060443,0000010C,false,Rx,0,8,FF,01,00,00,3F,3E,3F,3F,
4296060692,0000010D,false,Rx,0,8,06,00,00,00,00,00,00,35,
4296060957,0000010E,false,Rx,0,8,00,00,0A,00,00,00,00,00,
4296061684,00000036,false,Rx,0,8,E5,98,DD,01,10,00,20,05,
4296061951,00000037,false,Rx,0,8,00,00,00,10,00,40,00,00,
4296062193,00000038,false,Rx,0,8,02,17,00,00,80,37,02,00,
4296062442,000002AB,false,Rx,0,8,45,E9,B0,0C,0C,00,00,00,
4296062808,00000039,false,Rx,0,8,00,00,00,00,00,00,00,00,
4296063177,000002AC,false,Rx,0,8,00,FF,FF,00,00,40,00,50,
4296063250,00000251,false,Rx,0,8,43,F7,AF,00,00,00,00,00,
4296063861,000002AD,false,Rx,0,8,00,02,00,40,FF,FF,FF,0F,
4296064434,00000252,false,Rx,0,8,00,00,00,00,03,00,00,00,
4296064555,000002AE,false,Rx,0,8,01,00,FF,3F,00,01,00,00,
4296065030,00000253,false,Rx,0,8,00,00,00,00,00,00,80,3D,
4296065108,000002B6,false,Rx,0,8,5F,73,B0,00,00,00,00,40,
4296065162,00000396,false,Rx,0,8,83,C2,57,0F,04,01,00,00,
4296065215,000002B7,false,Rx,0,8,B9,01,D2,00,00,04,00,00,
4296065281,00000397,false,Rx,0,8,0C,00,00,00,00,00,00,00,
4296065353,000002B8,false,Rx,0,8,B9,B1,11,00,00,00,00,00,
4296065658,00000398,false,Rx,0,8,00,00,00,00,00,00,00,00,
4296066019,000002B9,false,Rx,0,8,0A,00,00,00,00,00,00,00,
4296066094,000002EB,false,Rx,0,8,6A,8C,57,06,04,01,00,00,
4296066346,000002D6,false,Rx,0,8,34,D4,57,00,00,00,00,00,
4296066600,000002EC,false,Rx,0,8,07,00,00,00,00,00,00,00,
4296066821,0000019B,false,Rx,0,8,40,3F,DB,00,00,E4,00,00,
4296067071,000001FB,false,Rx,0,8,68,38,B0,00,00,00,00,00,
4296067308,00000161,false,Rx,0,8,3C,96,71,03,00,00,00,02,
4296067561,000001FC,false,Rx,0,8,00,00,00,00,00,00,00,00,
4296067802,00000162,false,Rx,0,8,FF,FC,01,00,00,00,00,00,
4296068056,000001FD,false,Rx,0,8,00,1A,03,00,00,00,00,00,
4296068299,0000019C,false,Rx,0,8,40,20,00,00,00,00,0B,09,
4296068547,000001FE,false,Rx,0,8,00,00,00,00,00,00,00,00,
4296068789,0000019D,false,Rx,0,8,00,10,00,01,00,00,00,00,
4296069045,000002D7,false,Rx,0,8,00,00,00,00,03,00,00,00,
4296069288,0000019E,false,Rx,0,8,15,00,00,00,00,32,00,00,
4296069531,000002D8,false,Rx,0,8,00,00,00,00,00,00,38,3C,
4296069816,000002ED,false,Rx,0,8,00,00,00,00,00,00,00,00,
4296070037,000002D9,false,Rx,0,8,00,00,00,00,00,00,00,00,
4296070282,000002EE,false,Rx,0,8,00,00,00,00,00,00,00,00,
4296070525,000002E1,false,Rx,0,8,AD,F3,B0,00,00,00,00,00,
4296070786,00000356,false,Rx,0,8,2C,28,58,00,00,00,00,00,
4296071017,000002E2,false,Rx,0,8,00,00,00,00,00,7E,00,04,
4296071246,00000357,false,Rx,0,8,00,00,00,00,00,4B,4D,48,
4296071506,000002E3,false,Rx,0,8,00,00,00,00,00,00,72,01,
4296071721,00000358,false,Rx,0,8,35,41,45,4D,52,37,33,4F,
4296071989,000002E4,false,Rx,0,8,02,00,00,00,00,00,00,00,
4296072205,00000359,false,Rx,0,8,51,4F,34,52,4A,35,33,00,
4296072495,00000419,false,Rx,0,8,98,E0,93,CE,51,60,7C,00,
4296072677,00000561,false,Rx,0,8,63,02,00,00,00,00,FF,FF,
4296073424,00000121,false,Rx,0,8,04,23,DE,00,00,00,00,01,
4296073667,00000122,false,Rx,0,8,FF,01,00,00,3D,3D,3D,3D,
4296073915,00000123,false,Rx,0,8,08,00,00,00,00,00,00,35,
4296074168,00000448,false,Rx,0,8,7F,00,00,00,00,00,00,00,
4296074415,00000124,false,Rx,0,8,00,00,0A,00,00,00,00,00,
4296078292,000000A1,false,Rx,0,8,4B,CA,79,00,00,00,00,00,
4296078565,000000A2,false,Rx,0,8,00,00,00,00,00,00,00,00,
4296078807,000000A3,false,Rx,0,8,00,40,01,00,00,00,00,00,
4296082261,000002BF,false,Rx,0,8,FF,FF,FF,00,00,00,00,00,
4296082479,0000047F,false,Rx,0,8,FF,FF,FF,FF,FF,FF,F3,FF,
4296082746,00000653,false,Rx,0,8,0A,19,03,01,02,2A,00,00,
4296086393,0000011B,false,Rx,0,8,03,5F,E4,05,80,08,A8,02,
4296086569,0000012B,false,Rx,0,8,44,A5,E4,06,00,00,08,00,
4296086811,0000011C,false,Rx,0,8,00,05,20,00,22,00,01,01,
4296087064,0000012C,false,Rx,0,8,00,00,01,00,00,64,00,00,
4296087864,00000061,false,Rx,0,8,05,5B,7A,00,00,00,00,00,
4296088179,00000062,false,Rx,0,8,02,02,00,02,40,FF,00,FF,
4296088364,00000063,false,Rx,0,8,00,00,05,00,00,08,FD,00,
4296088618,00000064,false,Rx,0,8,00,00,00,04,FF,FA,00,00,
4296089100,00000401,false,Rx,0,8,FE,70,10,00,00,01,00,00,
4296092598,000000C5,false,Rx,1,8,00,00,00,00,00,00,00,00,
4296092859,00000244,false,Rx,1,8,FF,FF,FF,FF,FF,FF,FF,FF,
4296093145,000004B4,false,Rx,1,8,00,00,00,00,00,00,00,00,
4296093400,000004B5,false,Rx,1,8,08,00,F0,07,00,00,00,00,
4296093680,000004B7,false,Rx,1,8,08,00,F0,07,00,00,00,00,
4296093924,000004CA,false,Rx,1,8,00,00,00,00,00,00,00,00,
4296094198,000004CC,false,Rx,1,8,08,00,00,27,00,00,03,00,
4296094388,000003B6,false,Rx,0,8,D0,C9,56,00,00,00,00,41,
4296094538,000004CE,false,Rx,1,8,14,01,FF,FF,FF,FF,FF,FF,
4296094713,000003B7,false,Rx,0,8,40,00,00,00,00,08,00,00,
4296094847,000004D7,false,Rx,1,8,23,01,00,00,00,00,00,00,
4296095202,000004D8,false,Rx,1,8,41,10,F6,F0,40,F2,1E,CC,
4296095267,000003B8,false,Rx,0,8,0A,00,00,00,00,00,69,0E,
4296095937,000004DD,false,Rx,1,8,00,00,FE,00,04,00,00,00,
4296096707,000003B9,false,Rx,0,8,00,00,00,00,00,00,00,00,
4296097219,000004DF,false,Rx,1,8,FF,03,0C,3F,00,00,00,00,
4296097500,000004E7,false,Rx,1,8,00,30,00,00,00,00,69,00,
4296097798,000004E8,false,Rx,1,8,FF,FF,FF,26,FF,FF,FF,00,
4296098169,000004E9,false,Rx,1,8,00,00,00,00,00,00,00,00,
4296098426,000004EA,false,Rx,1,8,00,00,00,00,00,00,00,00,
4296098501,000004EB,false,Rx,1,8,04,A8,22,1D,80,00,00,00,
4296098553,000004EC,false,Rx,1,8,FF,FF,FF,FF,FF,FF,FF,0F,
4296098600,000004ED,false,Rx,1,8,FF,FF,FF,FF,FF,FF,FF,1F,
4296098661,000004EE,false,Rx,1,8,FF,FF,00,00,00,00,00,00,
4296098825,000004EF,false,Rx,1,8,60,00,60,00,29,14,00,00,
4296099111,0000063D,false,Rx,1,8,00,80,00,00,00,00,00,00,
4296099363,0000063E,false,Rx,1,8,FF,FF,FF,FF,FF,FF,FF,FF,
4296099642,0000063F,false,Rx,1,8,00,10,00,C4,FF,00,00,00,
4296099897,00000640,false,Rx,1,8,FF,FF,FF,00,FF,FF,FF,00,
4296100178,00000641,false,Rx,1,8,FF,FF,FF,FF,0F,FF,FF,FF,
4296100434,00000646,false,Rx,1,8,00,00,00,80,01,00,00,00,
4296102463,00000419,false,Rx,0,8,98,E0,93,CE,51,60,7C,00,
4296107920,000002FF,false,Rx,0,8,83,B9,00,F0,3F,00,00,00,
4296108219,00000316,false,Rx,0,8,4E,01,99,24,11,80,0A,00,
4296108480,00000317,false,Rx,0,8,00,00,05,00,00,00,00,00,
4296109321,00000472,false,Rx,0,8,5C,EC,00,40,08,41,00,45,
4296109517,00000473,false,Rx,0,8,5F,24,00,25,00,00,00,78,
4296109784,00000474,false,Rx,0,8,53,98,00,00,00,00,00,10,
4296110194,0000010B,false,Rx,0,8,75,8B,E2,00,00,00,00,01,
4296110461,0000010C,false,Rx,0,8,FF,01,00,00,3F,3E,3F,3F,
4296110696,0000010D,false,Rx,0,8,06,00,00,00,00,00,00,35,
4296110948,0000010E,false,Rx,0,8,00,00,0A,00,00,00,00,00,
4296111698,00000036,false,Rx,0,8,0A,B1,E2,01,10,00,20,05,
4296111943,00000037,false,Rx,0,8,00,00,00,10,00,40,00,00,
4296112199,00000038,false,Rx,0,8,02,17,00,00,80,37,02,00,
4296112486,00000039,false,Rx,0,8,00,00,00,00,00,00,00,00,
4296116337,000001A1,false,Rx,0,8,30,CF,73,FE,F7,7F,64,00,
4296116519,000001A2,false,Rx,0,8,00,00,00,00,00,08,00,00,
4296116797,000001A3,false,Rx,0,8,FF,F3,3F,00,00,00,00,00,
4296117029,0000019B,false,Rx,0,8,96,63,E0,00,00,E4,00,00,
4296117283,000001A4,false,Rx,0,8,FE,07,00,00,00,00,00,00,
4296117541,0000019C,false,Rx,0,8,40,20,00,00,00,00,0B,09,
4296117773,0000036F,false,Rx,0,8,81,C1,01,00,00,00,00,00,
4296117997,00000146,false,Rx,0,8,C3,2C,64,10,04,01,00,00,
4296118251,0000037F,false,Rx,0,8,8B,D0,52,24,41,02,00,00,
4296118492,00000147,false,Rx,0,8,00,04,7D,00,40,00,00,00,
4296118762,00000148,false,Rx,0,8,00,00,00,00,00,6D,40,05,
4296119015,00000149,false,Rx,0,8,00,00,00,00,00,00,00,00,
4296119260,000001B1,false,Rx,0,8,19,BE,64,00,72,00,00,00,
4296119526,0000019D,false,Rx,0,8,00,10,00,01,00,00,00,00,
4296119739,000001B2,false,Rx,0,8,23,00,04,0F,58,00,79,EB,
4296119975,0000019E,false,Rx,0,8,15,00,00,00,00,32,00,00,
4296120212,000001B3,false,Rx,0,8,57,1E,00,00,73,76,77,75,
4296120469,000001B4,false,Rx,0,8,77,77,17,00,00,40,00,00,
4296122791,000004E8,false,Rx,1,8,FF,FF,FF,26,FF,FF,FF,00,
4296123496,00000121,false,Rx,0,8,DD,B9,E3,00,00,00,00,01,
4296123667,00000122,false,Rx,0,8,FF,01,00,00,3D,3D,3D,3D,
4296123926,00000123,false,Rx,0,8,07,00,00,00,00,00,00,35,
4296124180,00000124,false,Rx,0,8,00,00,0A,00,00,00,00,00,
4296126892,000003A1,false,Rx,0,8,61,30,3A,00,FF,FF,FF,FF,
4296127101,000003A2,false,Rx,0,8,00,00,00,00,00,00,00,00,
4296127345,000001AB,false,Rx,0,8,69,A1,FE,40,70,90,00,00,
4296127630,000001AC,false,Rx,0,8,00,28,00,00,00,00,00,00,
4296128309,000000A1,false,Rx,0,8,42,4F,7E,00,00,00,00,00,
4296128571,000000A2,false,Rx,0,8,00,00,00,00,00,00,00,00,
4296128860,000000A3,false,Rx,0,8,00,40,01,00,00,00,00,00,
4296136487,0000011B,false,Rx,0,8,70,66,E9,05,80,08,A8,02,
4296136685,0000011C,false,Rx,0,8,00,05,20,00,22,00,01,01,
4296136929,0000012B,false,Rx,0,8,37,9C,E9,06,00,00,08,00,
4296137190,0000012C,false,Rx,0,8,00,00,01,00,00,64,00,00,
4296137797,00000061,false,Rx,0,8,7A,77,7F,00,00,00,00,00,
4296138048,00000062,false,Rx,0,8,02,02,00,02,40,FF,00,FF,
4296138523,00000063,false,Rx,0,8,00,00,05,00,00,08,FD,00,
4296138639,00000064,false,Rx,0,8,00,00,00,04,FF,FA,00,00,
4296141988,000000FF,false,Rx,0,8,CB,10,00,00,00,00,02,00,
4296142677,00000394,false,Rx,0,8,2A,22,1A,49,00,00,00,00,
4296142828,000003C3,false,Rx,0,8,45,10,31,30,36,00,00,00,
4296143143,000003E0,false,Rx,0,8,76,C0,01,00,54,03,00,00,
4296144071,000003E5,false,Rx,0,8,2F,10,01,00,00,00,00,00,
4296144180,000003E6,false,Rx,0,8,77,70,00,00,00,00,00,00,
4296144546,0000041A,false,Rx,0,8,6A,C0,12,00,50,41,00,00,
4296144617,0000041B,false,Rx,0,8,BE,70,00,00,00,00,00,00,
4296145063,0000041C,false,Rx,0,8,F3,60,E8,00,00,00,00,00,
4296145348,00000422,false,Rx,0,8,5B,A0,01,00,00,00,04,00,
4296145762,00000432,false,Rx,0,8,03,20,02,00,00,00,00,00,
4296147532,00000435,false,Rx,0,8,2E,B0,00,40,00,00,00,00,
4296147652,00000442,false,Rx,0,8,CE,20,11,81,00,00,00,00,
4296147963,00000444,false,Rx,0,8,25,E0,20,46,55,50,00,00,
4296148225,00000445,false,Rx,0,8,18,80,00,00,00,00,00,18,
4296148556,00000464,false,Rx,0,8,DD,50,F0,FF,38,7F,05,00,
4296152713,000001F1,false,Rx,0,8,78,D4,80,01,00,00,28,00,
4296152952,000001F2,false,Rx,0,8,00,00,00,00,00,00,00,00,
4296154792,000004E8,false,Rx,1,8,FF,FF,FF,26,FF,FF,FF,00,
4296156264,00000091,false,Rx,0,8,32,75,AE,00,00,00,00,00,
4296156437,00000092,false,Rx,0,8,00,00,00,00,00,00,00,00,
4296156713,00000093,false,Rx,0,8,00,00,00,00,00,00,00,00,
4296156985,00000094,false,Rx,0,8,00,00,00,00,00,00,00,00,
4296160314,0000010B,false,Rx,0,8,0A,A7,E7,00,00,00,00,01,
4296160504,0000010C,false,Rx,0,8,FF,01,00,00,3F,3E,3F,3F,
4296160746,0000010D,false,Rx,0,8,06,00,00,00,00,00,00,35,
4296160999,0000010E,false,Rx,0,8,00,00,0A,00,00,00,00,00,
4296161702,00000036,false,Rx,0,8,75,9D,E7,01,10,00,20,05,
4296161957,00000037,false,Rx,0,8,00,00,00,10,00,40,00,00,
4296162238,00000038,false,Rx,0,8,02,17,00,00,80,37,02,00,
4296162526,00000039,false,Rx,0,8,00,00,00,00,00,00,00,00,
4296163500,000002C1,false,Rx,0,8,8C,8C,59,21,00,41,00,A1,
4296163688,000002C2,false,Rx,0,8,40,00,00,00,00,00,00,00,
4296163959,000002C3,false,Rx,0,8,00,00,00,00,00,00,00,00,
4296164235,000002C4,false,Rx,0,8,00,00,00,00,00,00,00,00,
4296165308,0000033B,false,Rx,0,8,84,BF,B1,00,00,00,00,00,
4296165519,0000033C,false,Rx,0,8,00,00,00,00,F0,00,00,00,
4296165790,0000033D,false,Rx,0,8,00,00,00,00,00,00,00,00,
4296166065,0000033E,false,Rx,0,8,00,00,00,00,00,00,00,00,
4296166299,00000161,false,Rx,0,8,A3,FE,76,03,00,00,00,02,
4296166562,00000162,false,Rx,0,8,FF,FC,01,00,00,00,00,00,
4296166815,0000019B,false,Rx,0,8,E9,4F,E5,00,00,E4,00,00,
4296167084,0000019C,false,Rx,0,8,40,20,00,00,00,00,0B,09,
4296167322,00000380,false,Rx,0,8,AD,D7,FF,00,00,00,00,01,
4296167566,0000019D,false,Rx,0,8,00,10,00,01,00,00,00,00,
4296167828,0000019E,false,Rx,0,8,15,00,00,00,00,32,00,00,
4296168684,00000382,false,Rx,0,8,F1,7A,01,00,00,01,08,00,
4296170132,00000383,false,Rx,0,8,12,ED,01,00,02,00,00,00,
4296171120,00000384,false,Rx,0,8,E9,DC,02,00,00,FF,00,21,
4296172570,000003B0,false,Rx,0,8,72,37,FF,C7,00,00,03,C0,
4296172731,00000111,false,Rx,0,8,CD,C2,21,01,00,00,00,00,
4296172984,00000112,false,Rx,0,8,00,00,00,00,00,00,00,00,
4296173230,000003B1,false,Rx,0,8,9B,3C,FF,40,00,00,20,00,
4296173479,00000113,false,Rx,0,8,00,00,00,00,00,00,00,00,
4296173703,00000121,false,Rx,0,8,65,B8,E8,00,00,00,00,01,
4296173971,00000114,false,Rx,0,8,00,00,00,00,00,00,00,00,
