Time Stamp,ID,Extended,Dir,Bus,LEN,D1,D2,D3,D4,D5,D6,D7,D8
2638445,00000124,false,Rx,0,8,00,00,0A,00,00,00,20,40,
2639110,00000036,false,Rx,0,8,A5,67,13,51,00,00,25,05,
2639458,00000037,false,Rx,0,8,05,00,00,10,00,40,00,00,
2639508,00000038,false,Rx,0,8,04,00,00,00,60,39,96,D4,
2640293,00000039,false,Rx,0,8,00,00,00,00,00,00,00,00,
2641089,00000236,false,Rx,0,8,EE,A2,E8,00,30,63,34,6C,
2641172,00000237,false,Rx,0,8,00,05,94,00,00,5C,1D,00,
2641456,00000238,false,Rx,0,8,00,00,0C,00,00,00,00,00,
2641766,00000239,false,Rx,0,8,00,00,00,00,01,00,00,00,
2642119,00000151,false,Rx,0,8,64,9A,E8,A0,C8,00,28,15,
2642358,00000152,false,Rx,0,8,12,14,13,00,24,00,00,00,
2642595,000001F6,false,Rx,0,8,C5,61,E8,00,00,00,00,0D,
2642850,00000153,false,Rx,0,8,00,00,00,00,00,00,00,00,
2643096,000001F7,false,Rx,0,8,1F,00,DC,00,00,00,00,00,
2643330,00000154,false,Rx,0,8,00,00,00,00,00,00,00,00,
2643587,000001F8,false,Rx,0,8,00,69,00,64,00,00,00,00,
2643816,000002FB,false,Rx,0,8,E4,BF,E8,04,0C,15,C3,C3,
2644064,000001F9,false,Rx,0,8,19,00,A0,C8,14,00,19,00,
2644295,000002FC,false,Rx,0,8,0A,00,12,15,00,00,87,96,
2644583,0000025B,false,Rx,0,8,AE,87,E8,40,40,20,00,00,
2644774,000002FD,false,Rx,0,8,00,00,00,00,00,1C,10,EA,
2645027,0000025C,false,Rx,0,8,00,00,1F,00,BD,68,15,00,
2645264,000002FE,false,Rx,0,8,00,00,72,01,00,28,00,00,
2645565,0000025D,false,Rx,0,8,00,C8,00,00,00,80,C0,70,
2645745,00000326,false,Rx,0,8,DD,D8,E8,00,00,00,00,00,
2646001,0000025E,false,Rx,0,8,13,07,0E,02,00,00,00,00,
2646225,0000019B,false,Rx,0,8,ED,E9,12,00,00,E4,00,00,
2646495,00000327,false,Rx,0,8,00,00,00,00,01,00,00,00,
2646717,0000019C,false,Rx,0,8,40,20,00,00,00,00,0B,09,
2646955,00000328,false,Rx,0,8,DC,00,19,00,00,69,00,00,
2647242,0000019D,false,Rx,0,8,00,10,00,01,00,00,00,00,
2647504,00000329,false,Rx,0,8,A0,64,00,00,00,00,00,00,
2647700,0000019E,false,Rx,0,8,15,00,00,00,00,32,00,00,
2647919,00000331,false,Rx,0,8,2D,F9,E8,F1,C8,A0,2C,97,
2648210,000003AA,false,Rx,0,8,FF,00,D0,00,54,00,00,00,
2648405,00000332,false,Rx,0,8,44,07,B4,00,00,00,00,00,
2648662,00000333,false,Rx,0,8,00,00,00,1C,0C,40,20,A0,
2648912,00000334,false,Rx,0,8,C8,00,00,00,5C,70,B7,8F,
2651338,00000495,false,Rx,0,8,49,00,00,00,00,00,00,00,
2654358,0000011B,false,Rx,0,8,13,2F,18,05,80,08,A8,02,
2654521,0000012B,false,Rx,0,8,54,D5,18,06,00,00,08,00,
2654766,0000011C,false,Rx,0,8,00,05,20,00,22,00,01,01,
2655022,0000012C,false,Rx,0,8,00,00,01,00,00,64,00,00,
2657296,00000356,false,Rx,0,8,2B,08,0E,00,00,00,00,00,
2657481,00000357,false,Rx,0,8,00,00,00,00,00,4B,4D,48,
2657741,00000358,false,Rx,0,8,35,41,45,4D,52,37,33,4F,
2657978,00000359,false,Rx,0,8,51,4F,34,52,4A,35,33,00,
2660021,00000419,false,Rx,0,8,F2,40,0D,D6,B5,7A,84,00,
2661644,000000A1,false,Rx,0,8,31,B4,F8,8A,D4,EC,A2,00,
2661872,000000A2,false,Rx,0,8,00,00,00,00,00,00,00,00,
2662108,00000448,false,Rx,0,8,7F,00,00,00,00,00,00,00,
2662349,000000A3,false,Rx,0,8,00,40,01,00,00,00,00,00,
2665236,000004A3,false,Rx,1,8,80,00,48,0B,3E,00,00,00,
2665512,000004A4,false,Rx,1,8,FF,FF,FF,00,00,00,00,00,
2671762,00000091,false,Rx,0,8,13,EA,E6,03,00,00,00,00,
2671871,00000092,false,Rx,0,8,16,00,00,00,60,01,00,00,
2672135,00000093,false,Rx,0,8,00,00,00,00,00,00,00,00,
2672388,00000094,false,Rx,0,8,00,00,00,00,00,00,00,00,
2672619,00000146,false,Rx,0,8,DC,62,7E,10,04,05,00,00,
2672870,00000147,false,Rx,0,8,01,04,7D,00,40,38,03,00,
2673115,00000148,false,Rx,0,8,00,00,42,00,00,7A,40,05,
2673359,00000149,false,Rx,0,8,00,38,00,0C,00,00,00,00,
2673606,000001B1,false,Rx,0,8,8E,BA,7E,00,72,00,00,00,
2673851,000001B2,false,Rx,0,8,23,00,04,0D,10,01,50,0F,
2674096,000001B3,false,Rx,0,8,10,2D,33,00,60,7F,71,7C,
2674339,000001B4,false,Rx,0,8,66,7A,10,00,00,41,00,00,
2674625,000001E1,false,Rx,0,8,6D,AE,D2,02,00,00,00,00,
2674918,000001E2,false,Rx,0,8,00,00,00,00,00,00,00,00,
2675122,0000036F,false,Rx,0,8,EE,E1,01,00,00,00,00,00,
2675414,0000037F,false,Rx,0,8,8B,D0,52,24,41,02,00,00,
2679692,000002AB,false,Rx,0,8,45,C9,E9,0C,0C,00,00,00,
2679900,000002AC,false,Rx,0,8,00,FF,FF,00,00,40,00,50,
2680210,000002AD,false,Rx,0,8,00,01,00,40,FF,FF,FF,0F,
2680739,000002AE,false,Rx,0,8,01,00,FF,3F,01,01,00,00,
2681055,000002B6,false,Rx,0,8,77,7A,E9,01,00,00,00,40,
2681101,000002B7,false,Rx,0,8,93,01,C1,08,00,04,00,00,
2681200,00000061,false,Rx,0,8,EB,1D,FA,00,00,00,00,00,
2681452,000002B8,false,Rx,0,8,B2,61,11,00,00,00,00,00,
2681686,00000062,false,Rx,0,8,02,02,00,02,40,FF,00,FF,
2681976,000002B9,false,Rx,0,8,0A,00,00,00,00,00,00,00,
2682201,00000063,false,Rx,0,8,00,00,05,00,00,08,FD,00,
2682430,000002C1,false,Rx,0,8,82,CC,F5,21,00,41,00,A1,
2682659,00000064,false,Rx,0,8,00,00,00,04,FF,FA,00,00,
2682911,000002C2,false,Rx,0,8,40,00,00,00,00,00,00,00,
2683139,0000010B,false,Rx,0,8,FD,96,17,00,00,00,00,05,
2683386,000002C3,false,Rx,0,8,00,00,00,00,00,00,00,00,
2683626,0000010C,false,Rx,0,8,FF,F9,E7,1F,43,48,44,44,
2683878,000002C4,false,Rx,0,8,00,00,00,00,00,00,00,00,
2684112,0000010D,false,Rx,0,8,EF,02,00,00,00,00,01,35,
2684351,00000251,false,Rx,0,8,7E,3A,E8,00,00,00,00,00,
2684600,0000010E,false,Rx,0,8,00,00,0A,00,00,C0,AB,57,
2684850,00000252,false,Rx,0,8,00,00,00,00,03,00,00,00,
2685151,000002E1,false,Rx,0,8,66,EC,E9,00,00,00,00,40,
2685580,00000253,false,Rx,0,8,00,00,00,52,52,00,80,46,
2685647,000002E2,false,Rx,0,8,FD,00,00,00,00,14,00,04,
2685831,00000380,false,Rx,0,8,A0,99,01,0C,0C,0C,0C,01,
2686185,000002E3,false,Rx,0,8,00,00,00,00,00,00,72,01,
2686603,00000382,false,Rx,0,8,36,4D,02,00,00,05,09,00,
2686776,000002E4,false,Rx,0,8,02,00,00,00,00,00,00,00,
2686833,00000383,false,Rx,0,8,89,14,01,10,01,00,00,00,
2687188,00000384,false,Rx,0,8,D8,3D,02,01,00,FF,00,22,
2687352,000003B0,false,Rx,0,8,72,37,FF,C7,00,00,03,C0,
2687665,00000121,false,Rx,0,8,E1,C1,18,00,00,00,00,05,
2687913,00000122,false,Rx,0,8,FF,D9,67,1F,43,44,43,43,
2688172,00000123,false,Rx,0,8,F0,02,00,00,00,00,01,35,
2688443,000003B1,false,Rx,0,8,9B,3C,FF,40,00,00,20,00,
2688664,00000124,false,Rx,0,8,00,00,0A,00,00,00,20,40,
2688991,00000036,false,Rx,0,8,1D,66,18,51,00,00,25,05,
2689248,00000037,false,Rx,0,8,05,00,00,10,00,40,00,00,
2689484,00000038,false,Rx,0,8,04,00,00,00,60,39,96,D4,
2689769,00000256,false,Rx,0,8,0A,56,E8,15,00,00,F0,00,
2689985,00000039,false,Rx,0,8,00,00,00,00,00,00,00,00,
2690212,00000257,false,Rx,0,8,00,8C,40,18,84,07,00,8C,
2690446,000002E6,false,Rx,0,8,C6,B5,E8,01,00,00,00,15,
2690710,00000258,false,Rx,0,8,01,24,1D,00,10,15,00,1C,
2690935,000002E7,false,Rx,0,8,0A,00,00,00,00,00,00,00,
2691170,00000259,false,Rx,0,8,45,05,8B,3C,2C,02,00,00,
2691418,000002E8,false,Rx,0,8,00,00,00,00,00,00,00,00,
2691711,000002E9,false,Rx,0,8,00,00,00,00,00,00,00,00,
2694760,000003B2,false,Rx,0,8,36,15,FF,02,29,2F,34,00,
2696307,0000019B,false,Rx,0,8,92,C5,17,00,00,E4,00,00,
2696567,0000019C,false,Rx,0,8,40,20,00,00,00,00,0B,09,
2696849,0000019D,false,Rx,0,8,00,10,00,01,00,00,00,00,
2697092,0000019E,false,Rx,0,8,15,00,00,00,00,32,00,00,
2697369,00000427,false,Rx,0,8,1D,86,FF,00,80,0A,00,00,
2699636,0000042A,false,Rx,0,8,CF,74,01,04,00,10,00,00,
2700118,00000419,false,Rx,0,8,0D,50,0C,D6,B5,7A,84,00,
2704295,000001A1,false,Rx,0,8,CA,31,8E,FE,F7,7F,64,00,
2704462,0000011B,false,Rx,0,8,E5,07,1D,05,80,08,A8,02,
2704739,0000012B,false,Rx,0,8,A2,FD,1D,06,00,00,08,00,
2704957,0000011C,false,Rx,0,8,00,05,20,00,22,00,01,01,
2705197,0000012C,false,Rx,0,8,00,00,01,00,00,64,00,00,
2705446,000001A2,false,Rx,0,8,00,00,00,00,00,08,00,00,
2705699,0000048B,false,Rx,0,8,35,B9,31,1E,01,00,00,00,
2705924,000001A3,false,Rx,0,8,FF,F3,3F,00,00,00,00,00,
2706209,0000048C,false,Rx,0,8,00,00,00,00,00,00,00,00,
2706429,000001A4,false,Rx,0,8,FE,07,00,00,00,00,00,00,
2711600,000000A1,false,Rx,0,8,3E,5F,FD,8A,D4,EC,A2,00,
2711819,000000A2,false,Rx,0,8,00,00,00,00,00,00,00,00,
2712069,000000A3,false,Rx,0,8,00,40,01,00,00,00,00,00,
2714183,00000161,false,Rx,0,8,45,A6,8F,03,00,00,00,02,
2714374,00000162,false,Rx,0,8,FF,FC,01,00,00,00,00,00,
2727350,000001AB,false,Rx,0,8,5F,48,8E,40,70,90,00,00,
2727558,000001AC,false,Rx,0,8,00,28,00,00,00,00,00,00,
2730019,00000516,false,Rx,0,8,63,02,00,00,00,00,FF,FF,
2731226,00000061,false,Rx,0,8,94,31,FF,00,00,00,00,00,
2731418,00000062,false,Rx,0,8,02,02,00,02,40,FF,00,FF,
2731678,00000063,false,Rx,0,8,00,00,05,00,00,08,FD,00,
2732192,00000064,false,Rx,0,8,00,00,00,04,FF,FA,00,00,
2732570,0000010B,false,Rx,0,8,45,97,1C,00,00,00,00,05,
2732669,0000010C,false,Rx,0,8,FF,F9,E7,1F,43,48,44,44,
2732943,0000010D,false,Rx,0,8,EF,02,00,00,00,00,01,35,
2733029,0000010E,false,Rx,0,8,00,00,0A,00,00,C0,AB,57,
2734415,000003A1,false,Rx,0,8,24,CA,A4,00,FF,FF,FF,FF,
2734707,000003A2,false,Rx,0,8,00,00,00,00,00,00,00,00,
2735247,000000C5,false,Rx,1,8,00,00,00,00,00,00,00,00,
2735680,00000244,false,Rx,1,8,00,00,00,00,00,00,00,00,
2735965,0000041F,false,Rx,1,8,00,0C,00,00,00,00,00,00,
2736227,000004B4,false,Rx,1,8,01,00,0D,40,10,60,44,02,
2736520,000001F1,false,Rx,0,8,5A,51,33,01,00,00,28,00,
2736610,000004B5,false,Rx,1,8,08,00,F0,07,00,00,00,00,
2736714,000001F2,false,Rx,0,8,00,00,00,00,00,00,00,00,
2736766,000004B7,false,Rx,1,8,08,00,F0,07,00,00,00,00,
2737261,000004CA,false,Rx,1,8,00,00,00,00,00,00,00,00,
2738523,00000121,false,Rx,0,8,9E,ED,1D,00,00,00,00,05,
2738783,000004CC,false,Rx,1,8,08,00,00,2A,00,00,03,00,
2738870,000004CE,false,Rx,1,8,14,01,FF,FF,FF,FF,FF,FF,
2739083,00000122,false,Rx,0,8,FF,D9,67,1F,43,44,43,43,
2739244,000004D7,false,Rx,1,8,23,01,00,00,00,00,00,00,
2739304,00000123,false,Rx,0,8,F0,02,00,00,00,00,01,35,
2739367,00000124,false,Rx,0,8,00,00,0A,00,00,00,20,40,
2739416,000004D8,false,Rx,1,8,41,10,F6,F0,40,F2,1E,CC,
2739480,00000036,false,Rx,0,8,62,4A,1D,51,00,00,25,05,
2739527,000004DD,false,Rx,1,8,00,00,FE,00,04,00,00,00,
2739575,000004DF,false,Rx,1,8,00,00,08,00,00,00,00,00,
2739625,00000037,false,Rx,0,8,05,00,00,10,00,40,00,00,
2739791,000004E7,false,Rx,1,8,00,30,00,00,00,00,69,00,
2739971,00000038,false,Rx,0,8,04,00,00,00,60,39,96,D4,
2740235,00000401,false,Rx,0,8,81,B0,10,00,00,01,00,00,
2740301,000004E8,false,Rx,1,8,FF,FF,FF,29,FF,FF,FF,00,
2740458,00000039,false,Rx,0,8,00,00,00,00,00,00,00,00,
2740778,000004E9,false,Rx,1,8,00,00,00,00,00,00,00,00,
2741022,00000419,false,Rx,0,8,0D,50,0C,D6,B5,7A,84,00,
2741271,000004EA,false,Rx,1,8,00,00,00,00,00,00,00,00,
2741730,000004EB,false,Rx,1,8,04,68,2A,0C,80,00,00,00,
2741974,00000475,false,Rx,0,8,12,00,00,00,00,00,00,00,
2742228,000004EC,false,Rx,1,8,FF,FF,FF,FF,FF,FF,FF,0F,
2742721,00000496,false,Rx,0,8,12,00,00,00,00,00,00,00,
2742904,000004ED,false,Rx,1,8,FF,FF,FF,FF,FF,FF,FF,1F,
2743233,000004EE,false,Rx,1,8,FF,FF,00,00,00,00,00,00,
2743703,000004EF,false,Rx,1,8,60,00,60,00,29,14,00,00,
2744166,000004F0,false,Rx,1,8,4A,0D,2A,0C,5C,1A,11,02,
2744661,000004F1,false,Rx,1,8,00,C0,00,00,00,00,00,00,
2744924,000004F2,false,Rx,1,8,02,FF,DD,FF,03,01,00,00,
2745236,000004F3,false,Rx,1,8,00,00,00,00,30,00,00,00,
2745516,000004F9,false,Rx,1,8,E0,FF,FF,FF,FF,FF,FF,FF,
2745750,000004FE,false,Rx,1,8,69,23,00,03,CF,00,48,A8,
2745978,000001E6,false,Rx,0,8,D0,50,CE,02,00,00,00,00,
2746114,0000063D,false,Rx,1,8,00,80,00,00,00,00,00,00,
2746286,000001E7,false,Rx,0,8,00,00,22,03,20,01,00,00,
2746355,0000063E,false,Rx,1,8,FF,FF,FF,FF,FF,FF,FF,FF,
2746482,0000019B,false,Rx,0,8,2A,C4,1C,00,00,E4,00,00,
2746738,000001BB,false,Rx,0,8,68,BE,CE,02,00,00,00,0A,
2746802,0000063F,false,Rx,1,8,00,10,00,C4,FF,00,00,00,
2746969,0000019C,false,Rx,0,8,40,20,00,00,00,00,0B,09,
2747225,000001BC,false,Rx,0,8,32,00,00,00,02,00,00,00,
2747294,00000640,false,Rx,1,8,FF,FF,FF,00,FF,FF,FF,00,
2747471,0000019D,false,Rx,0,8,00,10,00,01,00,00,00,00,
2747772,000001BD,false,Rx,0,8,00,00,00,00,00,00,00,00,
2747962,00000641,false,Rx,1,8,FF,FF,FF,FF,0F,FF,FF,FF,
2748016,0000019E,false,Rx,0,8,15,00,00,00,00,32,00,00,
2748270,00000646,false,Rx,1,8,00,00,00,80,01,00,00,00,
2749004,00000226,false,Rx,0,8,AC,F0,EB,FF,FA,20,09,42,
2749187,000002FF,false,Rx,0,8,83,B9,00,F0,3F,00,00,00,
2749609,00000227,false,Rx,0,8,02,C4,07,09,00,F1,6F,03,
2749915,000000FF,false,Rx,0,8,CB,10,00,00,00,00,02,00,
2750494,000002BF,false,Rx,0,8,FF,FF,FF,00,00,00,00,00,
2750689,00000316,false,Rx,0,8,A5,68,F7,A4,0F,80,0A,00,
2750741,0000047F,false,Rx,0,8,FF,FF,FF,FF,FF,FF,FF,FF,
2750783,00000317,false,Rx,0,8,00,00,05,00,00,00,00,00,
2750891,00000394,false,Rx,0,8,2A,22,1A,49,00,00,00,00,
2751132,000003C3,false,Rx,0,8,45,10,31,30,36,00,00,00,
2751402,00000472,false,Rx,0,8,5C,EC,00,40,08,41,00,45,
2751598,000003E0,false,Rx,0,8,76,C0,01,00,54,03,00,00,
2751873,00000473,false,Rx,0,8,5F,24,00,25,00,00,00,78,
2752084,000003E5,false,Rx,0,8,96,00,01,00,00,00,00,00,
2752324,00000474,false,Rx,0,8,53,98,00,00,00,00,00,10,
2752607,000003E6,false,Rx,0,8,A1,40,00,00,00,00,00,00,
2752896,0000041A,false,Rx,0,8,CC,10,12,00,50,01,00,00,
2753337,0000041B,false,Rx,0,8,BE,70,00,00,00,00,00,00,
2753814,0000041C,false,Rx,0,8,84,D0,E8,00,00,00,00,00,
2754296,00000422,false,Rx,0,8,FA,20,01,00,00,00,04,00,
2754533,0000011B,false,Rx,0,8,E1,1B,22,05,80,08,A8,02,
2754757,0000012B,false,Rx,0,8,A6,E1,22,06,00,00,08,00,
2755011,0000011C,false,Rx,0,8,00,05,20,00,22,00,01,01,
2755612,0000012C,false,Rx,0,8,00,00,01,00,00,64,00,00,
2755723,00000445,false,Rx,0,8,08,60,00,00,00,00,00,18,
2756245,00000432,false,Rx,0,8,03,20,02,00,00,00,00,00,
2756568,00000653,false,Rx,0,8,0A,19,03,01,02,2A,00,00,
2756656,00000435,false,Rx,0,8,51,70,00,40,00,00,00,00,
2756742,00000442,false,Rx,0,8,CE,20,11,81,00,00,00,00,
2757238,0000033B,false,Rx,0,8,8A,FF,1D,00,00,00,00,00,
2757548,00000444,false,Rx,0,8,C5,C0,20,50,55,50,00,00,
2757712,0000033C,false,Rx,0,8,00,00,00,00,F0,00,00,00,
2757764,00000464,false,Rx,0,8,6C,30,F0,FF,38,7F,05,00,
2758221,0000033D,false,Rx,0,8,00,00,00,00,00,00,00,00,
2758661,0000033E,false,Rx,0,8,00,00,00,00,00,00,00,00,
2761749,000000A1,false,Rx,0,8,4C,81,02,8A,D4,EC,A2,00,
2761863,000000A2,false,Rx,0,8,00,00,00,00,00,00,00,00,
2762185,000000A3,false,Rx,0,8,00,40,01,00,00,00,00,00,
2765136,00000419,false,Rx,0,8,95,60,0C,D6,B1,7A,84,00,
2771816,00000091,false,Rx,0,8,1B,91,E7,03,00,00,00,00,
2771916,00000092,false,Rx,0,8,14,00,00,00,40,01,00,00,
2772328,00000093,false,Rx,0,8,00,00,00,00,00,00,00,00,
2772406,00000094,false,Rx,0,8,00,00,00,00,00,00,00,00,
2772749,00000146,false,Rx,0,8,A6,A0,83,10,04,05,00,00,
2773095,00000147,false,Rx,0,8,01,04,7D,00,40,2D,03,00,
2773190,00000148,false,Rx,0,8,00,00,42,00,00,7A,40,05,
2773863,00000149,false,Rx,0,8,00,38,00,0C,00,00,00,00,
2774529,000001B1,false,Rx,0,8,52,75,83,00,72,00,00,00,
2774839,000001B2,false,Rx,0,8,23,00,04,0D,10,01,50,0F,
2774894,000001B3,false,Rx,0,8,10,2E,33,00,60,7F,71,7C,
2774944,000001B4,false,Rx,0,8,66,7A,10,00,00,41,00,00,
2775216,0000036F,false,Rx,0,8,FE,01,01,00,00,00,00,00,
2775319,0000037F,false,Rx,0,8,5D,E0,52,24,41,02,00,00,
2780340,000002D6,false,Rx,0,8,A7,F9,F4,00,00,00,00,00,
2780515,000002D7,false,Rx,0,8,00,00,00,00,03,00,00,00,
2780801,000002D8,false,Rx,0,8,00,00,00,00,00,00,38,44,
2781038,000002EB,false,Rx,0,8,99,20,F4,09,08,01,00,02,
2781249,00000061,false,Rx,0,8,DB,08,04,00,00,00,00,00,
2781752,000002D9,false,Rx,0,8,00,00,00,00,00,00,00,00,
2781823,00000062,false,Rx,0,8,02,02,00,02,40,FF,00,FF,
2781981,000002EC,false,Rx,0,8,00,00,00,00,00,00,00,00,
2782398,00000063,false,Rx,0,8,00,00,05,00,00,08,FD,00,
2782711,000002ED,false,Rx,0,8,00,00,00,00,00,00,00,00,
2782821,00000064,false,Rx,0,8,00,00,00,04,FF,FA,00,00,
2782976,000002EE,false,Rx,0,8,00,00,00,00,00,00,00,00,
2783332,0000010B,false,Rx,0,8,26,0C,21,00,00,00,00,05,
2783487,0000010C,false,Rx,0,8,FF,F9,E7,1F,43,48,44,44,
2783707,0000010D,false,Rx,0,8,EF,02,00,00,00,00,01,35,
2783962,0000010E,false,Rx,0,8,00,00,0A,00,00,C0,AB,57,
2784999,00000396,false,Rx,0,8,53,F3,F4,0F,08,02,00,02,
2785288,00000397,false,Rx,0,8,04,00,00,00,00,00,00,00,
2785625,00000398,false,Rx,0,8,00,00,00,00,00,00,00,00,
2787755,00000121,false,Rx,0,8,71,C4,22,00,00,00,00,05,
2787915,00000122,false,Rx,0,8,FF,D9,67,1F,43,44,43,43,
2788177,00000123,false,Rx,0,8,F0,02,00,00,00,00,01,35,
2788672,00000124,false,Rx,0,8,00,00,0A,00,00,00,20,40,
2789079,00000036,false,Rx,0,8,8D,63,22,51,00,00,25,05,
2789706,00000037,false,Rx,0,8,05,00,00,10,00,40,00,00,
2789816,00000038,false,Rx,0,8,04,00,00,00,60,39,96,D4,
2789870,00000039,false,Rx,0,8,00,00,00,00,00,00,00,00,
2790315,000003B6,false,Rx,0,8,FD,82,F4,00,00,00,00,44,
2790970,000003B7,false,Rx,0,8,44,00,00,00,00,00,00,00,
2791093,000003B8,false,Rx,0,8,EB,02,00,00,00,00,69,0E,
2791141,000003B9,false,Rx,0,8,00,00,00,00,00,00,00,00,
2794896,000001FB,false,Rx,0,8,24,87,EA,00,00,00,00,00,
2794985,00000405,false,Rx,0,8,14,C0,00,00,00,01,00,00,
2795319,000001FC,false,Rx,0,8,00,00,00,00,00,00,00,00,
2795423,00000410,false,Rx,0,8,D5,80,54,3C,B4,6A,FF,FF,
2795844,000001FD,false,Rx,0,8,00,1A,03,00,00,00,00,00,
2796180,00000411,false,Rx,0,8,BD,71,50,50,00,00,44,05,
2796703,000001FE,false,Rx,0,8,00,00,00,00,00,00,00,00,
2796855,0000019B,false,Rx,0,8,49,5F,21,00,00,E4,00,00,
2796910,00000412,false,Rx,0,8,CC,E0,00,00,00,00,00,00,
2796970,0000019C,false,Rx,0,8,40,20,00,00,00,00,0B,09,
2797202,00000413,false,Rx,0,8,F5,10,00,41,00,00,00,00,
2797383,0000019D,false,Rx,0,8,00,10,00,01,00,00,00,00,
2797747,00000414,false,Rx,0,8,87,A0,00,00,28,00,00,00,
2797893,0000019E,false,Rx,0,8,15,00,00,00,00,32,00,00,
2798223,00000416,false,Rx,0,8,55,00,00,00,00,00,00,00,
2798594,00000417,false,Rx,0,8,BF,00,00,00,00,01,00,00,
2799291,00000418,false,Rx,0,8,68,E0,00,00,14,0C,00,00,
2800443,00000419,false,Rx,0,8,E3,70,0B,D6,B1,7A,84,00,
2804476,000001A1,false,Rx,0,8,02,33,93,FE,F7,7F,64,00,
2804571,0000011B,false,Rx,0,8,17,33,27,05,80,08,A8,02,
2804719,0000012B,false,Rx,0,8,50,C9,27,06,00,00,08,00,
2805012,0000011C,false,Rx,0,8,00,05,20,00,22,00,01,01,
2805447,0000012C,false,Rx,0,8,00,00,01,00,00,64,00,00,
2805516,000001A2,false,Rx,0,8,00,00,00,00,00,08,00,00,
2805749,000001A3,false,Rx,0,8,FF,F3,3F,00,00,00,00,00,
2806063,000001A4,false,Rx,0,8,FE,07,00,00,00,00,00,00,
2806419,00000111,false,Rx,0,8,7E,4A,CE,01,00,00,00,00,
2806529,00000112,false,Rx,0,8,00,00,00,00,00,00,00,00,
2807059,00000113,false,Rx,0,8,00,00,00,00,00,00,00,00,
2807151,00000114,false,Rx,0,8,00,00,00,00,00,00,00,00,
2810255,0000030B,false,Rx,0,8,40,E1,1D,00,04,00,00,00,
2810377,0000030C,false,Rx,0,8,00,00,0C,00,2C,00,A0,0F,
2810466,0000030D,false,Rx,0,8,00,00,00,00,42,00,00,00,
2810735,0000030E,false,Rx,0,8,00,00,28,05,21,00,00,0A,
2811844,000000A1,false,Rx,0,8,43,6A,07,8A,D4,EC,A2,00,
2811927,000000A2,false,Rx,0,8,00,00,00,00,00,00,00,00,
2812074,000000A3,false,Rx,0,8,00,40,01,00,00,00,00,00,
2814233,00000161,false,Rx,0,8,87,7C,94,03,00,00,00,02,
2814408,00000162,false,Rx,0,8,FF,FC,01,00,00,00,00,00,
2815484,000004E8,false,Rx,1,8,FF,FF,FF,29,FF,FF,FF,00,
2824921,000001E1,false,Rx,0,8,F2,C6,D5,02,00,00,00,00,
2825025,000001E2,false,Rx,0,8,00,00,00,00,00,00,00,00,
2825358,00000487,false,Rx,1,8,00,00,00,00,00,00,00,00,
2825725,00000642,false,Rx,1,8,FF,FF,FF,FF,FF,FF,00,00,
2826179,00000645,false,Rx,1,8,7F,86,07,39,EF,3B,56,00,
2827352,000001AB,false,Rx,0,8,26,52,93,40,70,90,00,00,
2827886,000001AC,false,Rx,0,8,00,28,00,00,00,00,00,00,
2830341,00000563,false,Rx,1,8,65,02,00,00,00,00,FF,FF,
2831400,00000061,false,Rx,0,8,D6,CE,09,00,00,00,00,00,
2831498,00000062,false,Rx,0,8,02,02,00,02,40,FF,00,FF,
2831775,00000063,false,Rx,0,8,00,00,05,00,00,08,FD,00,
2831950,00000064,false,Rx,0,8,00,00,00,04,FF,FA,00,00,
2832363,0000010B,false,Rx,0,8,D5,92,26,00,00,00,00,05,
2832711,0000010C,false,Rx,0,8,FF,F9,E7,1F,43,48,44,44,
2833129,0000010D,false,Rx,0,8,EF,02,00,00,00,00,01,35,
2833184,0000010E,false,Rx,0,8,00,00,0A,00,00,C0,AB,57,
2837893,00000121,false,Rx,0,8,0E,E8,27,00,00,00,00,05,
2837988,00000122,false,Rx,0,8,FF,D9,67,1F,43,44,43,43,
2838365,00000123,false,Rx,0,8,F0,02,00,00,00,00,01,35,
2838438,00000124,false,Rx,0,8,00,00,0A,00,00,00,20,40,
2839108,00000036,false,Rx,0,8,F2,4F,27,51,00,00,25,05,
2839282,00000037,false,Rx,0,8,05,00,00,10,00,40,00,00,
2839554,00000038,false,Rx,0,8,04,00,00,00,60,39,96,D4,
2839875,00000039,false,Rx,0,8,00,00,00,00,00,00,00,00,
2840643,00000419,false,Rx,0,8,E3,70,0B,D6,B1,7A,84,00,
2841440,00000236,false,Rx,0,8,E2,19,EA,00,30,63,34,6C,
2841537,00000237,false,Rx,0,8,00,05,94,00,00,5B,1D,00,
2841586,00000238,false,Rx,0,8,00,00,0C,00,00,00,00,00,
2841723,00000239,false,Rx,0,8,00,00,00,00,01,00,00,00,
2842238,00000151,false,Rx,0,8,E8,28,EA,A0,C8,00,28,15,
2842474,000001F6,false,Rx,0,8,49,D3,EA,00,00,00,00,0D,
2842722,00000152,false,Rx,0,8,12,14,13,00,24,00,00,00,
2842957,000001F7,false,Rx,0,8,1F,00,DC,00,00,00,00,00,
2843236,00000153,false,Rx,0,8,00,00,00,00,00,00,00,00,
2843457,000001F8,false,Rx,0,8,00,69,00,64,00,00,00,00,
2843712,00000154,false,Rx,0,8,00,00,00,00,00,00,00,00,
2843941,000001F9,false,Rx,0,8,19,00,A0,C8,14,00,19,00,
2844218,000002FB,false,Rx,0,8,68,0D,EA,04,0C,15,C3,C3,
2844425,0000025B,false,Rx,0,8,C8,3E,EA,40,40,20,00,00,
2844655,000002FC,false,Rx,0,8,0A,00,12,15,00,00,87,96,
2844897,0000025C,false,Rx,0,8,00,00,1F,00,BD,68,15,00,
2845146,000002FD,false,Rx,0,8,00,00,00,00,00,1C,10,EA,
2845392,0000025D,false,Rx,0,8,00,C8,00,00,00,80,C0,70,
2845635,000002FE,false,Rx,0,8,00,00,72,01,00,28,00,00,
2845883,0000025E,false,Rx,0,8,49,07,0E,07,00,00,00,00,
2846113,0000019B,false,Rx,0,8,BA,C1,26,00,00,E4,00,00,
2846361,00000326,false,Rx,0,8,51,6A,EA,00,00,00,00,00,
2846591,0000019C,false,Rx,0,8,40,20,00,00,00,00,0B,09,
2846864,00000327,false,Rx,0,8,00,00,00,00,01,00,00,00,
2847090,0000019D,false,Rx,0,8,00,10,00,01,00,00,00,00,
2847443,00000328,false,Rx,0,8,DC,00,19,00,00,69,00,00,
2847583,0000019E,false,Rx,0,8,15,00,00,00,00,32,00,00,
2847831,00000329,false,Rx,0,8,A0,64,00,00,00,00,00,00,
2848269,000003AA,false,Rx,0,8,FF,00,D0,00,54,00,00,00,
2848606,00000331,false,Rx,0,8,A1,4B,EA,F1,C8,A0,2C,97,
2848900,00000332,false,Rx,0,8,44,07,B4,00,00,00,00,00,
2848972,00000333,false,Rx,0,8,00,00,00,1C,0C,40,20,A0,
2849263,00000334,false,Rx,0,8,C8,00,00,00,5C,70,B7,8F,
2851390,00000495,false,Rx,0,8,49,00,00,00,00,00,00,00,
2854470,0000011B,false,Rx,0,8,DF,CA,2C,05,80,08,A8,02,
2854579,0000012B,false,Rx,0,8,98,30,2C,06,00,00,08,00,
2854860,0000011C,false,Rx,0,8,00,05,20,00,22,00,01,01,
2855063,0000012C,false,Rx,0,8,00,00,01,00,00,64,00,00,
2855582,000004E8,false,Rx,1,8,FF,FF,FF,29,FF,FF,FF,00,
2857328,00000356,false,Rx,0,8,6D,51,0F,00,00,00,00,00,
2857479,00000357,false,Rx,0,8,00,00,00,00,00,4B,4D,48,
2857746,00000358,false,Rx,0,8,35,41,45,4D,52,37,33,4F,
2857989,00000359,false,Rx,0,8,51,4F,34,52,4A,35,33,00,
2861610,000000A1,false,Rx,0,8,7F,9B,0C,8A,D4,EC,A2,00,
2861849,000000A2,false,Rx,0,8,00,00,00,00,00,00,00,00,
2862110,00000448,false,Rx,0,8,7F,00,00,00,00,00,00,00,
2862318,000000A3,false,Rx,0,8,00,40,01,00,00,00,00,00,
2865120,00000419,false,Rx,0,8,BD,80,0B,D6,AD,7A,84,00,
2865307,000004A3,false,Rx,1,8,80,00,48,0B,3E,00,00,00,
2865486,000004A4,false,Rx,1,8,FF,FF,FF,00,00,00,00,00,
2871740,00000091,false,Rx,0,8,BD,F4,E8,03,00,00,00,00,
2871863,00000092,false,Rx,0,8,15,00,00,00,50,01,00,00,
2872155,00000093,false,Rx,0,8,00,00,00,00,00,00,00,00,
2872393,00000094,false,Rx,0,8,00,00,00,00,00,00,00,00,
2872616,00000146,false,Rx,0,8,D3,09,88,10,04,05,00,00,
2872869,00000147,false,Rx,0,8,01,04,7D,00,40,21,03,00,
2873152,00000148,false,Rx,0,8,00,00,42,00,00,7A,40,05,
2873378,00000149,false,Rx,0,8,00,38,00,0C,00,00,00,00,
2873602,000001B1,false,Rx,0,8,CC,45,88,00,72,00,00,00,
2873863,000001B2,false,Rx,0,8,23,00,04,0D,10,01,50,0F,
2874129,000001B3,false,Rx,0,8,10,2D,33,00,60,7F,71,7C,
2874384,000001B4,false,Rx,0,8,66,7A,10,00,00,41,00,00,
2874964,0000036F,false,Rx,0,8,47,11,01,00,00,00,00,00,
2875288,0000037F,false,Rx,0,8,4D,00,52,24,41,02,00,00,
2879868,000002AB,false,Rx,0,8,C9,7B,EB,0C,0C,00,00,00,
2879960,000002AC,false,Rx,0,8,00,FF,FF,00,00,40,00,50,
2880302,000002AD,false,Rx,0,8,00,01,00,40,FF,FF,FF,0F,
2880531,000002AE,false,Rx,0,8,01,00,FF,3F,01,01,00,00,
2880744,000002B6,false,Rx,0,8,FB,C8,EB,01,00,00,00,40,
2880992,000002B7,false,Rx,0,8,93,01,C1,08,00,04,00,00,
2881236,00000061,false,Rx,0,8,25,50,0E,00,00,00,00,00,
2881470,000002B8,false,Rx,0,8,B2,61,11,00,00,00,00,00,
2881784,00000062,false,Rx,0,8,02,02,00,02,40,FF,00,FF,
2881993,000002B9,false,Rx,0,8,0A,00,00,00,00,00,00,00,
2882214,00000063,false,Rx,0,8,00,00,05,00,00,08,FD,00,
2882443,000002C1,false,Rx,0,8,48,27,F6,21,00,41,00,A1,
2882689,00000064,false,Rx,0,8,00,00,00,04,FF,FA,00,00,
2882938,000002C2,false,Rx,0,8,40,00,00,00,00,00,00,00,
2883176,0000010B,false,Rx,0,8,D8,54,2B,00,00,00,00,05,
2883422,000002C3,false,Rx,0,8,00,00,00,00,00,00,00,00,
208794,0000010C,false,Rx,0,8,FF,F9,E7,1F,43,48,44,44,
209219,000002C4,false,Rx,0,8,00,00,00,00,00,00,00,00,
209286,0000010D,false,Rx,0,8,EF,02,00,00,00,00,01,35,
209483,00000251,false,Rx,0,8,78,54,EA,00,00,00,00,00,
209872,0000010E,false,Rx,0,8,00,00,0A,00,00,C0,AB,57,
210237,00000252,false,Rx,0,8,00,00,00,00,03,00,00,00,
210338,000002E1,false,Rx,0,8,EA,5E,EB,00,00,00,00,40,
210381,00000253,false,Rx,0,8,00,00,00,52,52,00,80,46,
210607,000002E2,false,Rx,0,8,FD,00,00,00,00,14,00,04,
210903,00000380,false,Rx,0,8,A0,99,01,0C,0C,0C,0C,01,
211180,000001F1,false,Rx,0,8,AC,79,36,01,00,00,28,00,
211351,000002E3,false,Rx,0,8,00,00,00,00,00,00,72,01,
211564,000001F2,false,Rx,0,8,00,00,00,00,00,00,00,00,
211809,000002E4,false,Rx,0,8,02,00,00,00,00,00,00,00,
212059,00000382,false,Rx,0,8,36,4D,02,00,00,05,09,00,
212305,00000383,false,Rx,0,8,89,14,01,10,01,00,00,00,
212559,00000384,false,Rx,0,8,D8,3D,02,01,00,FF,00,22,
212795,00000121,false,Rx,0,8,B6,E9,2C,00,00,00,00,05,
213038,000003B0,false,Rx,0,8,72,37,FF,C7,00,00,03,C0,
213267,00000122,false,Rx,0,8,FF,D9,67,1F,43,44,43,43,
213504,000003B1,false,Rx,0,8,9B,3C,FF,40,00,00,20,00,
213774,00000123,false,Rx,0,8,F0,02,00,00,00,00,01,35,
213995,00000036,false,Rx,0,8,4A,4E,2C,51,00,00,25,05,
214230,00000124,false,Rx,0,8,00,00,0A,00,00,00,20,40,
214486,00000037,false,Rx,0,8,05,00,00,10,00,40,00,00,
214788,00000256,false,Rx,0,8,AB,DB,EA,15,00,00,30,01,
214980,00000038,false,Rx,0,8,04,00,00,00,60,39,96,D4,
215200,00000257,false,Rx,0,8,00,8C,40,1E,84,07,00,8C,
215576,00000039,false,Rx,0,8,00,00,00,00,00,00,00,00,
215940,00000258,false,Rx,0,8,01,24,1D,00,10,15,00,1C,
215996,000002E6,false,Rx,0,8,4A,07,EA,01,00,00,00,15,
216185,00000259,false,Rx,0,8,5E,05,8C,3C,2C,02,00,00,
216717,000002E7,false,Rx,0,8,0A,00,00,00,00,00,00,00,
216793,000002E8,false,Rx,0,8,00,00,00,00,00,00,00,00,
216961,000002E9,false,Rx,0,8,00,00,00,00,00,00,00,00,
219900,000003B2,false,Rx,0,8,36,15,FF,02,29,2F,34,00,
220673,000004E8,false,Rx,1,8,FF,FF,FF,29,FF,FF,FF,00,
220732,000001E6,false,Rx,0,8,C0,0A,D1,02,00,00,00,00,
220916,000001BB,false,Rx,0,8,0B,D3,D1,02,00,00,00,0A,
221406,0000019B,false,Rx,0,8,B7,07,2B,00,00,E4,00,00,
221635,000001BC,false,Rx,0,8,32,00,00,00,02,00,00,00,
221888,0000019C,false,Rx,0,8,40,20,00,00,00,00,0B,09,
222115,000001BD,false,Rx,0,8,00,00,00,00,00,00,00,00,
222536,0000019D,false,Rx,0,8,00,10,00,01,00,00,00,00,
222629,000001E7,false,Rx,0,8,00,00,22,03,20,01,00,00,
222898,0000019E,false,Rx,0,8,15,00,00,00,00,32,00,00,
223098,00000427,false,Rx,0,8,1D,86,FF,00,80,0A,00,00,
224565,0000042A,false,Rx,0,8,CF,74,01,04,00,10,00,00,
229323,000001A1,false,Rx,0,8,BA,32,98,FE,F7,7F,64,00,
229497,0000011B,false,Rx,0,8,A6,D0,31,05,80,08,A8,02,
229731,0000012B,false,Rx,0,8,E1,2A,31,06,00,00,08,00,
229980,0000011C,false,Rx,0,8,00,05,20,00,22,00,01,01,
230218,0000012C,false,Rx,0,8,00,00,01,00,00,64,00,00,
230465,000001A2,false,Rx,0,8,00,00,00,00,00,08,00,00,
230713,00000419,false,Rx,0,8,BD,80,0B,D6,AD,7A,84,00,
230945,000001A3,false,Rx,0,8,FF,F3,3F,00,00,00,00,00,
231209,000001A4,false,Rx,0,8,FE,07,00,00,00,00,00,00,
236612,000000A1,false,Rx,0,8,1A,98,11,8A,D4,EC,A2,00,
236833,000000A2,false,Rx,0,8,00,00,00,00,00,00,00,00,
237089,000000A3,false,Rx,0,8,00,40,01,00,00,00,00,00,
239212,00000161,false,Rx,0,8,F4,45,99,03,00,00,00,02,
239411,00000162,false,Rx,0,8,FF,FC,01,00,00,00,00,00,
242910,00000561,false,Rx,0,8,63,04,00,00,00,00,FF,FF,
248236,00000565,false,Rx,0,8,66,02,00,00,00,00,FF,FF,
252092,00000561,false,Rx,0,8,61,01,00,00,00,00,FF,FF,
252262,000001AB,false,Rx,0,8,EE,AB,98,40,70,90,00,00,
252538,000001AC,false,Rx,0,8,00,28,00,00,00,00,00,00,
256218,00000061,false,Rx,0,8,ED,52,13,00,00,00,00,00,
256415,00000062,false,Rx,0,8,02,02,00,02,40,FF,00,FF,
256670,00000063,false,Rx,0,8,00,00,05,00,00,08,FD,00,
256927,00000064,false,Rx,0,8,00,00,00,04,FF,FA,00,00,
257175,0000010B,false,Rx,0,8,A5,91,30,00,00,00,00,05,
257439,0000010C,false,Rx,0,8,FF,F9,E7,1F,43,48,44,44,
257656,0000010D,false,Rx,0,8,EF,02,00,00,00,00,01,35,
257901,0000010E,false,Rx,0,8,00,00,0A,00,00,C0,AB,57,
259168,000003A1,false,Rx,0,8,00,62,A5,00,FF,FF,FF,FF,
259374,000003A2,false,Rx,0,8,00,00,00,00,00,00,00,00,
260277,000000C5,false,Rx,1,8,00,00,00,00,00,00,00,00,
260576,00000244,false,Rx,1,8,00,00,00,00,00,00,00,00,
260860,000003E4,false,Rx,1,8,FE,00,00,00,00,00,00,00,
261077,000004B4,false,Rx,1,8,01,00,0D,40,10,60,44,02,
261328,000004B5,false,Rx,1,8,08,00,F0,07,00,00,00,00,
261614,000004B7,false,Rx,1,8,08,00,F0,07,00,00,00,00,
261861,000004CA,false,Rx,1,8,00,00,00,00,00,00,00,00,
262171,000004CC,false,Rx,1,8,08,00,00,2A,00,00,03,00,
262442,000004CE,false,Rx,1,8,14,01,FF,FF,FF,FF,FF,FF,
262700,000004D7,false,Rx,1,8,23,01,00,00,00,00,00,00,
262972,00000121,false,Rx,0,8,7E,EB,31,00,00,00,00,05,
263061,000004D8,false,Rx,1,8,41,10,F6,F0,40,F2,1E,CC,
263177,00000122,false,Rx,0,8,FF,D9,67,1F,43,44,43,43,
263242,000004DD,false,Rx,1,8,00,00,FE,00,04,00,00,00,
263677,00000123,false,Rx,0,8,F0,02,00,00,00,00,01,35,
263756,000004DF,false,Rx,1,8,00,00,08,00,00,00,00,00,
264144,00000036,false,Rx,0,8,82,4C,31,51,00,00,25,05,
264227,000004E7,false,Rx,1,8,00,30,00,00,00,00,69,00,
264363,00000124,false,Rx,0,8,00,00,0A,00,00,00,20,40,
264646,00000037,false,Rx,0,8,05,00,00,10,00,40,00,00,
264972,000004E8,false,Rx,1,8,FF,FF,FF,29,FF,FF,FF,00,
265405,00000038,false,Rx,0,8,04,00,00,00,60,39,96,D4,
266303,000004E9,false,Rx,1,8,00,00,00,00,00,00,00,00,
266658,00000039,false,Rx,0,8,00,00,00,00,00,00,00,00,
266759,000004EA,false,Rx,1,8,00,00,00,00,00,00,00,00,
266805,000004EB,false,Rx,1,8,04,68,2A,0C,80,00,00,00,
266869,00000401,false,Rx,0,8,81,B0,10,00,00,01,00,00,
266923,000004EC,false,Rx,1,8,FF,FF,FF,FF,FF,FF,FF,0F,
267008,000004ED,false,Rx,1,8,FF,FF,FF,FF,FF,FF,FF,1F,
267393,000004EE,false,Rx,1,8,FF,FF,00,00,00,00,00,00,
267908,00000475,false,Rx,0,8,12,00,00,00,00,00,00,00,
267984,000004EF,false,Rx,1,8,60,00,60,00,29,14,00,00,
268139,0000063D,false,Rx,1,8,00,80,00,00,00,00,00,00,
268417,00000496,false,Rx,0,8,12,00,00,00,00,00,00,00,
268645,0000063E,false,Rx,1,8,FF,FF,FF,FF,FF,FF,FF,FF,
269344,0000063F,false,Rx,1,8,00,10,00,C4,FF,00,00,00,
269433,00000640,false,Rx,1,8,FF,FF,FF,00,FF,FF,FF,00,
269989,00000641,false,Rx,1,8,FF,FF,FF,FF,0F,FF,FF,FF,
270118,00000646,false,Rx,1,8,00,00,00,80,01,00,00,00,
270691,00000419,false,Rx,0,8,BD,80,0B,D6,AD,7A,84,00,
271301,0000019B,false,Rx,0,8,CA,C2,30,00,00,E4,00,00,
271424,0000019C,false,Rx,0,8,40,20,00,00,00,00,0B,09,
271659,0000019D,false,Rx,0,8,00,10,00,01,00,00,00,00,
271897,0000019E,false,Rx,0,8,15,00,00,00,00,32,00,00,
273771,00000226,false,Rx,0,8,17,30,ED,FF,FA,20,09,42,
273953,00000316,false,Rx,0,8,BF,11,F8,A4,0F,80,0A,00,
274183,00000227,false,Rx,0,8,02,C4,07,09,00,F1,6F,03,
274427,000002BF,false,Rx,0,8,FF,FF,FF,00,00,00,00,00,
274664,000000FF,false,Rx,0,8,CB,10,00,00,00,00,02,00,
275025,00000317,false,Rx,0,8,00,00,05,00,00,00,00,00,
275166,00000394,false,Rx,0,8,2A,22,1A,49,00,00,00,00,
275442,000003CB,false,Rx,0,8,36,14,00,F4,00,00,00,00,
275688,00000472,false,Rx,0,8,5C,EC,00,40,08,41,00,45,
275878,000003C3,false,Rx,0,8,45,10,31,30,36,00,00,00,
276105,00000473,false,Rx,0,8,5F,24,00,25,00,00,00,78,
276367,000003CC,false,Rx,0,8,36,31,34,30,33,34,31,00,
276756,00000474,false,Rx,0,8,53,98,00,00,00,00,00,10,
277096,000003E0,false,Rx,0,8,76,C0,01,00,54,03,00,00,
277388,0000047F,false,Rx,0,8,FF,FF,FF,FF,FF,FF,FF,FF,
277470,000003E5,false,Rx,0,8,96,00,01,00,00,00,00,00,
277764,0000041A,false,Rx,0,8,CC,10,12,00,50,01,00,00,
278019,000003E6,false,Rx,0,8,A1,40,00,00,00,00,00,00,
278088,0000041B,false,Rx,0,8,BE,70,00,00,00,00,00,00,
278437,00000653,false,Rx,0,8,0A,19,03,01,02,2A,00,00,
278828,0000041C,false,Rx,0,8,84,D0,E8,00,00,00,00,00,
278895,000002FF,false,Rx,0,8,83,B9,00,F0,3F,00,00,00,
279062,00000422,false,Rx,0,8,FA,20,01,00,00,00,04,00,
279445,00000445,false,Rx,0,8,08,60,00,00,00,00,00,18,
279762,0000011B,false,Rx,0,8,39,B8,36,05,80,08,A8,02,
280045,0000012B,false,Rx,0,8,7E,42,36,06,00,00,08,00,
280115,0000011C,false,Rx,0,8,00,05,20,00,22,00,01,01,
280507,0000012C,false,Rx,0,8,00,00,01,00,00,64,00,00,
280574,00000432,false,Rx,0,8,03,20,02,00,00,00,00,00,
280812,00000435,false,Rx,0,8,51,70,00,40,00,00,00,00,
281043,00000442,false,Rx,0,8,CE,20,11,81,00,00,00,00,
281491,00000444,false,Rx,0,8,C5,C0,20,50,55,50,00,00,
281930,0000033B,false,Rx,0,8,06,4D,1F,00,00,00,00,00,
282172,00000464,false,Rx,0,8,6C,30,F0,FF,38,7F,05,00,
282473,0000033C,false,Rx,0,8,00,00,00,00,F0,00,00,00,
282972,0000033D,false,Rx,0,8,00,00,00,00,00,00,00,00,
283026,0000033E,false,Rx,0,8,00,00,00,00,00,00,00,00,
286826,000000A1,false,Rx,0,8,13,1D,16,8A,D4,EC,A2,00,
286936,000000A2,false,Rx,0,8,00,00,00,00,00,00,00,00,
287298,000000A3,false,Rx,0,8,00,40,01,00,00,00,00,00,
296823,00000091,false,Rx,0,8,92,9E,E9,03,00,00,00,00,
296925,00000092,false,Rx,0,8,16,00,00,00,60,01,00,00,
297294,00000093,false,Rx,0,8,00,00,00,00,00,00,00,00,
297387,00000094,false,Rx,0,8,00,00,00,00,00,00,00,00,
297744,00000146,false,Rx,0,8,E1,C8,8D,10,04,05,00,00,
297872,00000147,false,Rx,0,8,01,04,7D,00,40,12,03,00,
298111,00000148,false,Rx,0,8,00,00,42,00,00,7A,40,05,
298480,00000149,false,Rx,0,8,00,38,00,0C,00,00,00,00,
298848,000001B1,false,Rx,0,8,B3,69,8D,00,72,00,00,00,
299155,000001B2,false,Rx,0,8,23,00,04,0D,10,01,50,0F,
299436,000001B3,false,Rx,0,8,10,2D,33,00,60,7F,71,7C,
299540,000001B4,false,Rx,0,8,66,7A,10,00,00,41,00,00,
299926,000001E1,false,Rx,0,8,81,FF,D8,02,00,00,00,00,
299987,000001E2,false,Rx,0,8,00,00,00,00,00,00,00,00,
300170,0000036F,false,Rx,0,8,91,21,01,00,00,00,00,00,
301137,0000037F,false,Rx,0,8,F4,10,52,24,41,02,00,00,
305299,000002D6,false,Rx,0,8,E1,A0,F5,00,00,00,00,00,
305395,000002D7,false,Rx,0,8,00,00,00,00,03,00,00,00,
305776,000002D8,false,Rx,0,8,00,00,00,00,00,00,38,44,
305916,000002EB,false,Rx,0,8,37,30,F5,09,08,02,00,02,
306429,000002D9,false,Rx,0,8,00,00,00,00,00,00,00,00,
306484,00000061,false,Rx,0,8,55,53,18,00,00,00,00,00,
306626,000002EC,false,Rx,0,8,02,00,00,00,00,00,00,00,
306931,00000062,false,Rx,0,8,02,02,00,02,40,FF,00,FF,
307175,000002ED,false,Rx,0,8,00,00,00,00,00,00,00,00,
307365,00000063,false,Rx,0,8,00,00,05,00,00,08,FD,00,
307615,000002EE,false,Rx,0,8,00,00,00,00,00,00,00,00,
307929,00000064,false,Rx,0,8,00,00,00,04,FF,FA,00,00,
308353,0000010B,false,Rx,0,8,DA,BD,35,00,00,00,00,05,
308679,0000010C,false,Rx,0,8,FF,F9,E7,1F,43,48,44,44,
309134,0000010D,false,Rx,0,8,EF,02,00,00,00,00,01,35,
309197,0000010E,false,Rx,0,8,00,00,0A,00,00,C0,AB,57,
310078,00000396,false,Rx,0,8,6B,AA,F5,0F,08,01,00,02,
310242,00000397,false,Rx,0,8,04,00,00,00,00,00,00,00,
310506,00000398,false,Rx,0,8,00,00,00,00,00,00,00,00,
313422,00000121,false,Rx,0,8,8D,75,36,00,00,00,00,05,
313547,00000122,false,Rx,0,8,FF,D9,67,1F,43,44,43,43,
313635,00000123,false,Rx,0,8,F0,02,00,00,00,00,01,35,
313683,00000124,false,Rx,0,8,00,00,0A,00,00,00,20,40,
314345,00000036,false,Rx,0,8,71,D2,36,51,00,00,25,05,
314661,00000037,false,Rx,0,8,05,00,00,10,00,40,00,00,
314895,00000038,false,Rx,0,8,04,00,00,00,60,39,96,D4,
314952,00000039,false,Rx,0,8,00,00,00,00,00,00,00,00,
315284,000003B6,false,Rx,0,8,FF,AE,F5,00,00,00,00,44,
315638,000003B7,false,Rx,0,8,43,00,00,00,00,00,00,00,
316050,000003B8,false,Rx,0,8,EB,02,00,00,00,00,69,0E,
316102,000003B9,false,Rx,0,8,00,00,00,00,00,00,00,00,
319929,000001FB,false,Rx,0,8,91,40,EC,00,00,00,00,00,
320021,00000405,false,Rx,0,8,14,C0,00,00,00,01,00,00,
320397,000001FC,false,Rx,0,8,00,00,00,00,00,00,00,00,
320474,00000410,false,Rx,0,8,D5,80,54,3C,B4,6A,FF,FF,
320856,000001FD,false,Rx,0,8,00,1A,03,00,00,00,00,00,
320945,00000411,false,Rx,0,8,BD,71,50,50,00,00,44,05,
321283,000001FE,false,Rx,0,8,00,00,00,00,00,00,00,00,
321637,0000019B,false,Rx,0,8,B5,EE,35,00,00,E4,00,00,
322086,00000412,false,Rx,0,8,CC,E0,00,00,00,00,00,00,
322161,0000019C,false,Rx,0,8,40,20,00,00,00,00,0B,09,
322208,00000413,false,Rx,0,8,F5,10,00,41,00,00,00,00,
322627,0000019D,false,Rx,0,8,00,10,00,01,00,00,00,00,
322696,00000414,false,Rx,0,8,87,A0,00,00,28,00,00,00,
322885,0000019E,false,Rx,0,8,15,00,00,00,00,32,00,00,
323129,00000416,false,Rx,0,8,55,00,00,00,00,00,00,00,
323399,00000417,false,Rx,0,8,BF,00,00,00,00,01,00,00,
323664,00000418,false,Rx,0,8,68,E0,00,00,14,0C,00,00,
323917,00000419,false,Rx,0,8,BD,80,0B,D6,AD,7A,84,00,
329398,000001A1,false,Rx,0,8,C5,1E,9D,FE,F7,7F,64,00,
329538,0000011B,false,Rx,0,8,4A,81,3B,05,80,08,A8,02,
329807,0000012B,false,Rx,0,8,0D,7B,3B,06,00,00,08,00,
330328,0000011C,false,Rx,0,8,00,05,20,00,22,00,01,01,
330413,0000012C,false,Rx,0,8,00,00,01,00,00,64,00,00,
330503,000001A2,false,Rx,0,8,00,00,00,00,00,08,00,00,
331035,000001A3,false,Rx,0,8,FF,F3,3F,00,00,00,00,00,
331353,000001A4,false,Rx,0,8,FE,07,00,00,00,00,00,00,
331437,00000111,false,Rx,0,8,38,13,CF,01,00,00,00,00,
331691,00000112,false,Rx,0,8,00,00,00,00,00,00,00,00,
331804,00000113,false,Rx,0,8,00,00,00,00,00,00,00,00,
332060,00000114,false,Rx,0,8,00,00,00,00,00,00,00,00,
334987,0000030B,false,Rx,0,8,AF,10,1F,00,04,00,00,00,
335265,0000030C,false,Rx,0,8,00,00,0C,00,2C,00,A0,0F,
335507,0000030D,false,Rx,0,8,00,00,00,00,42,00,00,00,
335763,0000030E,false,Rx,0,8,00,00,28,05,21,00,00,1A,
336616,000000A1,false,Rx,0,8,25,5E,1B,8A,D4,EC,A2,00,
336858,000000A2,false,Rx,0,8,00,00,00,00,00,00,00,00,
337109,000000A3,false,Rx,0,8,00,40,01,00,00,00,00,00,
339405,00000161,false,Rx,0,8,6B,2D,9E,03,00,00,00,02,
339498,00000566,false,Rx,0,8,16,02,00,00,00,00,FF,FF,
339791,00000162,false,Rx,0,8,FF,FC,01,00,00,00,00,00,
345084,00000419,false,Rx,0,8,42,90,0A,D6,AD,7A,84,00,
350333,00000487,false,Rx,1,8,00,00,00,00,00,00,00,00,
350558,00000642,false,Rx,1,8,FF,FF,FF,FF,FF,FF,00,00,
352119,000001AB,false,Rx,0,8,18,83,9D,40,70,90,00,00,
352294,000001AC,false,Rx,0,8,00,28,00,00,00,00,00,00,
356227,00000061,false,Rx,0,8,2A,7F,1D,00,00,00,00,00,
356419,00000062,false,Rx,0,8,02,02,00,02,40,FF,00,FF,
356671,00000063,false,Rx,0,8,00,00,05,00,00,08,FD,00,
356936,00000064,false,Rx,0,8,00,00,00,04,FF,FA,00,00,
357171,0000010B,false,Rx,0,8,5B,C9,3A,00,00,00,00,05,
357446,0000010C,false,Rx,0,8,FF,F9,E7,1F,43,48,44,44,
357666,0000010D,false,Rx,0,8,EF,02,00,00,00,00,01,35,
357909,0000010E,false,Rx,0,8,00,00,0A,00,00,C0,AB,57,
360567,00000643,false,Rx,1,8,00,FC,FF,FF,FF,FF,03,00,
361374,000001F1,false,Rx,0,8,B6,00,39,01,00,00,28,00,
361441,000001F2,false,Rx,0,8,00,00,00,00,00,00,00,00,
363000,00000121,false,Rx,0,8,80,B3,3B,00,00,00,00,05,
363104,00000122,false,Rx,0,8,FF,D9,67,1F,43,44,43,43,
363147,00000123,false,Rx,0,8,F0,02,00,00,00,00,01,35,
363416,00000124,false,Rx,0,8,00,00,0A,00,00,00,20,40,
364010,00000036,false,Rx,0,8,7C,14,3B,51,00,00,25,05,
364246,00000037,false,Rx,0,8,05,00,00,10,00,40,00,00,
364478,00000038,false,Rx,0,8,04,00,00,00,60,39,96,D4,
364786,00000039,false,Rx,0,8,00,00,00,00,00,00,00,00,
366023,00000236,false,Rx,0,8,57,DE,EC,00,30,63,34,6C,
366246,00000237,false,Rx,0,8,00,05,94,00,00,5B,1D,00,
366494,00000238,false,Rx,0,8,00,00,0C,00,00,00,00,00,
366784,00000239,false,Rx,0,8,00,00,00,00,01,00,00,00,
367163,00000151,false,Rx,0,8,5D,EF,EC,A0,C8,00,28,15,
367413,00000152,false,Rx,0,8,12,14,13,00,24,00,00,00,
367648,000001F6,false,Rx,0,8,FC,14,EC,00,00,00,00,0D,
367915,00000153,false,Rx,0,8,00,00,00,00,00,00,00,00,
368146,000001F7,false,Rx,0,8,1F,00,DC,00,00,00,00,00,
368403,00000154,false,Rx,0,8,00,00,00,00,00,00,00,00,
368636,000001F8,false,Rx,0,8,00,69,00,64,00,00,00,00,
368918,000002FB,false,Rx,0,8,5F,2E,EC,04,0C,15,C3,C3,
369113,000001F9,false,Rx,0,8,19,00,A0,C8,14,00,19,00,
369348,000002FC,false,Rx,0,8,09,00,12,15,00,00,87,96,
369595,0000025B,false,Rx,0,8,12,64,EC,40,40,20,00,00,
369847,000002FD,false,Rx,0,8,00,00,00,00,00,1C,10,EA,
370081,0000025C,false,Rx,0,8,00,00,1F,00,BD,68,15,00,
370323,000002FE,false,Rx,0,8,00,00,72,01,00,28,00,00,
370558,0000025D,false,Rx,0,8,00,C8,00,00,00,80,C0,70,
370807,000001E6,false,Rx,0,8,36,22,D4,02,00,00,00,00,
371058,0000025E,false,Rx,0,8,40,07,0E,06,00,00,00,00,
371282,0000019B,false,Rx,0,8,34,9A,3A,00,00,E4,00,00,
371571,000001BB,false,Rx,0,8,04,38,D4,02,00,00,00,0A,
371758,0000019C,false,Rx,0,8,40,20,00,00,00,00,0B,09,
372018,000001BC,false,Rx,0,8,32,00,00,00,02,00,00,00,
372253,0000019D,false,Rx,0,8,00,10,00,01,00,00,00,00,
372532,000001BD,false,Rx,0,8,00,00,00,00,00,00,00,00,
372753,0000019E,false,Rx,0,8,15,00,00,00,00,32,00,00,
372983,000001E7,false,Rx,0,8,00,00,22,03,20,01,00,00,
373228,00000326,false,Rx,0,8,E4,AD,EC,00,00,00,00,00,
373484,000003AA,false,Rx,0,8,FF,00,D0,00,54,00,00,00,
373721,00000327,false,Rx,0,8,00,00,00,00,01,00,00,00,
373963,00000328,false,Rx,0,8,DC,00,19,00,00,69,00,00,
374223,00000329,false,Rx,0,8,A0,64,00,00,00,00,00,00,
374494,00000331,false,Rx,0,8,14,8C,EC,F1,C8,A0,2C,97,
374761,00000332,false,Rx,0,8,44,07,B4,00,00,00,00,00,
375010,00000333,false,Rx,0,8,00,00,00,1C,0C,40,20,A0,
375253,00000334,false,Rx,0,8,C8,00,00,00,5C,70,B7,8F,
376373,00000495,false,Rx,0,8,49,00,00,00,00,00,00,00,
379402,0000011B,false,Rx,0,8,B4,91,40,05,80,08,A8,02,
379576,0000012B,false,Rx,0,8,F3,6B,40,06,00,00,08,00,
379818,0000011C,false,Rx,0,8,00,05,20,00,22,00,01,01,
380075,0000012C,false,Rx,0,8,00,00,01,00,00,64,00,00,
382298,00000356,false,Rx,0,8,29,E1,10,00,00,00,00,00,
382489,00000357,false,Rx,0,8,00,00,00,00,00,4B,4D,48,
382741,00000358,false,Rx,0,8,35,41,45,4D,52,37,33,4F,
382983,00000359,false,Rx,0,8,51,4F,34,52,4A,35,33,00,
385040,00000419,false,Rx,0,8,42,90,0A,D6,AD,7A,84,00,
386620,000000A1,false,Rx,0,8,EC,6F,20,8A,D4,EC,A2,00,
386854,000000A2,false,Rx,0,8,00,00,00,00,00,00,00,00,
387089,000000A3,false,Rx,0,8,00,40,01,00,00,00,00,00,
387341,00000448,false,Rx,0,8,7F,00,00,00,00,00,00,00,
390389,000004A3,false,Rx,1,8,80,00,48,0B,3E,00,00,00,
390477,000004A4,false,Rx,1,8,FF,FF,FF,00,00,00,00,00,
396726,00000091,false,Rx,0,8,16,57,EA,03,00,00,00,00,
396865,00000092,false,Rx,0,8,14,00,00,00,40,01,00,00,
397134,00000093,false,Rx,0,8,00,00,00,00,00,00,00,00,
397378,00000094,false,Rx,0,8,00,00,00,00,00,00,00,00,
397593,00000146,false,Rx,0,8,D3,91,92,10,04,05,00,00,
397852,00000147,false,Rx,0,8,01,04,7D,00,40,06,03,00,
398094,00000148,false,Rx,0,8,00,00,42,00,00,7A,40,05,
398341,00000149,false,Rx,0,8,00,38,00,0C,00,00,00,00,
398583,000001B1,false,Rx,0,8,F7,D9,92,00,72,00,00,00,
398831,000001B2,false,Rx,0,8,23,00,04,0D,10,01,50,0F,
399070,000001B3,false,Rx,0,8,10,2D,33,00,60,7F,71,7C,
399500,000001B4,false,Rx,0,8,66,7A,10,00,00,41,00,00,
399980,0000036F,false,Rx,0,8,28,31,01,00,00,00,00,00,
400296,0000037F,false,Rx,0,8,22,20,52,24,41,02,00,00,
404817,000002AB,false,Rx,0,8,7C,BC,ED,0C,0C,00,00,00,
404911,0000034B,false,Rx,0,8,70,45,31,31,D8,0D,05,01,
405156,000002AC,false,Rx,0,8,00,FF,FF,00,00,40,00,50,
405364,0000034C,false,Rx,0,8,00,00,00,00,00,00,00,00,
405613,000002AD,false,Rx,0,8,00,01,00,40,FF,FF,FF,0F,
405863,0000034D,false,Rx,0,8,00,00,00,00,00,00,00,00,
406099,000002AE,false,Rx,0,8,01,00,FF,3F,01,01,00,00,
406401,00000061,false,Rx,0,8,C5,56,22,00,00,00,00,00,
406683,000002B6,false,Rx,0,8,4E,0F,ED,01,00,00,00,40,
406911,00000062,false,Rx,0,8,02,02,00,02,40,FF,00,FF,
407068,000002B7,false,Rx,0,8,93,01,C1,08,00,04,00,00,
407308,00000063,false,Rx,0,8,00,00,05,00,00,08,FD,00,
407548,000002B8,false,Rx,0,8,B2,61,11,00,00,00,00,00,
407804,00000064,false,Rx,0,8,00,00,00,04,FF,FA,00,00,
408033,000002B9,false,Rx,0,8,0A,00,00,00,00,00,00,00,
408312,0000010B,false,Rx,0,8,24,E5,3F,00,00,00,00,05,
408511,000002C1,false,Rx,0,8,0E,7E,F7,21,00,41,00,A1,
408752,0000010C,false,Rx,0,8,FF,F9,E7,1F,43,48,44,44,
408986,000002C2,false,Rx,0,8,40,00,00,00,00,00,00,00,
409258,0000010D,false,Rx,0,8,EF,02,00,00,00,00,01,35,
409474,00000251,false,Rx,0,8,72,E6,EC,00,00,00,00,00,
409712,0000010E,false,Rx,0,8,00,00,0A,00,00,C0,AB,57,
409957,00000252,false,Rx,0,8,00,00,00,00,03,00,00,00,
410211,000002C3,false,Rx,0,8,00,00,00,00,00,00,00,00,
410448,00000253,false,Rx,0,8,00,00,00,52,52,00,80,46,
410693,000002C4,false,Rx,0,8,00,00,00,00,00,00,00,00,
410940,0000034E,false,Rx,0,8,00,00,00,00,00,00,00,00,
411181,000002E1,false,Rx,0,8,5F,99,ED,00,00,00,00,40,
411434,00000380,false,Rx,0,8,A0,99,01,0C,0C,0C,0C,01,
411659,000002E2,false,Rx,0,8,FD,00,00,00,00,14,00,04,
411948,00000382,false,Rx,0,8,36,4D,02,00,00,05,09,00,
412224,000002E3,false,Rx,0,8,00,00,00,00,00,00,72,01,
412406,00000383,false,Rx,0,8,89,14,01,10,01,00,00,00,
412642,000002E4,false,Rx,0,8,02,00,00,00,00,00,00,00,
412922,00000121,false,Rx,0,8,21,CC,40,00,00,00,00,05,
413126,00000384,false,Rx,0,8,D8,3D,02,01,00,FF,00,22,
413358,00000122,false,Rx,0,8,FF,D9,67,1F,43,44,43,43,
413608,000003B0,false,Rx,0,8,72,37,FF,C7,00,00,03,C0,
413968,00000123,false,Rx,0,8,F0,02,00,00,00,00,01,35,
414319,00000036,false,Rx,0,8,DD,6B,40,51,00,00,25,05,
414375,00000124,false,Rx,0,8,00,00,0A,00,00,00,20,40,
414560,00000037,false,Rx,0,8,05,00,00,10,00,40,00,00,
415019,00000256,false,Rx,0,8,5C,F5,EC,15,00,00,10,01,
415376,00000038,false,Rx,0,8,04,00,00,00,60,39,96,D4,
415657,00000257,false,Rx,0,8,00,8C,40,1B,84,07,00,8C,
415717,00000039,false,Rx,0,8,00,00,00,00,00,00,00,00,
415987,00000258,false,Rx,0,8,01,26,1D,00,10,15,00,1C,
416123,000002E6,false,Rx,0,8,FF,C0,EC,01,00,00,00,15,
416234,00000259,false,Rx,0,8,55,05,8C,3C,2C,02,00,00,
416691,000002E7,false,Rx,0,8,0A,00,00,00,00,00,00,00,
416845,000003B1,false,Rx,0,8,9B,3C,FF,40,00,00,20,00,
416968,000002E8,false,Rx,0,8,00,00,00,00,00,00,00,00,
417290,000002E9,false,Rx,0,8,00,00,00,00,00,00,00,00,
419811,000003B2,false,Rx,0,8,36,15,FF,02,29,2F,34,00,
421312,0000019B,false,Rx,0,8,4B,B6,3F,00,00,E4,00,00,
421553,0000019C,false,Rx,0,8,40,20,00,00,00,00,0B,09,
421829,0000019D,false,Rx,0,8,00,10,00,01,00,00,00,00,
422064,0000019E,false,Rx,0,8,15,00,00,00,00,32,00,00,
422304,00000427,false,Rx,0,8,1D,86,FF,00,80,0A,00,00,
424672,0000042A,false,Rx,0,8,CF,74,01,04,00,10,00,00,
425113,00000419,false,Rx,0,8,42,90,0A,D6,AD,7A,84,00,
429528,000001A1,false,Rx,0,8,2A,37,A2,FE,F7,7F,64,00,
429618,0000011B,false,Rx,0,8,42,B9,45,05,80,08,A8,02,
429761,0000012B,false,Rx,0,8,05,43,45,06,00,00,08,00,
430068,0000011C,false,Rx,0,8,00,05,20,00,22,00,01,01,
430512,0000012C,false,Rx,0,8,00,00,01,00,00,64,00,00,
430580,000001A2,false,Rx,0,8,00,00,00,00,00,08,00,00,
430779,000001A3,false,Rx,0,8,FF,F3,3F,00,00,00,00,00,
431058,000001A4,false,Rx,0,8,FE,07,00,00,00,00,00,00,
435144,00000516,false,Rx,0,8,61,02,00,00,00,00,FF,FF,
436578,000000A1,false,Rx,0,8,E3,84,25,8A,D4,EC,A2,00,
436792,000000A2,false,Rx,0,8,00,00,00,00,00,00,00,00,
437037,000000A3,false,Rx,0,8,00,40,01,00,00,00,00,00,
439244,00000161,false,Rx,0,8,06,71,A3,03,00,00,00,02,
439431,00000162,false,Rx,0,8,FF,FC,01,00,00,00,00,00,
449940,000001E1,false,Rx,0,8,CC,17,DB,02,00,00,00,00,
450029,000001E2,false,Rx,0,8,00,00,00,00,00,00,00,00,
452058,000001AB,false,Rx,0,8,1C,9F,A2,40,70,90,00,00,
452247,000001AC,false,Rx,0,8,00,28,00,00,00,00,00,00,
456203,00000061,false,Rx,0,8,BA,7A,27,00,00,00,00,00,
456400,00000062,false,Rx,0,8,02,02,00,02,40,FF,00,FF,
456668,00000063,false,Rx,0,8,00,00,05,00,00,08,FD,00,
456936,00000064,false,Rx,0,8,00,00,00,04,FF,FA,00,00,
457173,0000010B,false,Rx,0,8,85,9A,44,00,00,00,00,05,
457455,0000010C,false,Rx,0,8,FF,F9,E7,1F,43,48,44,44,
457668,0000010D,false,Rx,0,8,EF,02,00,00,00,00,01,35,
457914,0000010E,false,Rx,0,8,00,00,0A,00,00,C0,AB,57,
458950,000003A1,false,Rx,0,8,4D,8A,A6,00,FF,FF,FF,FF,
459295,000003A2,false,Rx,0,8,00,00,00,00,00,00,00,00,
460414,000000C5,false,Rx,1,8,00,00,00,00,00,00,00,00,
460671,00000244,false,Rx,1,8,00,00,00,00,00,00,00,00,
460923,000004B4,false,Rx,1,8,01,00,0D,40,10,60,44,02,
461175,000004B5,false,Rx,1,8,08,00,F0,07,00,00,00,00,
461473,000004B7,false,Rx,1,8,08,00,F0,07,00,00,00,00,
461734,000004CA,false,Rx,1,8,00,00,00,00,00,00,00,00,
462015,000004CC,false,Rx,1,8,08,00,00,2A,00,00,03,00,
462294,000004CE,false,Rx,1,8,14,01,FF,FF,FF,FF,FF,FF,
462551,000004D7,false,Rx,1,8,23,01,00,00,00,00,00,00,
462783,000004D8,false,Rx,1,8,41,10,F6,F0,40,F2,1E,CC,
463079,00000121,false,Rx,0,8,5E,E0,45,00,00,00,00,05,
463157,000004DD,false,Rx,1,8,00,00,FE,00,04,00,00,00,
463284,00000122,false,Rx,0,8,FF,D9,67,1F,43,44,43,43,
463343,000004DF,false,Rx,1,8,00,00,08,00,00,00,00,00,
463785,00000123,false,Rx,0,8,F0,02,00,00,00,00,01,35,
463867,000004E7,false,Rx,1,8,00,30,00,00,00,00,69,00,
464268,00000036,false,Rx,0,8,A2,47,45,51,00,00,25,05,
464451,000004E8,false,Rx,1,8,FF,FF,FF,29,FF,FF,FF,00,
464506,00000124,false,Rx,0,8,00,00,0A,00,00,00,20,40,
464728,00000037,false,Rx,0,8,05,00,00,10,00,40,00,00,
464812,000004E9,false,Rx,1,8,00,00,00,00,00,00,00,00,
465132,00000475,false,Rx,0,8,12,00,00,00,00,00,00,00,
465717,000004EA,false,Rx,1,8,00,00,00,00,00,00,00,00,
466245,00000038,false,Rx,0,8,04,00,00,00,60,39,96,D4,
466566,00000496,false,Rx,0,8,12,00,00,00,00,00,00,00,
466615,00000039,false,Rx,0,8,00,00,00,00,00,00,00,00,
466724,000004EB,false,Rx,1,8,04,68,2A,0C,80,00,00,00,
466782,00000401,false,Rx,0,8,81,B0,10,00,00,01,00,00,
466829,000004EC,false,Rx,1,8,FF,FF,FF,FF,FF,FF,FF,0F,
466883,000004ED,false,Rx,1,8,FF,FF,FF,FF,FF,FF,FF,1F,
467237,000004EE,false,Rx,1,8,FF,FF,00,00,00,00,00,00,
467704,000004EF,false,Rx,1,8,60,00,60,00,29,14,00,00,
468187,0000063D,false,Rx,1,8,00,80,00,00,00,00,00,00,
468699,0000063E,false,Rx,1,8,FF,FF,FF,FF,FF,FF,FF,FF,
468963,0000063F,false,Rx,1,8,00,10,00,C4,FF,00,00,00,
469231,00000640,false,Rx,1,8,FF,FF,FF,00,FF,FF,FF,00,
469506,00000641,false,Rx,1,8,FF,FF,FF,FF,0F,FF,FF,FF,
469773,00000646,false,Rx,1,8,00,00,00,80,01,00,00,00,
471202,0000019B,false,Rx,0,8,EA,C9,44,00,00,E4,00,00,
471349,0000019C,false,Rx,0,8,40,20,00,00,00,00,0B,09,
471645,0000019D,false,Rx,0,8,00,10,00,01,00,00,00,00,
471863,0000019E,false,Rx,0,8,15,00,00,00,00,32,00,00,
473668,00000226,false,Rx,0,8,7E,70,EF,FF,FA,20,09,42,
473848,000002FF,false,Rx,0,8,83,B9,00,F0,3F,00,00,00,
474081,00000227,false,Rx,0,8,02,C4,07,09,00,F1,6F,03,
474324,000002BF,false,Rx,0,8,FF,FF,FF,00,00,00,00,00,
474566,000000FF,false,Rx,0,8,CB,10,00,00,00,00,02,00,
474800,00000316,false,Rx,0,8,9B,B9,F9,A4,0F,80,0A,00,
475047,00000472,false,Rx,0,8,5C,EC,00,40,08,41,00,45,
475279,00000317,false,Rx,0,8,00,00,05,00,00,00,00,00,
475576,00000394,false,Rx,0,8,2A,22,1A,49,00,00,00,00,
475764,000003C3,false,Rx,0,8,45,10,31,30,36,00,00,00,
476004,00000473,false,Rx,0,8,5F,24,00,25,00,00,00,78,
476240,000003E0,false,Rx,0,8,76,C0,01,00,54,03,00,00,
476519,00000474,false,Rx,0,8,53,98,00,00,00,00,00,10,
476729,000003E5,false,Rx,0,8,96,00,01,00,00,00,00,00,
476988,0000047F,false,Rx,0,8,FF,FF,FF,FF,FF,FF,FF,FF,
477221,000003E6,false,Rx,0,8,A1,40,00,00,00,00,00,00,
477525,0000041A,false,Rx,0,8,CC,10,12,00,50,01,00,00,
477919,00000653,false,Rx,0,8,0A,19,03,01,02,2A,00,00,
478192,0000041B,false,Rx,0,8,BE,70,00,00,00,00,00,00,
478297,0000041C,false,Rx,0,8,84,D0,E8,00,00,00,00,00,
478554,00000422,false,Rx,0,8,FA,20,01,00,00,00,04,00,
479255,00000432,false,Rx,0,8,03,20,02,00,00,00,00,00,
479524,0000011B,false,Rx,0,8,58,C0,4A,05,80,08,A8,02,
479719,0000012B,false,Rx,0,8,1F,3A,4A,06,00,00,08,00,
479960,0000011C,false,Rx,0,8,00,05,20,00,22,00,01,01,
480219,0000012C,false,Rx,0,8,00,00,01,00,00,64,00,00,
480450,00000435,false,Rx,0,8,51,70,00,40,00,00,00,00,
480741,00000442,false,Rx,0,8,CE,20,11,81,00,00,00,00,
481016,00000444,false,Rx,0,8,C5,C0,20,50,55,50,00,00,
481270,00000445,false,Rx,0,8,08,60,00,00,00,00,00,18,
481517,00000464,false,Rx,0,8,6C,30,F0,FF,38,7F,05,00,
481828,0000033B,false,Rx,0,8,AF,3D,21,00,00,00,00,00,
482102,0000033C,false,Rx,0,8,00,00,00,00,F0,00,00,00,
482364,0000033D,false,Rx,0,8,00,00,00,00,00,00,00,00,
482652,0000033E,false,Rx,0,8,00,00,00,00,00,00,00,00,
486721,000000A1,false,Rx,0,8,D3,A9,2A,8A,D4,EC,A2,00,
486915,000000A2,false,Rx,0,8,00,00,00,00,00,00,00,00,
487170,000000A3,false,Rx,0,8,00,40,01,00,00,00,00,00,
496641,00000091,false,Rx,0,8,A5,79,EB,03,00,00,00,00,
496822,00000092,false,Rx,0,8,13,00,00,00,30,01,00,00,
497086,00000093,false,Rx,0,8,00,00,00,00,00,00,00,00,
497366,00000094,false,Rx,0,8,00,00,00,00,00,00,00,00,
497598,00000146,false,Rx,0,8,05,E0,97,10,04,05,00,00,
497882,00000147,false,Rx,0,8,01,04,7D,00,40,F9,02,00,
498097,00000148,false,Rx,0,8,00,00,42,00,00,7A,40,05,
498353,00000149,false,Rx,0,8,00,38,00,0C,00,00,00,00,
498584,000001B1,false,Rx,0,8,DD,35,97,00,72,00,00,00,
498826,000001B2,false,Rx,0,8,23,00,04,0D,10,01,50,0F,
499074,000001B3,false,Rx,0,8,10,2D,33,00,5F,7F,71,7C,
499317,000001B4,false,Rx,0,8,66,7A,10,00,00,41,00,00,
499873,0000036F,false,Rx,0,8,20,41,01,00,00,00,00,00,
500104,0000037F,false,Rx,0,8,9B,30,52,24,41,02,00,00,
505146,000002D6,false,Rx,0,8,2B,4B,F6,00,00,00,00,00,
505334,000002D7,false,Rx,0,8,00,00,00,00,03,00,00,00,
505602,000002D8,false,Rx,0,8,00,00,00,00,00,00,38,44,
505867,000002EB,false,Rx,0,8,72,67,F6,08,08,01,00,02,
506421,000002D9,false,Rx,0,8,00,00,00,00,00,00,00,00,
506542,00000061,false,Rx,0,8,02,7B,2C,00,00,00,00,00,
506932,000002EC,false,Rx,0,8,0A,00,00,00,00,00,00,00,
507407,00000062,false,Rx,0,8,02,02,00,02,40,FF,00,FF,
507497,000002ED,false,Rx,0,8,00,00,00,00,00,00,00,00,
507570,00000063,false,Rx,0,8,00,00,05,00,00,08,FD,00,
507615,000002EE,false,Rx,0,8,00,00,00,00,00,00,00,00,
507936,00000064,false,Rx,0,8,00,00,00,04,FF,FA,00,00,
508068,0000010B,false,Rx,0,8,88,5C,49,00,00,00,00,05,
508291,0000010C,false,Rx,0,8,FF,F9,E7,1F,43,48,44,44,
508574,0000010D,false,Rx,0,8,EF,02,00,00,00,00,01,35,
508984,0000010E,false,Rx,0,8,00,00,0A,00,00,C0,AB,57,
510038,00000396,false,Rx,0,8,FE,F0,F6,0F,08,01,00,02,
510268,00000397,false,Rx,0,8,1C,00,00,00,00,00,00,00,
510565,00000398,false,Rx,0,8,00,00,00,00,00,00,00,00,
510983,000001F1,false,Rx,0,8,40,28,3C,01,00,00,28,00,
511272,000001F2,false,Rx,0,8,00,00,00,00,00,00,00,00,
512814,00000121,false,Rx,0,8,DF,94,4A,00,00,00,00,05,
512983,00000122,false,Rx,0,8,FF,D9,67,1F,43,44,43,43,
513264,00000123,false,Rx,0,8,F0,02,00,00,00,00,01,35,
513496,00000124,false,Rx,0,8,00,00,0A,00,00,00,20,40,
513988,00000036,false,Rx,0,8,23,33,4A,51,00,00,25,05,
514283,00000037,false,Rx,0,8,05,00,00,10,00,40,00,00,
514542,00000038,false,Rx,0,8,04,00,00,00,60,39,96,D4,
514806,00000039,false,Rx,0,8,00,00,00,00,00,00,00,00,
515099,000003B6,false,Rx,0,8,71,30,F6,00,00,00,00,44,
515396,000003B7,false,Rx,0,8,44,00,00,00,00,00,00,00,
515652,000003B8,false,Rx,0,8,EB,02,00,00,00,00,69,0E,
515927,000003B9,false,Rx,0,8,00,00,00,00,00,00,00,00,
519804,000001FB,false,Rx,0,8,1D,F2,EE,00,00,00,00,00,
519988,00000405,false,Rx,0,8,14,C0,00,00,00,01,00,00,
520239,000001FC,false,Rx,0,8,00,00,00,00,00,00,00,00,
520482,00000410,false,Rx,0,8,D5,80,54,3C,B4,6A,FF,FF,
520710,000001E6,false,Rx,0,8,7B,CA,D7,02,00,00,00,00,
520957,000001FD,false,Rx,0,8,00,1A,03,00,00,00,00,00,
521204,000001E7,false,Rx,0,8,00,00,22,03,20,01,00,00,
521434,0000019B,false,Rx,0,8,E7,0F,49,00,00,E4,00,00,
521684,000001BB,false,Rx,0,8,01,61,D7,02,00,00,00,0A,
521929,0000019C,false,Rx,0,8,40,20,00,00,00,00,0B,09,
522245,000001BC,false,Rx,0,8,32,00,00,00,02,00,00,00,
522423,0000019D,false,Rx,0,8,00,10,00,01,00,00,00,00,
522712,000001BD,false,Rx,0,8,00,00,00,00,00,00,00,00,
522911,0000019E,false,Rx,0,8,15,00,00,00,00,32,00,00,
523160,000001FE,false,Rx,0,8,00,00,00,00,00,00,00,00,
523386,00000411,false,Rx,0,8,BD,71,50,50,00,00,44,05,
523659,00000413,false,Rx,0,8,F5,10,00,41,00,00,00,00,
523888,00000412,false,Rx,0,8,CC,E0,00,00,00,00,00,00,
524118,00000414,false,Rx,0,8,87,A0,00,00,28,00,00,00,
524386,00000416,false,Rx,0,8,55,00,00,00,00,00,00,00,
524671,00000417,false,Rx,0,8,BF,00,00,00,00,01,00,00,
524921,00000418,false,Rx,0,8,68,E0,00,00,14,0C,00,00,
525172,00000419,false,Rx,0,8,42,90,0A,D6,AD,7A,84,00,
528229,00000485,false,Rx,0,8,00,40,11,02,00,00,00,00,
529369,000001A1,false,Rx,0,8,55,1B,A7,FE,F7,7F,64,00,
529862,0000011B,false,Rx,0,8,AE,E8,4F,05,80,08,A8,02,
530020,0000012B,false,Rx,0,8,E9,12,4F,06,00,00,08,00,
530272,0000011C,false,Rx,0,8,00,05,20,00,22,00,01,01,
530525,0000012C,false,Rx,0,8,00,00,01,00,00,64,00,00,
530758,000001A2,false,Rx,0,8,00,00,00,00,00,08,00,00,
531053,000001A3,false,Rx,0,8,FF,F3,3F,00,00,00,00,00,
531296,00000111,false,Rx,0,8,7C,A3,D0,01,00,00,00,00,
531541,000001A4,false,Rx,0,8,FE,07,00,00,00,00,00,00,
531791,00000112,false,Rx,0,8,00,00,00,00,00,00,00,00,
532029,00000561,false,Rx,0,8,66,02,00,00,00,00,FF,FF,
532281,00000113,false,Rx,0,8,00,00,00,00,00,00,00,00,
532533,00000114,false,Rx,0,8,00,00,00,00,00,00,00,00,
535012,0000030B,false,Rx,0,8,A4,E4,21,00,04,00,00,00,
535264,00000563,false,Rx,1,8,65,01,00,00,00,00,FF,FF,
535422,0000030C,false,Rx,0,8,00,00,0C,00,2C,00,A0,0F,
535491,0000030D,false,Rx,0,8,00,00,00,00,42,00,00,00,
535946,0000030E,false,Rx,0,8,00,00,28,05,21,00,00,00,
536543,000000A1,false,Rx,0,8,DC,42,2F,8A,D4,EC,A2,00,
537015,000000A2,false,Rx,0,8,00,00,00,00,00,00,00,00,
537123,000000A3,false,Rx,0,8,00,40,01,00,00,00,00,00,
538294,00000565,false,Rx,0,8,66,01,00,00,00,00,FF,FF,
539415,00000161,false,Rx,0,8,CE,88,A8,03,00,00,00,02,
539517,00000162,false,Rx,0,8,FF,FC,01,00,00,00,00,00,
545187,00000419,false,Rx,0,8,5E,A0,09,D6,AD,7A,84,00,
550245,00000487,false,Rx,1,8,00,00,00,00,00,00,00,00,
550574,00000642,false,Rx,1,8,FF,FF,FF,FF,FF,FF,00,00,
551923,000001AB,false,Rx,0,8,EA,B7,A7,40,70,90,00,00,
552122,000001AC,false,Rx,0,8,00,28,00,00,00,00,00,00,
555796,00000415,false,Rx,0,8,40,13,10,00,08,01,00,00,
556219,00000061,false,Rx,0,8,CA,79,31,00,00,00,00,00,
556399,00000062,false,Rx,0,8,02,02,00,02,40,FF,00,FF,
556662,00000063,false,Rx,0,8,00,00,05,00,00,08,FD,00,
556925,00000064,false,Rx,0,8,00,00,00,04,FF,FA,00,00,
557162,0000010B,false,Rx,0,8,7B,C2,4E,00,00,00,00,05,
557449,0000010C,false,Rx,0,8,FF,F9,E7,1F,43,48,44,44,
557674,0000010D,false,Rx,0,8,EF,02,00,00,00,00,01,35,
557945,0000010E,false,Rx,0,8,00,00,0A,00,00,C0,AB,57,
562717,00000121,false,Rx,0,8,A0,B8,4F,00,00,00,00,05,
562900,00000122,false,Rx,0,8,FF,D9,67,1F,43,44,43,43,
563144,00000123,false,Rx,0,8,F0,02,00,00,00,00,01,35,
563402,00000124,false,Rx,0,8,00,00,0A,00,00,00,20,40,
563993,00000036,false,Rx,0,8,5C,1F,4F,51,00,00,25,05,
564285,00000037,false,Rx,0,8,05,00,00,10,00,40,00,00,
564504,00000038,false,Rx,0,8,04,00,00,00,60,39,96,D4,
564785,00000039,false,Rx,0,8,00,00,00,00,00,00,00,00,
565998,00000236,false,Rx,0,8,DB,6C,EE,00,30,63,34,6C,
566177,00000237,false,Rx,0,8,00,05,94,00,00,5B,1D,00,
566427,00000238,false,Rx,0,8,00,00,0C,00,00,00,00,00,
566741,00000239,false,Rx,0,8,00,00,00,00,01,00,00,00,
567296,00000151,false,Rx,0,8,D1,5D,EE,A0,C8,00,28,15,
567532,00000152,false,Rx,0,8,12,14,13,00,24,00,00,00,
567791,000001F6,false,Rx,0,8,70,A6,EE,00,00,00,00,0D,
568047,00000153,false,Rx,0,8,00,00,00,00,00,00,00,00,
568287,000001F7,false,Rx,0,8,1F,00,DC,00,00,00,00,00,
568526,00000154,false,Rx,0,8,00,00,00,00,00,00,00,00,
568770,000001F8,false,Rx,0,8,00,69,00,64,00,00,00,00,
569012,000002FB,false,Rx,0,8,D3,9C,EE,04,0C,15,C3,C3,
569242,000001F9,false,Rx,0,8,19,00,A0,C8,14,00,19,00,
569478,000002FC,false,Rx,0,8,09,00,12,15,00,00,87,96,
569718,0000025B,false,Rx,0,8,64,CA,EE,40,40,20,00,00,
569962,000002FD,false,Rx,0,8,00,00,00,00,00,1C,10,EA,
570203,0000025C,false,Rx,0,8,00,00,1F,00,BD,68,15,00,
570458,000002FE,false,Rx,0,8,00,00,72,01,00,28,00,00,
570695,0000025D,false,Rx,0,8,00,C8,00,00,00,80,C0,70,
570934,00000326,false,Rx,0,8,68,1F,EE,00,00,00,00,00,
571178,0000019B,false,Rx,0,8,14,91,4E,00,00,E4,00,00,
571413,0000025E,false,Rx,0,8,47,07,0E,06,00,00,00,00,
571659,0000019C,false,Rx,0,8,40,20,00,00,00,00,0B,09,
571902,00000327,false,Rx,0,8,00,00,00,00,01,00,00,00,
572155,0000019D,false,Rx,0,8,00,10,00,01,00,00,00,00,
572391,00000328,false,Rx,0,8,DC,00,19,00,00,69,00,00,
572660,0000019E,false,Rx,0,8,15,00,00,00,00,32,00,00,
572886,00000329,false,Rx,0,8,A0,64,00,00,00,00,00,00,
573123,000003AA,false,Rx,0,8,FF,00,D0,00,54,00,00,00,
573350,00000331,false,Rx,0,8,98,3E,EE,F1,C8,A0,2C,97,
573642,00000332,false,Rx,0,8,44,07,B4,00,00,00,00,00,
573879,00000333,false,Rx,0,8,00,00,00,1C,0C,40,20,A0,
574127,00000334,false,Rx,0,8,C8,00,00,00,5C,70,B7,8F,
576313,00000495,false,Rx,0,8,49,00,00,00,00,00,00,00,
579441,0000011B,false,Rx,0,8,6C,32,54,05,80,08,A8,02,
579600,0000012B,false,Rx,0,8,2B,C8,54,06,00,00,08,00,
579861,0000011C,false,Rx,0,8,00,05,20,00,22,00,01,01,
580100,0000012C,false,Rx,0,8,00,00,01,00,00,64,00,00,
582313,00000356,false,Rx,0,8,6F,B8,11,00,00,00,00,00,
582505,00000357,false,Rx,0,8,00,00,00,00,00,4B,4D,48,
582755,00000358,false,Rx,0,8,35,41,45,4D,52,37,33,4F,
582991,00000359,false,Rx,0,8,51,4F,34,52,4A,35,33,00,
585228,00000419,false,Rx,0,8,5E,A0,09,D6,AD,7A,84,00,
586733,000000A1,false,Rx,0,8,B3,F3,34,8A,D4,EC,A2,00,
586847,000000A2,false,Rx,0,8,00,00,00,00,00,00,00,00,
587077,00000448,false,Rx,0,8,7F,00,00,00,00,00,00,00,
587316,000000A3,false,Rx,0,8,00,40,01,00,00,00,00,00,
590355,000004A3,false,Rx,1,8,80,00,48,0B,3E,00,00,00,
590460,000004A4,false,Rx,1,8,FF,FF,FF,00,00,00,00,00,
597147,00000091,false,Rx,0,8,A3,90,EC,03,00,00,00,00,
597252,00000092,false,Rx,0,8,14,00,00,00,40,01,00,00,
597407,00000093,false,Rx,0,8,00,00,00,00,00,00,00,00,
597667,00000146,false,Rx,0,8,CB,08,9C,10,04,05,00,00,
598241,00000094,false,Rx,0,8,00,00,00,00,00,00,00,00,
598319,00000147,false,Rx,0,8,01,04,7D,00,40,ED,02,00,
598393,000001B1,false,Rx,0,8,65,34,9C,00,72,00,00,00,
598757,00000148,false,Rx,0,8,00,00,42,00,00,7A,40,05,
598905,000001B2,false,Rx,0,8,23,00,04,0D,10,01,50,0F,
599121,00000149,false,Rx,0,8,00,38,00,0C,00,00,00,00,
599497,000001B3,false,Rx,0,8,10,2D,33,00,5F,7F,71,7C,
599786,000001B4,false,Rx,0,8,66,7A,10,00,00,41,00,00,
600127,0000036F,false,Rx,0,8,99,51,01,00,00,00,00,00,
600421,000001E1,false,Rx,0,8,3A,3F,DE,02,00,00,00,00,
600756,0000037F,false,Rx,0,8,93,40,52,24,41,02,00,00,
600859,000001E2,false,Rx,0,8,00,00,00,00,00,00,00,00,
604845,000002AB,false,Rx,0,8,F0,0E,EF,0C,0C,00,00,00,
604959,000002AC,false,Rx,0,8,00,FF,FF,00,00,40,00,50,
605238,000002AD,false,Rx,0,8,00,01,00,40,FF,FF,FF,0F,
605500,000002AE,false,Rx,0,8,01,00,FF,3F,01,01,00,00,
605745,000002B6,false,Rx,0,8,C2,BD,EF,01,00,00,00,40,
605997,000002B7,false,Rx,0,8,93,01,C1,08,00,04,00,00,
606249,00000061,false,Rx,0,8,39,E7,36,00,00,00,00,00,
606482,000002B8,false,Rx,0,8,B2,61,11,00,00,00,00,00,
606729,00000062,false,Rx,0,8,02,02,00,02,40,FF,00,FF,
606984,000002B9,false,Rx,0,8,0A,00,00,00,00,00,00,00,
607227,00000063,false,Rx,0,8,00,00,05,00,00,08,FD,00,
607450,000002C1,false,Rx,0,8,8F,0A,F8,21,00,41,00,A1,
607759,00000064,false,Rx,0,8,00,00,00,04,FF,FA,00,00,
608149,000002C2,false,Rx,0,8,40,00,00,00,00,00,00,00,
608447,0000010B,false,Rx,0,8,B3,C0,53,00,00,00,00,05,
608512,000002C3,false,Rx,0,8,00,00,00,00,00,00,00,00,
608829,0000010C,false,Rx,0,8,FF,F9,E7,1F,43,48,44,44,
609120,000002C4,false,Rx,0,8,00,00,00,00,00,00,00,00,
609177,0000010D,false,Rx,0,8,EF,02,00,00,00,00,01,35,
609408,00000251,false,Rx,0,8,74,88,EE,00,00,00,00,00,
609648,0000010E,false,Rx,0,8,00,00,0A,00,00,C0,AB,57,
609903,00000252,false,Rx,0,8,00,00,00,00,03,00,00,00,
610128,000002E1,false,Rx,0,8,D3,2B,EF,00,00,00,00,40,
610391,00000253,false,Rx,0,8,00,00,00,52,52,00,80,46,
610603,000002E2,false,Rx,0,8,FD,00,00,00,00,14,00,04,
610845,00000380,false,Rx,0,8,A0,99,01,0C,0C,0C,0C,01,
611085,000002E3,false,Rx,0,8,00,00,00,00,00,00,72,01,
611326,00000382,false,Rx,0,8,36,4D,02,00,00,05,09,00,
611804,000002E4,false,Rx,0,8,02,00,00,00,00,00,00,00,
611941,00000383,false,Rx,0,8,89,14,01,10,01,00,00,00,
612098,00000384,false,Rx,0,8,D8,3D,02,01,00,FF,00,22,
612375,000003B0,false,Rx,0,8,72,37,FF,C7,00,00,03,C0,
612724,00000121,false,Rx,0,8,DD,7D,54,00,00,00,00,05,
612962,00000122,false,Rx,0,8,FF,D9,67,1F,43,44,43,43,
613209,00000123,false,Rx,0,8,F0,02,00,00,00,00,01,35,
613443,000003B1,false,Rx,0,8,9B,3C,FF,40,00,00,20,00,
613715,00000124,false,Rx,0,8,00,00,0A,00,00,00,20,40,
613993,00000036,false,Rx,0,8,21,DA,54,51,00,00,25,05,
614244,00000037,false,Rx,0,8,05,00,00,10,00,40,00,00,
614486,00000038,false,Rx,0,8,04,00,00,00,60,39,96,D4,
614732,00000256,false,Rx,0,8,48,8F,EE,15,00,00,F0,00,
614977,00000039,false,Rx,0,8,00,00,00,00,00,00,00,00,
615212,00000257,false,Rx,0,8,00,8C,40,17,84,07,00,8C,
615602,000002E6,false,Rx,0,8,73,72,EE,01,00,00,00,15,
615699,00000258,false,Rx,0,8,01,27,1D,00,10,15,00,1C,
615968,000002E7,false,Rx,0,8,0A,00,00,00,00,00,00,00,
616181,00000259,false,Rx,0,8,42,05,8B,3C,2C,02,00,00,
616420,000002E8,false,Rx,0,8,00,00,00,00,00,00,00,00,
616700,000002E9,false,Rx,0,8,00,00,00,00,00,00,00,00,
619871,000003B2,false,Rx,0,8,36,15,FF,02,29,2F,34,00,
621364,0000019B,false,Rx,0,8,DC,93,53,00,00,E4,00,00,
621609,0000019C,false,Rx,0,8,40,20,00,00,00,00,0B,09,
621879,0000019D,false,Rx,0,8,00,10,00,01,00,00,00,00,
622120,0000019E,false,Rx,0,8,15,00,00,00,00,32,00,00,
622375,00000427,false,Rx,0,8,1D,86,FF,00,80,0A,00,00,
624960,0000042A,false,Rx,0,8,CF,74,01,04,00,10,00,00,
625169,00000419,false,Rx,0,8,5E,A0,09,D6,AD,7A,84,00,
629550,00000566,false,Rx,0,8,16,02,00,00,00,00,FF,FF,
629645,0000011B,false,Rx,0,8,1F,0B,59,05,80,08,A8,02,
629736,0000012B,false,Rx,0,8,58,F1,59,06,00,00,08,00,
630090,0000011C,false,Rx,0,8,00,05,20,00,22,00,01,01,
630452,0000012C,false,Rx,0,8,00,00,01,00,00,64,00,00,
630773,000001A1,false,Rx,0,8,ED,1A,AC,FE,F7,7F,64,00,
630882,000001A2,false,Rx,0,8,00,00,00,00,00,08,00,00,
630968,000001A3,false,Rx,0,8,FF,F3,3F,00,00,00,00,00,
631743,000001A4,false,Rx,0,8,FE,07,00,00,00,00,00,00,
636749,000000A1,false,Rx,0,8,85,B0,39,8A,D4,EC,A2,00,
636861,000000A2,false,Rx,0,8,00,00,00,00,00,00,00,00,
637203,000000A3,false,Rx,0,8,00,40,01,00,00,00,00,00,
639493,00000161,false,Rx,0,8,38,A0,AD,03,00,00,00,02,
639585,00000162,false,Rx,0,8,FF,FC,01,00,00,00,00,00,
651906,000001AB,false,Rx,0,8,22,4E,AC,40,70,90,00,00,
651997,000001AC,false,Rx,0,8,00,28,00,00,00,00,00,00,
656445,00000061,false,Rx,0,8,34,21,3B,00,00,00,00,00,
656563,00000062,false,Rx,0,8,02,02,00,02,40,FF,00,FF,
656678,00000063,false,Rx,0,8,00,00,05,00,00,08,FD,00,
656936,00000064,false,Rx,0,8,00,00,00,04,FF,FA,00,00,
657344,0000010B,false,Rx,0,8,0B,C1,58,00,00,00,00,05,
657935,0000010C,false,Rx,0,8,FF,F9,E7,1F,43,48,44,44,
658170,0000010D,false,Rx,0,8,EF,02,00,00,00,00,01,35,
658235,0000010E,false,Rx,0,8,00,00,0A,00,00,C0,AB,57,
658864,000003A1,false,Rx,0,8,69,22,A7,00,FF,FF,FF,FF,
659083,000003A2,false,Rx,0,8,00,00,00,00,00,00,00,00,
660372,000000C5,false,Rx,1,8,00,00,00,00,00,00,00,00,
660472,00000244,false,Rx,1,8,00,00,00,00,00,00,00,00,
660708,0000041F,false,Rx,1,8,00,0C,00,00,00,00,00,00,
660989,000004B4,false,Rx,1,8,01,00,0D,40,10,60,44,02,
661519,000001F1,false,Rx,0,8,0D,C0,3F,01,00,00,28,00,
662024,000004B5,false,Rx,1,8,08,00,F0,07,00,00,00,00,
662825,000004B7,false,Rx,1,8,08,00,F0,07,00,00,00,00,
663378,000001F2,false,Rx,0,8,00,00,00,00,00,00,00,00,
663499,000004CA,false,Rx,1,8,00,00,00,00,00,00,00,00,
663560,000004CC,false,Rx,1,8,08,00,00,2A,00,00,03,00,
663813,000004CE,false,Rx,1,8,14,01,FF,FF,FF,FF,FF,FF,
664137,000004D7,false,Rx,1,8,23,01,00,00,00,00,00,00,
664950,00000121,false,Rx,0,8,D0,BB,59,00,00,00,00,05,
665425,000004D8,false,Rx,1,8,41,10,F6,F0,40,F2,1E,CC,
665924,00000122,false,Rx,0,8,FF,D9,67,1F,43,44,43,43,
666231,000004DD,false,Rx,1,8,00,00,FE,00,04,00,00,00,
667071,00000123,false,Rx,0,8,F0,02,00,00,00,00,01,35,
667463,00000124,false,Rx,0,8,00,00,0A,00,00,00,20,40,
667662,000004DF,false,Rx,1,8,00,00,08,00,00,00,00,00,
667740,000004E7,false,Rx,1,8,00,30,00,00,00,00,69,00,
668607,00000036,false,Rx,0,8,2C,1C,59,51,00,00,25,05,
668752,000004E8,false,Rx,1,8,FF,FF,FF,29,FF,FF,FF,00,
669058,00000037,false,Rx,0,8,05,00,00,10,00,40,00,00,
669178,000004E9,false,Rx,1,8,00,00,00,00,00,00,00,00,
669323,000004EA,false,Rx,1,8,00,00,00,00,00,00,00,00,
669377,00000038,false,Rx,0,8,04,00,00,00,60,39,96,D4,
669461,00000475,false,Rx,0,8,12,00,00,00,00,00,00,00,
669511,000004EB,false,Rx,1,8,04,68,2A,0C,80,00,00,00,
669560,00000039,false,Rx,0,8,00,00,00,00,00,00,00,00,
669860,000004EC,false,Rx,1,8,FF,FF,FF,FF,FF,FF,FF,0F,
670165,00000496,false,Rx,0,8,12,00,00,00,00,00,00,00,
670305,000004ED,false,Rx,1,8,FF,FF,FF,FF,FF,FF,FF,1F,
670360,00000401,false,Rx,0,8,81,B0,10,00,00,01,00,00,
670415,000004EE,false,Rx,1,8,FF,FF,00,00,00,00,00,00,
670464,000004EF,false,Rx,1,8,60,00,60,00,29,14,00,00,
670531,0000063D,false,Rx,1,8,00,80,00,00,00,00,00,00,
670586,0000063E,false,Rx,1,8,FF,FF,FF,FF,FF,FF,FF,FF,
670652,0000063F,false,Rx,1,8,00,10,00,C4,FF,00,00,00,
670710,00000640,false,Rx,1,8,FF,FF,FF,00,FF,FF,FF,00,
670812,00000641,false,Rx,1,8,FF,FF,FF,FF,0F,FF,FF,FF,
670886,00000646,false,Rx,1,8,00,00,00,80,01,00,00,00,
670986,000001E6,false,Rx,0,8,08,F3,DA,02,00,00,00,00,
671517,0000019B,false,Rx,0,8,64,92,58,00,00,E4,00,00,
671610,000001BB,false,Rx,0,8,37,22,DA,02,00,00,00,0A,
671905,0000019C,false,Rx,0,8,40,20,00,00,00,00,0B,09,
672042,000001BC,false,Rx,0,8,32,00,00,00,02,00,00,00,
672278,0000019D,false,Rx,0,8,00,10,00,01,00,00,00,00,
672538,000001BD,false,Rx,0,8,00,00,00,00,00,00,00,00,
672766,0000019E,false,Rx,0,8,15,00,00,00,00,32,00,00,
673016,000001E7,false,Rx,0,8,00,00,22,03,20,01,00,00,
673495,00000226,false,Rx,0,8,4A,82,F1,FF,FA,20,09,42,
673738,000002FF,false,Rx,0,8,83,B9,00,F0,3F,00,00,00,
673957,00000227,false,Rx,0,8,02,C4,07,09,00,F1,6F,03,
674200,000000FF,false,Rx,0,8,CB,10,00,00,00,00,02,00,
674441,000002BF,false,Rx,0,8,FF,FF,FF,00,00,00,00,00,
674690,00000316,false,Rx,0,8,D6,51,FA,A4,0F,80,0A,00,
674925,00000394,false,Rx,0,8,2A,22,1A,49,00,00,00,00,
675219,00000317,false,Rx,0,8,00,00,05,00,00,00,00,00,
675463,000003C3,false,Rx,0,8,45,10,31,30,36,00,00,00,
675654,00000472,false,Rx,0,8,5C,EC,00,40,08,41,00,45,
675892,000003E0,false,Rx,0,8,76,C0,01,00,54,03,00,00,
676116,00000473,false,Rx,0,8,5F,24,00,25,00,00,00,78,
676369,000003E5,false,Rx,0,8,96,00,01,00,00,00,00,00,
676609,00000474,false,Rx,0,8,53,98,00,00,00,00,00,10,
676855,000003E6,false,Rx,0,8,A1,40,00,00,00,00,00,00,
677102,0000041A,false,Rx,0,8,CC,10,12,00,50,01,00,00,
677443,0000047F,false,Rx,0,8,FF,FF,FF,FF,FF,FF,FF,FF,
677593,0000041B,false,Rx,0,8,BE,70,00,00,00,00,00,00,
678549,0000041C,false,Rx,0,8,84,D0,E8,00,00,00,00,00,
679130,00000422,false,Rx,0,8,FA,20,01,00,00,00,04,00,
679228,00000432,false,Rx,0,8,03,20,02,00,00,00,00,00,
679640,0000011B,false,Rx,0,8,80,63,5E,05,80,08,A8,02,
679986,0000012B,false,Rx,0,8,C7,99,5E,06,00,00,08,00,
680252,0000011C,false,Rx,0,8,00,05,20,00,22,00,01,01,
680354,0000012C,false,Rx,0,8,00,00,01,00,00,64,00,00,
680692,00000435,false,Rx,0,8,51,70,00,40,00,00,00,00,
681143,00000442,false,Rx,0,8,CE,20,11,81,00,00,00,00,
681558,00000444,false,Rx,0,8,C5,C0,20,50,55,50,00,00,
681754,00000653,false,Rx,0,8,0A,19,03,01,02,2A,00,00,
681978,0000033B,false,Rx,0,8,23,8F,23,00,00,00,00,00,
682221,00000445,false,Rx,0,8,08,60,00,00,00,00,00,18,
682472,0000033C,false,Rx,0,8,00,00,00,00,F0,00,00,00,
682694,00000464,false,Rx,0,8,6C,30,F0,FF,38,7F,05,00,
682956,0000033D,false,Rx,0,8,00,00,00,00,00,00,00,00,
683222,0000033E,false,Rx,0,8,00,00,00,00,00,00,00,00,
684962,00000419,false,Rx,0,8,10,B0,09,D6,B1,7A,84,00,
686528,000000A1,false,Rx,0,8,8C,35,3E,8A,D4,EC,A2,00,
686886,000000A2,false,Rx,0,8,00,00,00,00,00,00,00,00,
687061,000000A3,false,Rx,0,8,00,40,01,00,00,00,00,00,
696815,00000091,false,Rx,0,8,C2,D8,ED,03,00,00,00,00,
696923,00000092,false,Rx,0,8,15,00,00,00,50,01,00,00,
697302,00000093,false,Rx,0,8,00,00,00,00,00,00,00,00,
697388,00000094,false,Rx,0,8,00,00,00,00,00,00,00,00,
697740,00000146,false,Rx,0,8,13,AB,A1,10,04,05,00,00,
698155,00000147,false,Rx,0,8,01,04,7D,00,40,DF,02,00,
698239,00000148,false,Rx,0,8,00,00,42,00,00,7A,40,05,
698783,000001B1,false,Rx,0,8,06,AF,A1,00,72,00,00,00,
699139,00000149,false,Rx,0,8,00,38,00,0C,00,00,00,00,
699632,000001B2,false,Rx,0,8,23,00,04,0D,10,01,50,0F,
699699,000001B3,false,Rx,0,8,10,2D,33,00,5F,7F,71,7C,
699745,000001B4,false,Rx,0,8,66,7A,10,00,00,41,00,00,
700152,0000036F,false,Rx,0,8,4F,61,01,00,00,00,00,00,
700225,0000037F,false,Rx,0,8,2A,50,52,24,41,02,00,00,
700682,000004F0,false,Rx,1,8,4A,0D,2A,0D,5C,1A,11,02,
705446,000002D6,false,Rx,0,8,6D,12,F7,00,00,00,00,00,
705538,000002D7,false,Rx,0,8,00,00,00,00,03,00,00,00,
705921,000002D8,false,Rx,0,8,00,00,00,00,00,00,38,44,
706019,000002EB,false,Rx,0,8,E2,BD,F7,09,08,00,00,02,
706365,000002D9,false,Rx,0,8,00,00,00,00,00,00,00,00,
706670,00000061,false,Rx,0,8,95,5E,40,00,00,00,00,00,
706938,000002EC,false,Rx,0,8,22,00,00,00,00,00,00,00,
707038,00000062,false,Rx,0,8,02,02,00,02,40,FF,00,FF,
707306,000002ED,false,Rx,0,8,00,00,00,00,00,00,00,00,
707396,00000063,false,Rx,0,8,00,00,05,00,00,08,FD,00,
707574,000002EE,false,Rx,0,8,00,00,00,00,00,00,00,00,
707822,00000064,false,Rx,0,8,00,00,00,04,FF,FA,00,00,
708057,0000010B,false,Rx,0,8,74,ED,5D,00,00,00,00,05,
708288,0000010C,false,Rx,0,8,FF,F9,E7,1F,43,48,44,44,
708534,0000010D,false,Rx,0,8,EF,02,00,00,00,00,01,35,
708790,0000010E,false,Rx,0,8,00,00,0A,00,00,C0,AB,57,
709978,00000396,false,Rx,0,8,39,5B,F7,0F,08,02,00,02,
710270,00000397,false,Rx,0,8,0C,00,00,00,00,00,00,00,
710515,00000398,false,Rx,0,8,00,00,00,00,00,00,00,00,
712918,00000121,false,Rx,0,8,23,25,5E,00,00,00,00,05,
713001,00000122,false,Rx,0,8,FF,D9,67,1F,43,44,43,43,
713406,00000123,false,Rx,0,8,F0,02,00,00,00,00,01,35,
713507,00000124,false,Rx,0,8,00,00,0A,00,00,00,20,40,
714127,00000036,false,Rx,0,8,DF,82,5E,51,00,00,25,05,
714245,00000037,false,Rx,0,8,05,00,00,10,00,40,00,00,
714621,00000038,false,Rx,0,8,04,00,00,00,60,39,96,D4,
714977,00000039,false,Rx,0,8,00,00,00,00,00,00,00,00,
715287,000003B6,false,Rx,0,8,73,1C,F7,00,00,00,00,44,
715495,000003B7,false,Rx,0,8,43,00,00,00,00,00,00,00,
715832,000003B8,false,Rx,0,8,EB,02,00,00,00,00,69,0E,
715935,000003B9,false,Rx,0,8,00,00,00,00,00,00,00,00,
719987,000001FB,false,Rx,0,8,1F,1B,F0,00,00,00,00,00,
720076,00000405,false,Rx,0,8,14,C0,00,00,00,01,00,00,
720277,000001FC,false,Rx,0,8,00,00,00,00,00,00,00,00,
720510,00000410,false,Rx,0,8,D5,80,54,3C,B4,6A,FF,FF,
720800,000001FD,false,Rx,0,8,00,1A,03,00,00,00,00,00,
721002,00000411,false,Rx,0,8,BD,71,50,50,00,00,44,05,
721241,000001FE,false,Rx,0,8,00,00,00,00,00,00,00,00,
721471,0000019B,false,Rx,0,8,1B,BE,5D,00,00,E4,00,00,
721735,00000412,false,Rx,0,8,CC,E0,00,00,00,00,00,00,
721979,0000019C,false,Rx,0,8,40,20,00,00,00,00,0B,09,
722211,00000413,false,Rx,0,8,F5,10,00,41,00,00,00,00,
722492,0000019D,false,Rx,0,8,00,10,00,01,00,00,00,00,
722706,00000414,false,Rx,0,8,87,A0,00,00,28,00,00,00,
722951,0000019E,false,Rx,0,8,15,00,00,00,00,32,00,00,
723191,00000416,false,Rx,0,8,55,00,00,00,00,00,00,00,
723457,0000048F,false,Rx,0,8,AD,10,41,00,05,00,00,00,
723688,00000417,false,Rx,0,8,BF,00,00,00,00,01,00,00,
723947,00000418,false,Rx,0,8,68,E0,00,00,14,0C,00,00,
725152,00000419,false,Rx,0,8,5E,C0,08,D6,B1,7A,84,00,
725411,00000516,false,Rx,0,8,61,02,00,00,00,00,FF,FF,
729398,000001A1,false,Rx,0,8,25,18,B1,FE,F7,7F,64,00,
729564,0000011B,false,Rx,0,8,ED,3F,63,05,80,08,A8,02,
729839,0000012B,false,Rx,0,8,AA,C5,63,06,00,00,08,00,
730055,0000011C,false,Rx,0,8,00,05,20,00,22,00,01,01,
730290,0000012C,false,Rx,0,8,00,00,01,00,00,64,00,00,
730543,000001A2,false,Rx,0,8,00,00,00,00,00,08,00,00,
730797,000001A3,false,Rx,0,8,FF,F3,3F,00,00,00,00,00,
731095,000001A4,false,Rx,0,8,FE,07,00,00,00,00,00,00,
731325,00000111,false,Rx,0,8,3A,FA,D1,01,00,00,00,00,
731614,00000112,false,Rx,0,8,00,00,00,00,00,00,00,00,
731852,00000113,false,Rx,0,8,00,00,00,00,00,00,00,00,
732118,00000114,false,Rx,0,8,00,00,00,00,00,00,00,00,
735010,0000030B,false,Rx,0,8,28,56,23,00,04,00,00,00,
735260,0000030C,false,Rx,0,8,00,00,0C,00,2C,00,A0,0F,
735512,0000030D,false,Rx,0,8,00,00,00,00,42,00,00,00,
735764,0000030E,false,Rx,0,8,00,00,28,05,21,00,00,00,
736598,000000A1,false,Rx,0,8,22,A7,43,8A,D4,EC,A2,00,
736802,000000A2,false,Rx,0,8,00,00,00,00,00,00,00,00,
737062,000000A3,false,Rx,0,8,00,40,01,00,00,00,00,00,
739294,00000161,false,Rx,0,8,28,FA,B2,03,00,00,00,02,
739477,00000162,false,Rx,0,8,FF,FC,01,00,00,00,00,00,
740504,000004F0,false,Rx,1,8,4A,0D,2A,0D,5C,1A,11,02,
749900,000001E1,false,Rx,0,8,3E,23,E1,02,00,00,00,00,
750054,000001E2,false,Rx,0,8,00,00,00,00,00,00,00,00,
750258,00000487,false,Rx,1,8,00,00,00,00,00,00,00,00,
750732,00000642,false,Rx,1,8,FF,FF,FF,FF,FF,FF,00,00,
751658,000001AB,false,Rx,0,8,5B,54,B1,40,70,90,00,00,
751884,000001AC,false,Rx,0,8,00,28,00,00,00,00,00,00,
756200,00000061,false,Rx,0,8,EA,72,45,00,00,00,00,00,
756395,00000062,false,Rx,0,8,02,02,00,02,40,FF,00,FF,
756644,00000063,false,Rx,0,8,00,00,05,00,00,08,FD,00,
756914,00000064,false,Rx,0,8,00,00,00,04,FF,FA,00,00,
757148,0000010B,false,Rx,0,8,9B,C4,62,00,00,00,00,05,
757411,0000010C,false,Rx,0,8,FF,F9,E7,1F,43,48,44,44,
757634,0000010D,false,Rx,0,8,EF,02,00,00,00,00,01,35,
757890,0000010E,false,Rx,0,8,00,00,0A,00,00,C0,AB,57,
762910,00000121,false,Rx,0,8,40,BE,63,00,00,00,00,05,
762999,00000122,false,Rx,0,8,FF,D9,67,1F,43,44,43,43,
763464,00000123,false,Rx,0,8,F0,02,00,00,00,00,01,35,
763807,00000124,false,Rx,0,8,00,00,0A,00,00,00,20,40,
764258,00000036,false,Rx,0,8,BC,19,63,51,00,00,25,05,
764349,00000037,false,Rx,0,8,05,00,00,10,00,40,00,00,
764968,00000038,false,Rx,0,8,04,00,00,00,60,39,96,D4,
765034,00000039,false,Rx,0,8,00,00,00,00,00,00,00,00,
765456,00000419,false,Rx,0,8,5E,C0,08,D6,B1,7A,84,00,
766281,00000236,false,Rx,0,8,D9,85,F0,00,30,63,34,6C,
766653,00000237,false,Rx,0,8,00,05,94,00,00,5B,1D,00,
766703,00000238,false,Rx,0,8,00,00,0C,00,00,00,00,00,
767026,00000239,false,Rx,0,8,00,00,00,00,01,00,00,00,
767783,00000151,false,Rx,0,8,D3,B4,F0,A0,C8,00,28,15,
768120,000003AA,false,Rx,0,8,FF,00,D0,00,54,00,00,00,
768177,00000152,false,Rx,0,8,12,14,13,00,24,00,00,00,
768486,000001F6,false,Rx,0,8,72,4F,F0,00,00,00,00,0D,
768588,00000153,false,Rx,0,8,00,00,00,00,00,00,00,00,
768941,000001F7,false,Rx,0,8,1F,00,DC,00,00,00,00,00,
769236,00000154,false,Rx,0,8,00,00,00,00,00,00,00,00,
769309,000001F8,false,Rx,0,8,00,69,00,64,00,00,00,00,
769432,000002FB,false,Rx,0,8,D1,75,F0,04,0C,15,C3,C3,
769652,000001F9,false,Rx,0,8,19,00,A0,C8,14,00,19,00,
769905,000002FC,false,Rx,0,8,09,00,12,15,00,00,87,96,
770129,0000025B,false,Rx,0,8,2E,7C,F0,40,40,20,00,00,
770382,000002FD,false,Rx,0,8,00,00,00,00,00,1C,10,EA,
770612,0000025C,false,Rx,0,8,00,00,1F,00,BD,68,15,00,
770871,000002FE,false,Rx,0,8,00,00,72,01,00,28,00,00,
771104,0000019B,false,Rx,0,8,F4,97,62,00,00,E4,00,00,
771346,0000025D,false,Rx,0,8,00,C8,00,00,00,80,C0,70,
771582,0000019C,false,Rx,0,8,40,20,00,00,00,00,0B,09,
771862,0000025E,false,Rx,0,8,51,07,0E,07,00,00,00,00,
772075,0000019D,false,Rx,0,8,00,10,00,01,00,00,00,00,
772314,00000326,false,Rx,0,8,6A,F6,F0,00,00,00,00,00,
772549,0000019E,false,Rx,0,8,15,00,00,00,00,32,00,00,
772826,00000327,false,Rx,0,8,00,00,00,00,01,00,00,00,
773074,00000328,false,Rx,0,8,DC,00,19,00,00,69,00,00,
773338,00000329,false,Rx,0,8,A0,64,00,00,00,00,00,00,
773573,00000331,false,Rx,0,8,9A,D7,F0,F1,C8,A0,2C,97,
773836,00000332,false,Rx,0,8,44,07,B4,00,00,00,00,00,
774102,00000333,false,Rx,0,8,00,00,00,1C,0C,40,20,A0,
774340,00000334,false,Rx,0,8,C8,00,00,00,5C,70,B7,8F,
776338,00000495,false,Rx,0,8,49,00,00,00,00,00,00,00,
779469,0000011B,false,Rx,0,8,25,C6,68,05,80,08,A8,02,
779727,0000012B,false,Rx,0,8,62,3C,68,06,00,00,08,00,
779929,0000011C,false,Rx,0,8,00,05,20,00,22,00,01,01,
780485,0000012C,false,Rx,0,8,00,00,01,00,00,64,00,00,
781650,000004F0,false,Rx,1,8,4A,0D,2A,0D,5C,1A,11,02,
782480,00000356,false,Rx,0,8,A5,53,12,00,00,00,00,00,
782618,00000357,false,Rx,0,8,00,00,00,00,00,4B,4D,48,
782970,00000358,false,Rx,0,8,35,41,45,4D,52,37,33,4F,
783060,00000359,false,Rx,0,8,51,4F,34,52,4A,35,33,00,
786714,000000A1,false,Rx,0,8,1E,56,48,8A,D4,EC,A2,00,
786807,000000A2,false,Rx,0,8,00,00,00,00,00,00,00,00,
787114,00000448,false,Rx,0,8,7F,00,00,00,00,00,00,00,
787310,000000A3,false,Rx,0,8,00,40,01,00,00,00,00,00,
791592,000004A3,false,Rx,1,8,80,00,48,0B,3E,00,00,00,
791702,000004A4,false,Rx,1,8,FF,FF,FF,00,00,00,00,00,
796798,00000091,false,Rx,0,8,08,33,EE,03,00,00,00,00,
796893,00000092,false,Rx,0,8,15,00,00,00,50,01,00,00,
797286,00000093,false,Rx,0,8,00,00,00,00,00,00,00,00,
797380,00000094,false,Rx,0,8,00,00,00,00,00,00,00,00,
797721,00000146,false,Rx,0,8,E0,26,A6,10,04,05,00,00,
797863,00000147,false,Rx,0,8,01,04,7D,00,40,D1,02,00,
798159,00000148,false,Rx,0,8,00,00,42,00,00,7A,40,05,
798368,00000149,false,Rx,0,8,00,38,00,0C,00,00,00,00,
798613,000001B1,false,Rx,0,8,F5,31,A6,00,72,00,00,00,
798872,000001B2,false,Rx,0,8,23,00,04,0D,10,01,50,0F,
799102,000001B3,false,Rx,0,8,10,2D,33,00,5F,7F,71,7C,
799390,000001B4,false,Rx,0,8,66,7A,10,00,00,41,00,00,
799898,0000036F,false,Rx,0,8,F6,71,01,00,00,00,00,00,
800158,0000037F,false,Rx,0,8,FC,60,52,24,41,02,00,00,
804878,000002AB,false,Rx,0,8,F2,E7,F1,0C,0C,00,00,00,
804983,000002AC,false,Rx,0,8,00,FF,FF,00,00,40,00,50,
805348,000002AD,false,Rx,0,8,00,01,00,40,FF,FF,FF,0F,
805870,000002AE,false,Rx,0,8,01,00,FF,3F,01,01,00,00,
805964,000002B6,false,Rx,0,8,C0,54,F1,01,00,00,00,40,
806007,00000419,false,Rx,0,8,5E,C0,08,D6,B1,7A,84,00,
806246,00000061,false,Rx,0,8,6B,06,4A,00,00,00,00,00,
806595,000002B7,false,Rx,0,8,93,01,C1,08,00,04,00,00,
806908,00000062,false,Rx,0,8,02,02,00,02,40,FF,00,FF,
806976,000002B8,false,Rx,0,8,B2,61,11,00,00,00,00,00,
807323,00000063,false,Rx,0,8,00,00,05,00,00,08,FD,00,
808046,000002B9,false,Rx,0,8,0A,00,00,00,00,00,00,00,
808165,00000064,false,Rx,0,8,00,00,00,04,FF,FA,00,00,
808218,000002C1,false,Rx,0,8,C9,53,F9,21,00,41,00,A1,
808269,0000010B,false,Rx,0,8,E4,E8,67,00,00,00,00,05,
808648,000002C2,false,Rx,0,8,40,00,00,00,00,00,00,00,
808717,0000010C,false,Rx,0,8,FF,F9,E7,1F,43,48,44,44,
808890,000002C3,false,Rx,0,8,00,00,00,00,00,00,00,00,
809122,0000010D,false,Rx,0,8,EF,02,00,00,00,00,01,35,
809554,00000251,false,Rx,0,8,14,D2,F0,00,00,00,00,00,
809607,0000010E,false,Rx,0,8,00,00,0A,00,00,C0,AB,57,
809864,00000252,false,Rx,0,8,00,00,00,00,03,00,00,00,
810113,000002C4,false,Rx,0,8,00,00,00,00,00,00,00,00,
810347,00000253,false,Rx,0,8,00,00,00,52,52,00,80,46,
810576,000002E1,false,Rx,0,8,D1,C2,F1,00,00,00,00,40,
810855,00000380,false,Rx,0,8,A0,99,01,0C,0C,0C,0C,01,
811059,000001F1,false,Rx,0,8,48,10,42,01,00,00,28,00,
811294,000002E2,false,Rx,0,8,FD,00,00,00,00,14,00,04,
811551,000001F2,false,Rx,0,8,00,00,00,00,00,00,00,00,
811794,000002E3,false,Rx,0,8,00,00,00,00,00,00,72,01,
812047,00000382,false,Rx,0,8,36,4D,02,00,00,05,09,00,
812283,000002E4,false,Rx,0,8,02,00,00,00,00,00,00,00,
812534,00000383,false,Rx,0,8,89,14,01,10,01,00,00,00,
812800,00000121,false,Rx,0,8,F8,BF,68,00,00,00,00,05,
813204,00000384,false,Rx,0,8,D8,3D,02,01,00,FF,00,22,
813298,00000122,false,Rx,0,8,FF,D9,67,1F,43,44,43,43,
813571,000003B0,false,Rx,0,8,72,37,FF,C7,00,00,03,C0,
813977,00000123,false,Rx,0,8,F0,02,00,00,00,00,01,35,
814295,00000036,false,Rx,0,8,04,18,68,51,00,00,25,05,
814821,00000124,false,Rx,0,8,00,00,0A,00,00,00,20,40,
814953,00000037,false,Rx,0,8,05,00,00,10,00,40,00,00,
815007,00000256,false,Rx,0,8,16,83,F0,15,00,00,F0,00,
815069,00000038,false,Rx,0,8,04,00,00,00,60,39,96,D4,
815288,00000257,false,Rx,0,8,00,8C,40,17,84,07,00,8C,
815491,00000039,false,Rx,0,8,00,00,00,00,00,00,00,00,
815694,00000258,false,Rx,0,8,01,29,1D,00,10,15,00,1C,
816021,000002E6,false,Rx,0,8,71,9B,F0,01,00,00,00,15,
816254,00000259,false,Rx,0,8,42,05,8B,3C,2C,02,00,00,
816429,000002E7,false,Rx,0,8,0A,00,00,00,00,00,00,00,
816666,000003B1,false,Rx,0,8,9B,3C,FF,40,00,00,20,00,
816901,000002E8,false,Rx,0,8,00,00,00,00,00,00,00,00,
817160,000002E9,false,Rx,0,8,00,00,00,00,00,00,00,00,
819902,000003B2,false,Rx,0,8,36,15,FF,02,29,2F,34,00,
820598,000001E6,false,Rx,0,8,97,9B,DD,02,00,00,00,00,
821153,000001BB,false,Rx,0,8,3E,A7,DD,02,00,00,00,0A,
821291,000001BC,false,Rx,0,8,32,00,00,00,02,00,00,00,
822011,0000019B,false,Rx,0,8,8B,BB,67,00,00,E4,00,00,
822130,000001BD,false,Rx,0,8,00,00,00,00,00,00,00,00,
822187,0000019C,false,Rx,0,8,40,20,00,00,00,00,0B,09,
822238,000001E7,false,Rx,0,8,00,00,22,03,20,01,00,00,
822583,0000019D,false,Rx,0,8,00,10,00,01,00,00,00,00,
822734,00000427,false,Rx,0,8,1D,86,FF,00,80,0A,00,00,
822887,0000019E,false,Rx,0,8,15,00,00,00,00,32,00,00,
825156,0000042A,false,Rx,0,8,CF,74,01,04,00,10,00,00,
826582,00000561,false,Rx,0,8,63,02,00,00,00,00,FF,FF,
829543,000001A1,false,Rx,0,8,D6,86,B6,FE,F7,7F,64,00,
829631,0000011B,false,Rx,0,8,D3,EE,6D,05,80,08,A8,02,
829931,0000012B,false,Rx,0,8,94,14,6D,06,00,00,08,00,
830063,0000011C,false,Rx,0,8,00,05,20,00,22,00,01,01,
830325,0000012C,false,Rx,0,8,00,00,01,00,00,64,00,00,
830565,000001A2,false,Rx,0,8,00,00,00,00,00,08,00,00,
830794,00000419,false,Rx,0,8,22,D0,07,D6,B1,7A,84,00,
831048,000001A3,false,Rx,0,8,FF,F3,3F,00,00,00,00,00,
831295,000001A4,false,Rx,0,8,FE,07,00,00,00,00,00,00,
836741,000000A1,false,Rx,0,8,11,BD,4D,8A,D4,EC,A2,00,
836855,000000A2,false,Rx,0,8,00,00,00,00,00,00,00,00,
837189,000000A3,false,Rx,0,8,00,40,01,00,00,00,00,00,
839459,00000161,false,Rx,0,8,DE,D2,B7,03,00,00,00,02,
839547,00000162,false,Rx,0,8,FF,FC,01,00,00,00,00,00,
851495,000004E8,false,Rx,1,8,FF,FF,FF,29,FF,FF,FF,00,
852008,000001AB,false,Rx,0,8,C4,3C,B6,40,70,90,00,00,
852396,000001AC,false,Rx,0,8,00,28,00,00,00,00,00,00,
856240,00000061,false,Rx,0,8,14,2A,4F,00,00,00,00,00,
856389,00000062,false,Rx,0,8,02,02,00,02,40,FF,00,FF,
856683,00000063,false,Rx,0,8,00,00,05,00,00,08,FD,00,
856920,00000064,false,Rx,0,8,00,00,00,04,FF,FA,00,00,
857157,0000010B,false,Rx,0,8,5C,E9,6C,00,00,00,00,05,
857393,0000010C,false,Rx,0,8,FF,F9,E7,1F,43,48,44,44,
857644,0000010D,false,Rx,0,8,EF,02,00,00,00,00,01,35,
857890,0000010E,false,Rx,0,8,00,00,0A,00,00,C0,AB,57,
858799,000003A1,false,Rx,0,8,73,5B,A8,00,FF,FF,FF,FF,
859270,000003A2,false,Rx,0,8,00,00,00,00,00,00,00,00,
861690,000000C5,false,Rx,1,8,00,00,00,00,00,00,00,00,
862036,00000244,false,Rx,1,8,00,00,00,00,00,00,00,00,
862361,000004B4,false,Rx,1,8,01,00,0D,40,10,60,44,02,
862574,000004B5,false,Rx,1,8,08,00,F0,07,00,00,00,00,
862676,000004B7,false,Rx,1,8,08,00,F0,07,00,00,00,00,
862726,000004CA,false,Rx,1,8,00,00,00,00,00,00,00,00,
862778,000004CC,false,Rx,1,8,08,00,00,2A,00,00,03,00,
864176,00000121,false,Rx,0,8,71,46,6D,00,00,00,00,05,
864591,000004CE,false,Rx,1,8,14,01,FF,FF,FF,FF,FF,FF,
864652,000004D7,false,Rx,1,8,23,01,00,00,00,00,00,00,
865108,00000122,false,Rx,0,8,FF,D9,67,1F,43,45,43,43,
865596,000004D8,false,Rx,1,8,41,10,F6,F0,40,F2,1E,CC,
866175,00000123,false,Rx,0,8,F0,02,00,00,00,00,01,35,
866536,000004DD,false,Rx,1,8,00,00,FE,00,04,00,00,00,
866674,00000036,false,Rx,0,8,7B,34,6D,51,00,00,25,05,
866736,000004DF,false,Rx,1,8,00,00,08,00,00,00,00,00,
866813,00000124,false,Rx,0,8,00,00,0A,00,00,00,20,40,
866868,00000037,false,Rx,0,8,05,00,00,10,00,40,00,00,
867636,000004E7,false,Rx,1,8,00,30,00,00,00,00,69,00,
868299,000004E9,false,Rx,1,8,00,00,00,00,00,00,00,00,
868549,00000038,false,Rx,0,8,04,00,00,00,60,39,96,D4,
868613,000004EA,false,Rx,1,8,00,00,00,00,00,00,00,00,
868674,00000475,false,Rx,0,8,12,00,00,00,00,00,00,00,
868731,00000039,false,Rx,0,8,00,00,00,00,00,00,00,00,
868787,000004EB,false,Rx,1,8,04,68,2A,0C,80,00,00,00,
868832,00000496,false,Rx,0,8,12,00,00,00,00,00,00,00,
868919,000004EC,false,Rx,1,8,FF,FF,FF,FF,FF,FF,FF,0F,
868981,00000401,false,Rx,0,8,81,B0,10,00,00,01,00,00,
869035,000004ED,false,Rx,1,8,FF,FF,FF,FF,FF,FF,FF,1F,
869081,000004EE,false,Rx,1,8,FF,FF,00,00,00,00,00,00,
869142,000004EF,false,Rx,1,8,60,00,60,00,29,14,00,00,
869207,0000063D,false,Rx,1,8,00,80,00,00,00,00,00,00,
869270,0000063E,false,Rx,1,8,FF,FF,FF,FF,FF,FF,FF,FF,
869318,0000063F,false,Rx,1,8,00,10,00,C4,FF,00,00,00,
869389,00000640,false,Rx,1,8,FF,FF,FF,00,FF,FF,FF,00,
869436,00000641,false,Rx,1,8,FF,FF,FF,FF,0F,FF,FF,FF,
869671,00000646,false,Rx,1,8,00,00,00,80,01,00,00,00,
870474,00000419,false,Rx,0,8,22,D0,07,D6,B1,7A,84,00,
871274,0000019B,false,Rx,0,8,33,BA,6C,00,00,E4,00,00,
871692,0000019C,false,Rx,0,8,40,20,00,00,00,00,0B,09,
872195,0000019D,false,Rx,0,8,00,10,00,01,00,00,00,00,
872958,0000019E,false,Rx,0,8,15,00,00,00,00,32,00,00,
873673,00000226,false,Rx,0,8,23,C2,F3,FF,FA,20,09,42,
873782,000002FF,false,Rx,0,8,83,B9,00,F0,3F,00,00,00,
874551,00000227,false,Rx,0,8,02,C4,07,09,00,F1,6F,03,
874655,000000FF,false,Rx,0,8,CB,10,00,00,00,00,02,00,
874702,000002BF,false,Rx,0,8,FF,FF,FF,00,00,00,00,00,
874746,00000316,false,Rx,0,8,F2,F9,FB,A4,0F,80,0A,00,
875088,00000394,false,Rx,0,8,2A,22,1A,49,00,00,00,00,
875506,00000317,false,Rx,0,8,00,00,05,00,00,00,00,00,
875637,000003C3,false,Rx,0,8,45,10,31,30,36,00,00,00,
875695,00000472,false,Rx,0,8,5C,EC,00,40,08,41,00,45,
876376,000003E0,false,Rx,0,8,76,C0,01,00,54,03,00,00,
876454,00000473,false,Rx,0,8,5F,24,00,25,00,00,00,78,
876503,000003E5,false,Rx,0,8,96,00,01,00,00,00,00,00,
876767,00000474,false,Rx,0,8,53,98,00,00,00,00,00,10,
876870,000003E6,false,Rx,0,8,A1,40,00,00,00,00,00,00,
877112,0000041A,false,Rx,0,8,CC,10,12,00,50,01,00,00,
877412,0000047F,false,Rx,0,8,FF,FF,FF,FF,FF,FF,FF,FF,
877609,0000041B,false,Rx,0,8,BE,70,00,00,00,00,00,00,
877869,00000653,false,Rx,0,8,0A,19,03,01,02,2A,00,00,
878092,0000041C,false,Rx,0,8,84,D0,E8,00,00,00,00,00,
878381,00000422,false,Rx,0,8,FA,20,01,00,00,00,04,00,
878746,00000445,false,Rx,0,8,08,60,00,00,00,00,00,18,
878992,00000432,false,Rx,0,8,03,20,02,00,00,00,00,00,
879493,00000435,false,Rx,0,8,51,70,00,40,00,00,00,00,
879809,0000011B,false,Rx,0,8,C3,B4,72,05,80,08,A8,02,
879885,0000012B,false,Rx,0,8,84,4E,72,06,00,00,08,00,
880426,0000011C,false,Rx,0,8,00,05,20,00,22,00,01,01,
880502,0000012C,false,Rx,0,8,00,00,01,00,00,64,00,00,
880551,00000442,false,Rx,0,8,CE,20,11,81,00,00,00,00,
880845,00000444,false,Rx,0,8,C5,C0,20,50,55,50,00,00,
880985,00000464,false,Rx,0,8,6C,30,F0,FF,38,7F,05,00,
881826,0000033B,false,Rx,0,8,96,48,25,00,00,00,00,00,
882103,0000033C,false,Rx,0,8,00,00,00,00,F0,00,00,00,
882415,0000033D,false,Rx,0,8,00,00,00,00,00,00,00,00,
882712,0000033E,false,Rx,0,8,00,00,00,00,00,00,00,00,
886743,000000A1,false,Rx,0,8,72,D0,52,8A,D4,EC,A2,00,
886861,000000A2,false,Rx,0,8,00,00,00,00,00,00,00,00,
887177,000000A3,false,Rx,0,8,00,40,01,00,00,00,00,00,
892587,000004E8,false,Rx,1,8,FF,FF,FF,29,FF,FF,FF,00,
896804,00000091,false,Rx,0,8,9C,0C,EF,03,00,00,00,00,
896905,00000092,false,Rx,0,8,13,00,00,00,30,01,00,00,
897277,00000093,false,Rx,0,8,00,00,00,00,00,00,00,00,
897668,00000094,false,Rx,0,8,00,00,00,00,00,00,00,00,
897761,00000146,false,Rx,0,8,ED,D5,AB,10,04,05,00,00,
897969,00000147,false,Rx,0,8,01,04,7D,00,40,C3,02,00,
898159,00000148,false,Rx,0,8,00,00,42,00,00,7A,40,05,
898395,000001B1,false,Rx,0,8,F8,F7,AB,00,72,00,00,00,
898638,00000149,false,Rx,0,8,00,38,00,0C,00,00,00,00,
898873,000001B2,false,Rx,0,8,23,00,04,0D,10,01,50,0F,
899151,000001B3,false,Rx,0,8,10,2D,33,00,5F,7F,71,7C,
899363,000001B4,false,Rx,0,8,66,7A,10,00,00,41,00,00,
899716,000001E1,false,Rx,0,8,C8,0B,E4,02,00,00,00,00,
899967,0000036F,false,Rx,0,8,5F,81,01,00,00,00,00,00,
900391,000001E2,false,Rx,0,8,00,00,00,00,00,00,00,00,
900494,0000037F,false,Rx,0,8,45,70,52,24,41,02,00,00,
905293,000002D6,false,Rx,0,8,EC,66,F8,00,00,00,00,00,
905394,000002D7,false,Rx,0,8,00,00,00,00,03,00,00,00,
905756,000002D8,false,Rx,0,8,00,00,00,00,00,00,38,44,
906212,000002EB,false,Rx,0,8,D7,07,F8,09,08,00,00,02,
906589,000002D9,false,Rx,0,8,00,00,00,00,00,00,00,00,
906764,00000061,false,Rx,0,8,69,EF,54,00,00,00,00,00,
906851,000002EC,false,Rx,0,8,02,00,00,00,00,00,00,00,
906898,00000062,false,Rx,0,8,02,02,00,02,40,FF,00,FF,
907604,000002ED,false,Rx,0,8,00,00,00,00,00,00,00,00,
908050,00000063,false,Rx,0,8,00,00,05,00,00,08,FD,00,
908214,000002EE,false,Rx,0,8,00,00,00,00,00,00,00,00,
908274,00000064,false,Rx,0,8,00,00,00,04,FF,FA,00,00,
908363,0000010B,false,Rx,0,8,94,EB,71,00,00,00,00,05,
908423,0000010C,false,Rx,0,8,FF,F9,E7,1F,43,48,44,44,
908667,0000010D,false,Rx,0,8,EF,02,00,00,00,00,01,35,
908864,0000010E,false,Rx,0,8,00,00,0A,00,00,C0,AB,57,
910122,00000396,false,Rx,0,8,5D,E9,F8,0F,08,01,00,02,
910318,00000397,false,Rx,0,8,04,00,00,00,00,00,00,00,
910693,00000419,false,Rx,0,8,22,D0,07,D6,B1,7A,84,00,
911049,00000398,false,Rx,0,8,00,00,00,00,00,00,00,00,
913310,00000121,false,Rx,0,8,C3,23,72,00,00,00,00,05,
913440,00000122,false,Rx,0,8,FF,D9,67,1F,43,44,43,43,
913487,00000123,false,Rx,0,8,F0,02,00,00,00,00,01,35,
913539,00000124,false,Rx,0,8,00,00,0A,00,00,00,20,40,
914455,00000036,false,Rx,0,8,3F,84,72,51,00,00,25,05,
914875,00000037,false,Rx,0,8,05,00,00,10,00,40,00,00,
914978,00000038,false,Rx,0,8,04,00,00,00,60,39,96,D4,
915020,00000039,false,Rx,0,8,00,00,00,00,00,00,00,00,
915493,000003B6,false,Rx,0,8,B6,1D,F8,00,00,00,00,44,
915806,000003B7,false,Rx,0,8,44,00,00,00,00,00,00,00,
915875,000003B8,false,Rx,0,8,EB,02,00,00,00,00,69,0E,
916145,000003B9,false,Rx,0,8,00,00,00,00,00,00,00,00,
917483,00000563,false,Rx,1,8,65,02,00,00,00,00,FF,FF,
919942,000001FB,false,Rx,0,8,93,A9,F2,00,00,00,00,00,
920052,00000405,false,Rx,0,8,14,C0,00,00,00,01,00,00,
920330,000001FC,false,Rx,0,8,00,00,00,00,00,00,00,00,
920535,00000410,false,Rx,0,8,D5,80,54,3C,B4,6A,FF,FF,
920783,000001FD,false,Rx,0,8,00,1A,03,00,00,00,00,00,
921021,00000411,false,Rx,0,8,BD,71,50,50,00,00,44,05,
921277,000001FE,false,Rx,0,8,00,00,00,00,00,00,00,00,
921506,0000019B,false,Rx,0,8,FB,B8,71,00,00,E4,00,00,
921801,00000412,false,Rx,0,8,CC,E0,00,00,00,00,00,00,
921996,0000019C,false,Rx,0,8,40,20,00,00,00,00,0B,09,
922238,00000413,false,Rx,0,8,F5,10,00,41,00,00,00,00,
922487,0000019D,false,Rx,0,8,00,10,00,01,00,00,00,00,
922731,00000414,false,Rx,0,8,87,A0,00,00,28,00,00,00,
922977,0000019E,false,Rx,0,8,15,00,00,00,00,32,00,00,
923378,00000416,false,Rx,0,8,55,00,00,00,00,00,00,00,
923532,00000417,false,Rx,0,8,BF,00,00,00,00,01,00,00,
923759,00000418,false,Rx,0,8,68,E0,00,00,14,0C,00,00,
929729,000001A1,false,Rx,0,8,DB,40,BB,FE,F7,7F,64,00,
929860,0000011B,false,Rx,0,8,35,9C,77,05,80,08,A8,02,
929904,0000012B,false,Rx,0,8,72,66,77,06,00,00,08,00,
930653,0000011C,false,Rx,0,8,00,05,20,00,22,00,01,01,
931265,0000012C,false,Rx,0,8,00,00,01,00,00,64,00,00,
931428,000001A2,false,Rx,0,8,00,00,00,00,00,08,00,00,
931512,000001A3,false,Rx,0,8,FF,F3,3F,00,00,00,00,00,
931613,00000111,false,Rx,0,8,F0,11,D2,01,00,00,00,00,
931677,000001A4,false,Rx,0,8,FE,07,00,00,00,00,00,00,
931720,00000112,false,Rx,0,8,00,00,00,00,00,00,00,00,
931947,00000113,false,Rx,0,8,00,00,00,00,00,00,00,00,
932184,00000114,false,Rx,0,8,00,00,00,00,00,00,00,00,
932581,000004E8,false,Rx,1,8,FF,FF,FF,29,FF,FF,FF,00,
935384,0000030B,false,Rx,0,8,6D,E4,25,00,04,00,00,00,
935520,00000419,false,Rx,0,8,B2,E0,06,D6,B1,7A,84,00,
935816,0000030C,false,Rx,0,8,00,00,0C,00,2C,00,A0,0F,
935940,0000030D,false,Rx,0,8,00,00,00,00,41,00,00,00,
936008,0000030E,false,Rx,0,8,00,00,28,05,21,00,00,FE,
936552,000000A1,false,Rx,0,8,7D,3B,57,8A,D4,EC,A2,00,
937044,000000A2,false,Rx,0,8,00,00,00,00,00,00,00,00,
937121,000000A3,false,Rx,0,8,00,40,01,00,00,00,00,00,
939487,00000161,false,Rx,0,8,16,2B,BC,03,00,00,00,02,
939582,00000162,false,Rx,0,8,FF,FC,01,00,00,00,00,00,
951670,000001AB,false,Rx,0,8,B7,05,BB,40,70,90,00,00,
951758,000001AC,false,Rx,0,8,00,28,00,00,00,00,00,00,
952537,00000487,false,Rx,1,8,00,00,00,00,00,00,00,00,
952810,00000642,false,Rx,1,8,FF,FF,FF,FF,FF,FF,00,00,
956367,00000061,false,Rx,0,8,64,29,59,00,00,00,00,00,
956465,00000062,false,Rx,0,8,02,02,00,02,40,FF,00,FF,
956828,00000063,false,Rx,0,8,00,00,05,00,00,08,FD,00,
956930,00000064,false,Rx,0,8,00,00,00,04,FF,FA,00,00,
957209,0000010B,false,Rx,0,8,67,75,76,00,00,00,00,05,
957409,0000010C,false,Rx,0,8,FF,F9,E7,1F,43,48,44,44,
957628,0000010D,false,Rx,0,8,EF,02,00,00,00,00,01,35,
957893,0000010E,false,Rx,0,8,00,00,0A,00,00,C0,AB,57,
961197,000001F1,false,Rx,0,8,D7,78,45,01,00,00,28,00,
961311,000001F2,false,Rx,0,8,00,00,00,00,00,00,00,00,
962772,00000121,false,Rx,0,8,BC,0F,77,00,00,00,00,05,
962903,00000122,false,Rx,0,8,FF,D9,67,1F,43,44,43,43,
963150,00000123,false,Rx,0,8,F0,02,00,00,00,00,01,35,
963425,00000124,false,Rx,0,8,00,00,0A,00,00,00,20,40,
963997,00000036,false,Rx,0,8,40,A8,77,51,00,00,25,05,
964233,00000037,false,Rx,0,8,05,00,00,10,00,40,00,00,
964617,00000038,false,Rx,0,8,04,00,00,00,60,39,96,D4,
964885,00000039,false,Rx,0,8,00,00,00,00,00,00,00,00,
966654,00000236,false,Rx,0,8,55,37,F2,00,30,63,34,6C,
966891,00000237,false,Rx,0,8,00,05,94,00,00,5B,1D,00,
966962,00000238,false,Rx,0,8,00,00,0C,00,00,00,00,00,
967013,00000239,false,Rx,0,8,00,00,00,00,01,00,00,00,
967178,00000151,false,Rx,0,8,5F,06,F2,A0,C8,00,28,15,
967394,00000152,false,Rx,0,8,12,14,13,00,24,00,00,00,
967660,000001F6,false,Rx,0,8,FE,FD,F2,00,00,00,00,0D,
967906,00000153,false,Rx,0,8,00,00,00,00,00,00,00,00,
968134,000001F7,false,Rx,0,8,1F,00,DC,00,00,00,00,00,
968380,00000154,false,Rx,0,8,00,00,00,00,00,00,00,00,
968624,000001F8,false,Rx,0,8,00,69,00,64,00,00,00,00,
968871,000002FB,false,Rx,0,8,5D,C7,F2,04,0C,15,C3,C3,
969090,000001F9,false,Rx,0,8,19,00,A0,C8,14,00,19,00,
969333,000002FC,false,Rx,0,8,09,00,12,15,00,00,87,96,
969581,0000025B,false,Rx,0,8,3E,24,F2,40,40,20,00,00,
969818,000002FD,false,Rx,0,8,00,00,00,00,00,1C,10,EA,
970061,0000025C,false,Rx,0,8,00,00,1F,00,BD,68,15,00,
970311,000002FE,false,Rx,0,8,00,00,72,01,00,28,00,00,
970559,0000025D,false,Rx,0,8,00,C8,00,00,00,80,C0,70,
970798,000001E6,false,Rx,0,8,FA,C7,E0,02,00,00,00,00,
971072,0000025E,false,Rx,0,8,05,07,0E,01,00,00,00,00,
971284,0000019B,false,Rx,0,8,08,26,76,00,00,E4,00,00,
971523,000001BB,false,Rx,0,8,FD,24,E0,02,00,00,00,0A,
971759,0000019C,false,Rx,0,8,40,20,00,00,00,00,0B,09,
972009,000001BC,false,Rx,0,8,32,00,00,00,02,00,00,00,
972251,0000019D,false,Rx,0,8,00,10,00,01,00,00,00,00,
972515,000001BD,false,Rx,0,8,00,00,00,00,00,00,00,00,
972750,0000019E,false,Rx,0,8,15,00,00,00,00,32,00,00,
972991,000001E7,false,Rx,0,8,00,00,22,03,20,01,00,00,
973235,00000326,false,Rx,0,8,E6,44,F2,00,00,00,00,00,
973467,000003AA,false,Rx,0,8,FF,00,D0,00,54,00,00,00,
973737,00000327,false,Rx,0,8,00,00,00,00,01,00,00,00,
973970,00000328,false,Rx,0,8,DC,00,19,00,00,69,00,00,
974238,00000329,false,Rx,0,8,A0,64,00,00,00,00,00,00,
974505,00000331,false,Rx,0,8,16,65,F2,F1,C8,A0,2C,97,
974747,00000332,false,Rx,0,8,44,07,B4,00,00,00,00,00,
975006,00000333,false,Rx,0,8,00,00,00,1C,0C,40,20,A0,
975237,00000419,false,Rx,0,8,B2,E0,06,D6,B1,7A,84,00,
975491,00000334,false,Rx,0,8,C8,00,00,00,5C,70,B7,8F,
976321,00000495,false,Rx,0,8,49,00,00,00,00,00,00,00,
979436,0000011B,false,Rx,0,8,FD,65,7C,05,80,08,A8,02,
979669,0000012B,false,Rx,0,8,BA,9F,7C,06,00,00,08,00,
979934,0000011C,false,Rx,0,8,00,05,20,00,22,00,01,01,
980164,0000012C,false,Rx,0,8,00,00,01,00,00,64,00,00,
982313,00000356,false,Rx,0,8,E3,0A,13,00,00,00,00,00,
982495,00000357,false,Rx,0,8,00,00,00,00,00,4B,4D,48,
982754,00000358,false,Rx,0,8,35,41,45,4D,52,37,33,4F,
982991,00000359,false,Rx,0,8,51,4F,34,52,4A,35,33,00,
986598,000000A1,false,Rx,0,8,41,CA,5C,8A,D4,EC,A2,00,
986829,000000A2,false,Rx,0,8,00,00,00,00,00,00,00,00,
987083,000000A3,false,Rx,0,8,00,40,01,00,00,00,00,00,
987333,00000448,false,Rx,0,8,7F,00,00,00,00,00,00,00,
994796,000004A3,false,Rx,1,8,80,00,48,0B,3E,00,00,00,
995070,000004A4,false,Rx,1,8,FF,FF,FF,00,00,00,00,00,
996680,00000091,false,Rx,0,8,FF,AD,F0,03,00,00,00,00,
996832,00000092,false,Rx,0,8,12,00,00,00,20,01,00,00,
997095,00000093,false,Rx,0,8,00,00,00,00,00,00,00,00,
997397,00000094,false,Rx,0,8,00,00,00,00,00,00,00,00,
997623,00000146,false,Rx,0,8,DD,3A,B0,10,04,05,00,00,
997888,00000147,false,Rx,0,8,01,04,7D,00,40,B6,02,00,
998131,00000148,false,Rx,0,8,00,00,42,00,00,7A,40,05,
998385,000001B1,false,Rx,0,8,85,32,B0,00,72,00,00,00,
998627,00000149,false,Rx,0,8,00,38,00,0C,00,00,00,00,
998921,000001B2,false,Rx,0,8,23,00,04,0D,10,01,50,0F,
999106,000001B3,false,Rx,0,8,10,2D,33,00,5F,7F,71,7C,
999361,000001B4,false,Rx,0,8,66,7A,10,00,00,41,00,00,
999899,0000036F,false,Rx,0,8,E6,91,01,00,00,00,00,00,
1000150,0000037F,false,Rx,0,8,EC,80,52,24,41,02,00,00,
1004722,000002AB,false,Rx,0,8,7E,55,F3,0C,0C,00,00,00,
1004979,000002AC,false,Rx,0,8,00,FF,FF,00,00,40,00,50,
1005226,000002AD,false,Rx,0,8,00,01,00,40,FF,FF,FF,0F,
1005489,000002AE,false,Rx,0,8,01,00,FF,3F,01,01,00,00,
1005986,000002B6,false,Rx,0,8,4C,E6,F3,01,00,00,00,40,
1006071,000002B7,false,Rx,0,8,93,01,C1,08,00,04,00,00,
1006391,00000061,false,Rx,0,8,97,B7,5E,00,00,00,00,00,
1006521,000002B8,false,Rx,0,8,B2,61,11,00,00,00,00,00,
1006732,00000062,false,Rx,0,8,02,02,00,02,40,FF,00,FF,
1007114,000002B9,false,Rx,0,8,0A,00,00,00,00,00,00,00,
1007416,00000063,false,Rx,0,8,00,00,05,00,00,08,FD,00,
1007678,000002C1,false,Rx,0,8,03,B8,FA,21,00,41,00,A1,
