Time Stamp,ID,Extended,Dir,Bus,LEN,D1,D2,D3,D4,D5,D6,D7,D8
8916623,0000010B,false,Rx,0,8,41,67,6E,00,00,00,00,05,
8916736,0000010C,false,Rx,0,8,FF,F9,E7,1F,46,4F,48,48,
8916911,0000010D,false,Rx,0,8,B5,02,00,00,00,00,01,00,
8917151,0000010E,false,Rx,0,8,00,00,1E,00,00,C0,AB,57,
8920802,00000161,false,Rx,0,8,87,7C,94,03,00,00,00,02,
8920911,0000012B,false,Rx,0,8,4A,B0,28,06,00,00,08,00,
8921165,0000011B,false,Rx,0,8,AC,E0,28,05,80,08,28,02,
8921360,0000012C,false,Rx,0,8,00,00,01,00,00,64,00,00,
8921652,0000011C,false,Rx,0,8,00,05,20,00,22,00,01,01,
8921851,00000162,false,Rx,0,8,FF,FC,01,00,00,00,00,00,
8924288,0000030B,false,Rx,0,8,91,02,8C,00,04,00,00,00,
8924443,0000030C,false,Rx,0,8,00,00,0E,00,2C,00,A0,0F,
8924705,0000030D,false,Rx,0,8,00,00,00,00,44,00,00,00,
8924984,0000030E,false,Rx,0,8,00,00,18,05,21,00,00,04,
8928795,00000036,false,Rx,0,8,F1,CB,83,51,00,00,25,05,
8928973,00000037,false,Rx,0,8,30,00,00,10,00,40,00,00,
8929248,00000038,false,Rx,0,8,04,00,00,00,B0,39,96,D4,
8929488,00000039,false,Rx,0,8,00,00,00,00,00,00,00,00,
8930249,0000019B,false,Rx,0,8,89,52,79,00,00,E4,00,00,
8930571,0000019C,false,Rx,0,8,40,20,00,00,00,00,0B,09,
8930749,0000019D,false,Rx,0,8,00,10,00,01,00,00,00,00,
8931002,00000475,false,Rx,0,8,12,00,00,00,00,00,00,00,
8931252,0000019E,false,Rx,0,8,15,00,00,00,00,32,00,00,
8931482,000001A1,false,Rx,0,8,FA,CA,94,FE,F7,7F,64,00,
8931736,00000496,false,Rx,0,8,12,00,00,00,00,00,00,00,
8931981,000001A2,false,Rx,0,8,44,00,00,00,27,08,00,00,
8932419,000001A3,false,Rx,0,8,FF,F3,3F,00,00,00,00,00,
8932503,000001A4,false,Rx,0,8,FE,07,00,00,00,00,00,00,
8933028,000001F1,false,Rx,0,8,23,61,CD,01,00,00,28,00,
8933124,000001F2,false,Rx,0,8,00,00,00,00,00,00,00,00,
8933292,00000383,false,Rx,0,8,5A,53,00,10,01,00,00,00,
8933507,00000419,false,Rx,0,8,95,60,27,D5,2D,87,90,00,
8940952,00000448,false,Rx,0,8,DE,80,00,00,00,00,00,00,
8941397,000001FB,false,Rx,0,8,3F,10,84,00,00,00,00,00,
8941463,000001FC,false,Rx,0,8,00,00,00,00,00,00,00,00,
8941698,000001FD,false,Rx,0,8,00,1A,03,00,00,00,00,00,
8941967,000001FE,false,Rx,0,8,00,00,00,00,00,00,00,00,
8947607,00000516,false,Rx,0,8,61,02,00,00,00,00,FF,FF,
8947807,00000061,false,Rx,0,8,28,96,03,00,00,00,00,00,
8948089,00000062,false,Rx,0,8,02,02,00,02,40,FF,00,FF,
8948338,00000063,false,Rx,0,8,00,00,05,00,00,08,FD,00,
8948604,00000064,false,Rx,0,8,00,00,00,04,FF,FA,00,00,
8948823,000000A1,false,Rx,0,8,94,D2,03,57,61,02,8A,00,
8949108,000000A2,false,Rx,0,8,00,00,00,00,00,00,00,00,
8949360,000000A3,false,Rx,0,8,00,40,01,00,00,00,00,00,
8949835,00000382,false,Rx,0,8,2B,FE,21,00,00,05,09,00,
8950499,000000C5,false,Rx,1,8,00,00,00,00,00,00,00,00,
8950966,00000244,false,Rx,1,8,FF,FF,FF,FF,FF,FF,FF,FF,
8951432,000003E4,false,Rx,1,8,FE,00,00,00,00,00,00,00,
8951725,000004B4,false,Rx,1,8,00,00,05,40,10,70,04,00,
8951978,000004B5,false,Rx,1,8,08,00,F0,07,00,00,00,00,
8952242,000004B7,false,Rx,1,8,08,00,F0,07,00,00,00,00,
8952510,000004CA,false,Rx,1,8,00,00,00,00,00,00,00,00,
8952793,000004CC,false,Rx,1,8,08,00,00,06,00,00,03,00,
8953063,000004CE,false,Rx,1,8,DE,01,00,00,00,00,F8,FF,
8953330,000004D7,false,Rx,1,8,23,01,00,00,00,00,00,00,
8953577,000004D8,false,Rx,1,8,41,10,F0,F0,40,F2,1E,CC,
8953853,000004DD,false,Rx,1,8,00,00,FE,00,04,00,00,00,
8954119,000004DF,false,Rx,1,8,00,00,08,00,00,00,00,00,
8954393,000004E7,false,Rx,1,8,00,30,00,00,00,00,69,00,
8954669,000004E8,false,Rx,1,8,FF,FF,FF,05,FF,FF,FF,00,
8954885,000004E9,false,Rx,1,8,12,00,00,34,00,00,50,00,
8955175,000004EA,false,Rx,1,8,67,00,00,89,00,00,00,00,
8955439,000004EB,false,Rx,1,8,02,80,16,12,80,00,00,00,
8955709,000004EC,false,Rx,1,8,00,00,00,00,00,00,00,00,
8955984,000004ED,false,Rx,1,8,00,00,00,00,00,FF,FF,1F,
8956264,000004EE,false,Rx,1,8,FF,FF,00,00,00,00,00,00,
8956540,000002BF,false,Rx,0,8,FF,FF,FF,00,00,00,00,00,
8956720,000004EF,false,Rx,1,8,60,00,60,00,2B,14,00,00,
8956801,0000047F,false,Rx,0,8,F0,FC,FF,FF,FF,FF,FF,FF,
8956878,0000063D,false,Rx,1,8,00,80,00,00,00,00,00,00,
8957251,00000151,false,Rx,0,8,65,89,8B,64,C8,00,28,18,
8957549,0000063E,false,Rx,1,8,FF,FF,FF,FF,FF,FF,FF,FF,
8958024,00000152,false,Rx,0,8,14,17,17,00,51,00,00,00,
8958508,0000063F,false,Rx,1,8,00,10,00,C4,FF,00,00,00,
8959059,00000236,false,Rx,0,8,23,7E,8B,00,34,6C,AE,62,
8959422,00000153,false,Rx,0,8,00,00,00,00,00,00,00,00,
8959535,00000640,false,Rx,1,8,FF,FF,FF,00,FF,FF,FF,00,
8959620,00000237,false,Rx,0,8,00,15,47,00,00,1E,1B,00,
8959911,00000154,false,Rx,0,8,00,00,00,00,00,00,00,00,
8959987,00000641,false,Rx,1,8,FF,FF,FF,FF,0F,FF,FF,FF,
8960240,00000238,false,Rx,0,8,00,00,72,00,00,00,00,00,
8960667,00000646,false,Rx,1,8,00,00,00,80,01,00,00,00,
8960796,00000121,false,Rx,0,8,51,C8,69,00,00,00,00,05,
8961141,00000239,false,Rx,0,8,00,00,00,00,01,00,00,00,
8961503,00000122,false,Rx,0,8,FF,D9,67,1F,46,47,46,45,
8961671,000001F6,false,Rx,0,8,2E,55,8B,00,00,00,00,0E,
8961982,00000123,false,Rx,0,8,B6,02,00,00,00,00,01,00,
8962552,000001F7,false,Rx,0,8,26,00,DA,02,00,00,00,00,
8962960,00000124,false,Rx,0,8,00,00,0A,00,00,00,20,40,
8963109,000001F8,false,Rx,0,8,00,5E,01,45,01,00,00,00,
8963672,000002FB,false,Rx,0,8,29,5F,8B,04,72,1A,B4,B4,
8963787,000001F9,false,Rx,0,8,4B,00,64,C8,14,00,4B,00,
8964074,000002FC,false,Rx,0,8,0F,00,14,18,00,00,8E,43,
8964342,0000025B,false,Rx,0,8,9B,16,8B,40,40,20,00,00,
8964426,000002FD,false,Rx,0,8,00,00,00,00,00,1C,13,EA,
8964722,0000025C,false,Rx,0,8,00,00,26,00,B4,2C,19,00,
8965070,000002FE,false,Rx,0,8,00,00,72,01,00,28,C8,02,
8965288,0000025D,false,Rx,0,8,00,C8,00,00,00,80,C0,70,
8965368,00000326,false,Rx,0,8,57,22,8B,00,00,00,00,00,
8965437,0000025E,false,Rx,0,8,1B,07,0E,03,00,00,46,00,
8965764,00000327,false,Rx,0,8,00,00,00,00,05,00,00,00,
8966093,00000328,false,Rx,0,8,DA,02,4B,00,00,5E,01,00,
8966199,00000329,false,Rx,0,8,64,45,01,00,00,00,00,00,
8966251,00000331,false,Rx,0,8,74,87,8B,F1,C8,A0,2C,97,
8966336,00000332,false,Rx,0,8,E8,08,FC,03,00,00,00,00,
8966388,00000333,false,Rx,0,8,00,00,00,1C,0C,40,20,64,
8966457,00000653,false,Rx,0,8,0A,19,03,01,02,2A,00,00,
8966703,0000010B,false,Rx,0,8,89,65,73,00,00,00,00,05,
8967327,00000334,false,Rx,0,8,C8,00,00,00,08,44,F4,8F,
8967449,0000010C,false,Rx,0,8,FF,F9,E7,1F,46,4F,48,48,
8967735,0000010D,false,Rx,0,8,B5,02,00,00,00,00,01,00,
8968023,0000010E,false,Rx,0,8,00,00,1E,00,00,C0,AB,57,
8971033,0000011B,false,Rx,0,8,5A,C8,2D,05,80,08,28,02,
8971130,0000012B,false,Rx,0,8,BC,98,2D,06,00,00,08,00,
8971380,0000011C,false,Rx,0,8,00,05,20,00,22,00,01,01,
8971764,0000012C,false,Rx,0,8,00,00,01,00,00,64,00,00,
8973011,00000419,false,Rx,0,8,95,60,27,D5,2D,87,90,00,
8973499,00000091,false,Rx,0,8,C1,BA,8E,25,06,00,00,00,
8973615,00000092,false,Rx,0,8,24,00,00,00,40,02,00,00,
8974019,00000093,false,Rx,0,8,00,00,00,00,00,00,00,00,
8974271,00000094,false,Rx,0,8,00,00,00,00,00,00,00,00,
8977207,000001E6,false,Rx,0,8,06,E6,16,02,00,00,00,00,
8977301,000001BB,false,Rx,0,8,B5,65,16,02,00,00,00,0A,
8977771,000001BC,false,Rx,0,8,32,00,00,00,02,00,00,00,
8978090,000001BD,false,Rx,0,8,00,00,00,00,00,00,00,00,
8978194,000001E7,false,Rx,0,8,00,00,22,03,20,01,00,00,
8978645,00000256,false,Rx,0,8,47,74,8A,15,40,00,F0,00,
8978970,00000036,false,Rx,0,8,49,CA,88,51,00,00,25,05,
8979130,00000257,false,Rx,0,8,00,93,41,19,85,07,00,94,
8979179,00000037,false,Rx,0,8,30,00,00,10,00,40,00,00,
8979975,00000258,false,Rx,0,8,36,EC,1A,00,10,15,00,28,
8980348,00000038,false,Rx,0,8,04,00,00,00,B0,39,96,D4,
8980658,00000259,false,Rx,0,8,62,05,8E,3C,4C,02,00,00,
8980921,00000039,false,Rx,0,8,00,00,00,00,00,00,00,00,
8981024,000002E6,false,Rx,0,8,96,BD,8A,01,00,00,00,15,
8981091,0000019B,false,Rx,0,8,7A,CC,7E,00,00,E4,00,00,
8981134,000002E7,false,Rx,0,8,0A,00,00,00,00,00,00,00,
8981259,0000019C,false,Rx,0,8,40,20,00,00,00,00,0B,09,
8981318,000002E8,false,Rx,0,8,00,00,00,00,00,00,00,00,
8981975,0000019D,false,Rx,0,8,00,10,00,01,00,00,00,00,
8982291,000002E9,false,Rx,0,8,00,00,00,00,00,00,00,00,
8982591,0000019E,false,Rx,0,8,15,00,00,00,00,32,00,00,
8982713,00000384,false,Rx,0,8,BA,56,0D,01,00,FF,00,24,
8990195,0000042A,false,Rx,0,8,8E,83,0C,02,00,10,00,00,
8991173,00000396,false,Rx,0,8,0F,B3,C5,0F,08,01,00,02,
8991333,00000397,false,Rx,0,8,56,00,43,10,3F,07,00,00,
8991687,00000398,false,Rx,0,8,00,00,00,00,00,00,00,00,
8991931,00000226,false,Rx,0,8,C8,94,DD,FF,63,60,09,42,
8992086,00000227,false,Rx,0,8,02,94,00,09,03,F1,9F,03,
8997590,00000146,false,Rx,0,8,3E,EB,C6,10,04,05,00,00,
8997682,00000061,false,Rx,0,8,90,97,08,00,00,00,00,00,
8998107,00000147,false,Rx,0,8,01,04,7D,00,40,45,07,00,
8998198,00000062,false,Rx,0,8,02,02,00,02,40,FF,00,FF,
8998519,00000148,false,Rx,0,8,00,00,42,00,1E,89,40,05,
8998731,00000063,false,Rx,0,8,00,00,05,00,00,08,FD,00,
8998831,00000149,false,Rx,0,8,00,38,00,CC,00,00,00,00,
8999263,00000064,false,Rx,0,8,00,00,00,04,FF,FA,00,00,
8999609,000000A1,false,Rx,0,8,A8,23,08,57,61,02,8A,00,
8999820,000000A2,false,Rx,0,8,00,00,00,00,00,00,00,00,
8999914,000000A3,false,Rx,0,8,00,40,01,00,00,00,00,00,
9002692,0000036F,false,Rx,0,8,38,D1,01,00,00,00,00,00,
9002783,0000037F,false,Rx,0,8,93,40,52,24,41,02,00,00,
9006617,000001B1,false,Rx,0,8,89,98,C6,00,72,00,00,00,
9006709,000001B2,false,Rx,0,8,23,00,04,B7,0F,08,50,10,
9007134,000001B3,false,Rx,0,8,10,33,38,00,5A,7B,6A,7D,
9007225,000001B4,false,Rx,0,8,65,7D,10,00,00,41,00,00,
9009385,00000121,false,Rx,0,8,54,90,6E,00,00,00,00,05,
9009478,00000122,false,Rx,0,8,FF,D9,67,1F,46,48,46,45,
9009988,00000123,false,Rx,0,8,B6,02,00,00,00,00,01,00,
9010292,00000124,false,Rx,0,8,00,00,0A,00,00,00,20,40,
9011633,000001AB,false,Rx,0,8,3E,B7,55,50,70,50,00,00,
9011739,000001AC,false,Rx,0,8,00,28,00,00,00,00,00,00,
9012631,000003B0,false,Rx,0,8,72,37,FF,C7,00,00,03,C0,
9012730,00000419,false,Rx,0,8,95,60,27,D5,2D,87,90,00,
9016632,0000010B,false,Rx,0,8,31,64,78,00,00,00,00,05,
9016724,0000010C,false,Rx,0,8,FF,F9,E7,1F,46,4F,48,48,
9017141,0000010D,false,Rx,0,8,B5,02,00,00,00,00,01,00,
9017226,0000010E,false,Rx,0,8,00,00,1E,00,00,C0,AB,57,
9020913,000003B2,false,Rx,0,8,36,15,FF,02,29,2F,34,00,
9021142,0000012B,false,Rx,0,8,AC,C2,32,06,00,00,08,00,
9021238,00000485,false,Rx,0,8,00,40,11,02,00,00,00,00,
9021285,0000011B,false,Rx,0,8,4A,92,32,05,80,08,28,02,
9021966,0000012C,false,Rx,0,8,00,00,01,00,00,64,00,00,
9022088,0000011C,false,Rx,0,8,00,05,20,00,22,00,01,01,
9022299,00000161,false,Rx,0,8,F4,45,99,03,00,00,00,02,
9022364,000001E1,false,Rx,0,8,BB,18,0A,02,00,00,00,00,
9022649,00000162,false,Rx,0,8,FF,FC,01,00,00,00,00,00,
9022744,000001E2,false,Rx,0,8,00,00,00,00,00,00,00,00,
9023079,00000405,false,Rx,0,8,D2,10,00,00,00,01,00,00,
9023629,00000410,false,Rx,0,8,6A,60,57,3C,DE,6A,FF,FF,
9023726,00000411,false,Rx,0,8,04,D1,50,51,00,00,44,04,
9024004,00000413,false,Rx,0,8,08,60,00,00,00,00,00,00,
9024128,00000412,false,Rx,0,8,CC,E0,00,00,00,00,00,00,
9024277,00000414,false,Rx,0,8,41,70,00,00,28,00,00,00,
9024650,00000416,false,Rx,0,8,55,00,00,00,00,00,00,00,
9024825,00000417,false,Rx,0,8,20,E0,00,00,00,00,00,00,
9024911,00000418,false,Rx,0,8,07,C0,00,00,14,0C,00,00,
9028850,00000036,false,Rx,0,8,36,E6,8D,51,00,00,25,05,
9028951,00000037,false,Rx,0,8,30,00,00,10,00,40,00,00,
9029372,00000038,false,Rx,0,8,04,00,00,00,B0,39,96,D4,
9029451,00000039,false,Rx,0,8,00,00,00,00,00,00,00,00,
9030185,00000380,false,Rx,0,8,96,92,03,08,08,08,08,01,
9030518,0000019B,false,Rx,0,8,80,32,83,00,00,E4,00,00,
9030591,0000019C,false,Rx,0,8,40,20,00,00,00,00,0B,09,
9031056,000001A1,false,Rx,0,8,F7,0C,99,FE,F7,7F,64,00,
9031389,0000019D,false,Rx,0,8,00,10,00,01,00,00,00,00,
9031658,000001A2,false,Rx,0,8,44,00,00,00,27,08,00,00,
9031960,0000019E,false,Rx,0,8,15,00,00,00,00,32,00,00,
9032300,000001A3,false,Rx,0,8,FF,F3,3F,00,00,00,00,00,
9032387,00000445,false,Rx,0,8,06,10,00,00,00,04,00,18,
9032527,000001A4,false,Rx,0,8,FE,07,00,00,00,00,00,00,
9032572,00000427,false,Rx,0,8,1D,86,FF,00,80,0A,00,00,
9036207,000003A1,false,Rx,0,8,85,73,AD,00,FF,FF,FF,FF,
9036315,000003A2,false,Rx,0,8,00,00,00,00,00,00,00,00,
9037972,00000419,false,Rx,0,8,95,60,27,D5,2D,87,90,00,
9041633,00000487,false,Rx,1,8,00,00,00,00,00,00,00,00,
9041743,00000642,false,Rx,1,8,FF,FF,FF,FF,FF,FF,00,00,
9045780,00000561,false,Rx,0,8,63,02,00,00,00,00,FF,FF,
9047876,00000061,false,Rx,0,8,EF,BB,0D,00,00,00,00,00,
9047966,00000062,false,Rx,0,8,02,02,00,02,40,FF,00,FF,
9048449,00000063,false,Rx,0,8,00,00,05,00,00,08,FD,00,
9048796,00000064,false,Rx,0,8,00,00,00,04,FF,FA,00,00,
9048918,000000A1,false,Rx,0,8,A7,C8,0D,57,61,02,8A,00,
9049120,000000A2,false,Rx,0,8,00,00,00,00,00,00,00,00,
9049178,000000A3,false,Rx,0,8,00,40,01,00,00,00,00,00,
9051725,000000FF,false,Rx,0,8,CB,10,00,00,00,00,02,00,
9052086,00000643,false,Rx,1,8,00,FC,FF,FF,FF,FF,03,00,
9052257,00000394,false,Rx,0,8,2A,22,1A,49,00,00,00,00,
9052330,000003C3,false,Rx,0,8,45,10,31,30,36,00,00,00,
9052380,000003E0,false,Rx,0,8,01,70,01,00,54,03,00,00,
9053574,000003E5,false,Rx,0,8,8E,90,01,00,00,00,00,00,
9053683,000003E6,false,Rx,0,8,7F,00,00,00,00,00,00,00,
9054121,0000041A,false,Rx,0,8,95,40,12,00,00,00,00,00,
9054428,0000041B,false,Rx,0,8,60,30,00,00,00,00,00,00,
9054532,0000041C,false,Rx,0,8,E9,80,E0,00,00,00,00,00,
9055041,00000422,false,Rx,0,8,EA,C0,01,00,00,00,04,00,
9055464,00000432,false,Rx,0,8,03,20,02,00,00,00,00,00,
9056496,00000435,false,Rx,0,8,9F,D0,00,40,00,00,00,00,
9056596,00000442,false,Rx,0,8,CE,20,11,81,00,00,00,00,
9057237,00000444,false,Rx,0,8,6C,30,20,50,55,50,00,00,
9058162,00000464,false,Rx,0,8,B2,70,F0,FF,38,7F,05,00,
9059444,00000121,false,Rx,0,8,6A,54,73,00,00,00,00,05,
9059535,00000122,false,Rx,0,8,FF,D9,67,1F,46,47,46,45,
9060053,00000123,false,Rx,0,8,B6,02,00,00,00,00,01,00,
9060361,00000124,false,Rx,0,8,00,00,0A,00,00,00,20,40,
9066681,0000010B,false,Rx,0,8,4E,48,7D,00,00,00,00,05,
9066774,0000010C,false,Rx,0,8,FF,F9,E7,1F,46,4F,48,48,
9067265,0000010D,false,Rx,0,8,B5,02,00,00,00,00,01,00,
9067560,0000010E,false,Rx,0,8,00,00,1E,00,00,C0,AB,57,
9069960,00000401,false,Rx,0,8,C6,10,10,00,00,04,00,00,
9071116,0000011B,false,Rx,0,8,BC,BA,37,05,80,08,28,02,
9071230,0000012B,false,Rx,0,8,5A,EA,37,06,00,00,08,00,
9071664,0000011C,false,Rx,0,8,00,05,20,00,22,00,01,01,
9071957,0000012C,false,Rx,0,8,00,00,01,00,00,64,00,00,
9072042,00000445,false,Rx,0,8,06,10,00,00,00,04,00,18,
9073484,00000091,false,Rx,0,8,87,E3,8F,25,06,00,00,00,
9073601,00000092,false,Rx,0,8,24,00,00,00,40,02,00,00,
9073922,00000093,false,Rx,0,8,00,00,00,00,00,00,00,00,
9074176,00000094,false,Rx,0,8,00,00,00,00,00,00,00,00,
9078893,00000036,false,Rx,0,8,72,56,92,51,00,00,25,05,
9079004,00000037,false,Rx,0,8,30,00,00,10,00,40,00,00,
9079375,00000038,false,Rx,0,8,04,00,00,00,B0,39,96,D4,
9079459,000003AA,false,Rx,0,8,FF,00,D0,00,54,00,00,00,
9079808,00000039,false,Rx,0,8,00,00,00,00,00,00,00,00,
9080237,000003B6,false,Rx,0,8,C4,EC,C5,00,00,00,00,46,
9080513,000003B7,false,Rx,0,8,46,00,00,00,00,00,00,00,
9080594,0000019B,false,Rx,0,8,38,33,88,00,00,E4,00,00,
9080883,000003B8,false,Rx,0,8,B2,02,00,00,00,00,69,0E,
9081850,0000019C,false,Rx,0,8,40,20,00,00,00,00,0B,09,
9082120,000003B9,false,Rx,0,8,00,00,00,00,00,00,00,00,
9082249,000004A3,false,Rx,1,8,80,00,48,0B,3E,00,00,00,
9082301,0000019D,false,Rx,0,8,00,10,00,01,00,00,00,00,
9082353,000002D6,false,Rx,0,8,75,85,C5,00,00,00,00,00,
9082683,000004A4,false,Rx,1,8,FF,FF,FF,00,00,00,00,00,
9082915,0000019E,false,Rx,0,8,15,00,00,00,00,32,00,00,
9082967,000002D7,false,Rx,0,8,00,00,00,00,03,00,00,00,
9083037,000004F0,false,Rx,1,8,4A,10,16,13,5C,1A,0B,02,
9083085,000002EB,false,Rx,0,8,4C,31,C5,07,08,01,00,02,
9083218,000001F1,false,Rx,0,8,5A,7B,D0,01,00,00,28,00,
9083264,000002D8,false,Rx,0,8,00,00,00,00,00,00,38,47,
9083310,000001F2,false,Rx,0,8,00,00,00,00,00,00,00,00,
9083523,000002D9,false,Rx,0,8,00,00,00,00,00,00,00,00,
9083659,000002EC,false,Rx,0,8,07,00,CF,00,59,00,00,00,
9083893,00000415,false,Rx,0,8,40,13,10,00,08,01,00,00,
9084150,000002ED,false,Rx,0,8,00,00,00,00,00,00,00,00,
9084392,00000495,false,Rx,0,8,49,00,00,00,00,00,00,00,
9084636,000002EE,false,Rx,0,8,00,00,00,00,00,00,00,00,
9089609,00000251,false,Rx,0,8,2C,A2,8C,00,00,00,00,00,
9089701,00000252,false,Rx,0,8,00,00,1B,1B,03,00,00,00,
9090058,00000253,false,Rx,0,8,00,00,00,58,58,00,80,4D,
9090170,000002AB,false,Rx,0,8,33,FC,8F,0C,0C,00,00,00,
9090780,000003B1,false,Rx,0,8,C1,DE,00,80,00,00,20,00,
9090892,000002AC,false,Rx,0,8,00,FF,FF,00,00,40,00,54,
9091195,000002AD,false,Rx,0,8,00,01,00,40,FF,FF,FF,0F,
9091325,000002AE,false,Rx,0,8,01,00,FF,3F,01,01,00,00,
9091459,000002B6,false,Rx,0,8,89,DA,8F,01,00,00,00,40,
9091785,000002B7,false,Rx,0,8,9F,00,50,1C,00,04,00,00,
9091880,000002B8,false,Rx,0,8,FF,F8,10,00,00,00,00,00,
9092241,000002B9,false,Rx,0,8,0A,00,00,00,00,00,00,00,
9092831,000002C1,false,Rx,0,8,A3,AA,C8,21,00,41,00,D4,
9092913,000002C2,false,Rx,0,8,25,00,00,00,00,00,00,00,
9093203,000002C3,false,Rx,0,8,00,00,00,00,00,00,00,00,
9093488,000002FF,false,Rx,0,8,D4,CB,00,71,02,00,00,00,
9093661,000002C4,false,Rx,0,8,00,00,00,00,00,00,00,00,
9093725,00000316,false,Rx,0,8,C9,D8,6F,34,06,80,0A,00,
9093795,000002E1,false,Rx,0,8,0F,91,8F,00,00,00,00,40,
9094077,00000317,false,Rx,0,8,00,00,05,00,00,00,00,00,
9094478,000002E2,false,Rx,0,8,FD,00,00,00,00,14,00,04,
9094532,0000033B,false,Rx,0,8,6B,96,8E,00,00,00,00,00,
9094779,000002E3,false,Rx,0,8,00,00,00,00,00,00,72,01,
9095033,0000033C,false,Rx,0,8,00,00,00,00,F0,00,00,00,
9095296,000002E4,false,Rx,0,8,02,00,00,00,00,00,00,00,
9095546,0000033D,false,Rx,0,8,00,00,00,00,00,00,00,00,
9095850,00000356,false,Rx,0,8,86,DE,C7,00,00,00,00,00,
9096226,0000033E,false,Rx,0,8,00,00,00,00,00,00,00,00,
9096571,00000357,false,Rx,0,8,00,00,00,00,00,4B,4D,48,
9096876,00000472,false,Rx,0,8,5C,EC,00,40,08,41,00,45,
9096939,00000358,false,Rx,0,8,35,41,45,4D,52,37,33,4F,
9097246,00000473,false,Rx,0,8,5F,24,00,25,00,00,00,78,
9097520,00000359,false,Rx,0,8,51,4F,34,52,4A,35,33,00,
9097764,00000146,false,Rx,0,8,33,2D,CB,10,04,05,00,00,
9097833,00000061,false,Rx,0,8,AB,0B,12,00,00,00,00,00,
9097925,00000147,false,Rx,0,8,01,04,7D,00,40,45,07,00,
9098161,00000062,false,Rx,0,8,02,02,00,02,40,FF,00,FF,
9098401,00000148,false,Rx,0,8,00,00,42,00,1E,89,40,05,
9098631,00000063,false,Rx,0,8,00,00,05,00,00,08,FD,00,
9098922,00000149,false,Rx,0,8,00,38,00,CC,00,00,00,00,
9099245,00000064,false,Rx,0,8,00,00,00,04,FF,FA,00,00,
9099916,00000474,false,Rx,0,8,91,72,00,00,00,00,00,08,
9100248,000000A1,false,Rx,0,8,C4,A5,12,57,61,02,8A,00,
9100327,000000A2,false,Rx,0,8,00,00,00,00,00,00,00,00,
9100559,000000A3,false,Rx,0,8,00,40,01,00,00,00,00,00,
9102910,0000036F,false,Rx,0,8,EE,E1,01,00,00,00,00,00,
9103280,00000111,false,Rx,0,8,A8,16,F5,01,00,00,00,00,
9103581,0000037F,false,Rx,0,8,2A,50,52,24,41,02,00,00,
9103920,00000112,false,Rx,0,8,00,00,00,00,00,00,00,00,
9104121,00000113,false,Rx,0,8,00,00,00,00,00,00,00,00,
9104174,00000114,false,Rx,0,8,00,00,00,00,00,00,00,00,
9106970,000001B1,false,Rx,0,8,84,5E,CB,00,72,00,00,00,
9107076,000001B2,false,Rx,0,8,23,00,04,B7,0F,08,50,10,
9107137,000001B3,false,Rx,0,8,10,33,38,00,5A,7B,6A,7D,
9107510,000001B4,false,Rx,0,8,65,7D,10,00,00,41,00,00,
9109410,00000121,false,Rx,0,8,24,93,78,00,00,00,00,05,
9109509,00000122,false,Rx,0,8,FF,D9,67,1F,46,48,46,45,
9109747,00000123,false,Rx,0,8,B6,02,00,00,00,00,01,00,
9109860,00000124,false,Rx,0,8,00,00,0A,00,00,00,20,40,
9111204,00000445,false,Rx,0,8,06,10,00,00,00,04,00,18,
9111650,000001AB,false,Rx,0,8,24,CE,5A,50,70,50,00,00,
9111749,000001AC,false,Rx,0,8,00,28,00,00,00,00,00,00,
9116634,0000010B,false,Rx,0,8,38,04,82,00,00,00,00,05,
9116725,0000010C,false,Rx,0,8,FF,F9,E7,1F,46,4F,48,48,
9117129,0000010D,false,Rx,0,8,B5,02,00,00,00,00,01,00,
9117222,0000010E,false,Rx,0,8,00,00,1E,00,00,C0,AB,57,
9120986,0000011B,false,Rx,0,8,74,43,3C,05,80,08,28,02,
9121079,0000012B,false,Rx,0,8,92,13,3C,06,00,00,08,00,
9121937,0000011C,false,Rx,0,8,00,05,20,00,22,00,01,01,
9122068,0000012C,false,Rx,0,8,00,00,01,00,00,64,00,00,
9122458,000004F0,false,Rx,1,8,4A,10,16,13,5C,1A,0B,02,
9122562,00000161,false,Rx,0,8,6B,2D,9E,03,00,00,00,02,
9122862,00000162,false,Rx,0,8,FF,FC,01,00,00,00,00,00,
9124423,0000030B,false,Rx,0,8,1A,DB,8E,00,04,00,00,00,
9124530,0000030C,false,Rx,0,8,00,00,0E,00,2C,00,A0,0F,
9124966,0000030D,false,Rx,0,8,00,00,00,00,43,00,00,00,
9125278,0000030E,false,Rx,0,8,00,00,18,05,21,00,00,0A,
9127344,000001E6,false,Rx,0,8,1C,9F,19,02,00,00,00,00,
9127464,000001BB,false,Rx,0,8,85,48,19,02,00,00,00,0A,
9127864,000001BC,false,Rx,0,8,32,00,00,00,02,00,00,00,
9128051,000001BD,false,Rx,0,8,00,00,00,00,00,00,00,00,
9128136,000001E7,false,Rx,0,8,00,00,22,03,20,01,00,00,
9128915,00000036,false,Rx,0,8,0D,7A,97,51,00,00,25,05,
9129035,00000037,false,Rx,0,8,30,00,00,10,00,40,00,00,
9129389,00000038,false,Rx,0,8,04,00,00,00,B0,39,96,D4,
9129669,00000039,false,Rx,0,8,00,00,00,00,00,00,00,00,
9130390,0000019B,false,Rx,0,8,47,1F,8D,00,00,E4,00,00,
9130589,0000019C,false,Rx,0,8,40,20,00,00,00,00,0B,09,
9130812,0000019D,false,Rx,0,8,00,10,00,01,00,00,00,00,
9131063,00000475,false,Rx,0,8,12,00,00,00,00,00,00,00,
9131313,0000019E,false,Rx,0,8,15,00,00,00,00,32,00,00,
9131534,000001A1,false,Rx,0,8,04,92,9E,FE,F7,7F,64,00,
9131794,00000496,false,Rx,0,8,12,00,00,00,00,00,00,00,
9132039,000001A2,false,Rx,0,8,44,00,00,00,27,08,00,00,
9132545,000001A3,false,Rx,0,8,FF,F3,3F,00,00,00,00,00,
9133119,000001A4,false,Rx,0,8,FE,07,00,00,00,00,00,00,
9133539,00000383,false,Rx,0,8,5A,53,00,10,01,00,00,00,
9136399,00000563,false,Rx,1,8,65,02,00,00,00,00,FF,FF,
9141039,00000448,false,Rx,0,8,DE,80,00,00,00,00,00,00,
9141493,000001FB,false,Rx,0,8,B3,A2,86,00,00,00,00,00,
9141620,000001FC,false,Rx,0,8,00,00,00,00,00,00,00,00,
9141986,000001FD,false,Rx,0,8,00,1A,03,00,00,00,00,00,
9142064,000001FE,false,Rx,0,8,00,00,00,00,00,00,00,00,
9147831,00000061,false,Rx,0,8,D4,27,17,00,00,00,00,00,
9147955,00000062,false,Rx,0,8,02,02,00,02,40,FF,00,FF,
9148360,00000063,false,Rx,0,8,00,00,05,00,00,08,FD,00,
9148443,00000064,false,Rx,0,8,00,00,00,04,FF,FA,00,00,
9148774,000000A1,false,Rx,0,8,CB,4E,17,57,61,02,8A,00,
9149046,000000A2,false,Rx,0,8,00,00,00,00,00,00,00,00,
9149203,000000A3,false,Rx,0,8,00,40,01,00,00,00,00,00,
9150145,00000382,false,Rx,0,8,2B,FE,21,00,00,05,09,00,
9151739,000000C5,false,Rx,1,8,00,00,00,00,00,00,00,00,
9152062,00000244,false,Rx,1,8,FF,FF,FF,FF,FF,FF,FF,FF,
9152428,0000041F,false,Rx,1,8,00,0C,00,00,00,00,00,00,
9152576,000004B4,false,Rx,1,8,00,00,05,40,10,70,04,00,
9152705,000004B5,false,Rx,1,8,08,00,F0,07,00,00,00,00,
9152758,000004B7,false,Rx,1,8,08,00,F0,07,00,00,00,00,
9153348,000004CA,false,Rx,1,8,00,00,00,00,00,00,00,00,
9153839,000004CC,false,Rx,1,8,08,00,00,06,00,00,03,00,
9154108,000004CE,false,Rx,1,8,DE,01,00,00,00,00,F8,FF,
9154197,000004D7,false,Rx,1,8,23,01,00,00,00,00,00,00,
9154380,000004D8,false,Rx,1,8,41,10,F0,F0,40,F2,1E,CC,
9154691,000004DD,false,Rx,1,8,00,00,FE,00,04,00,00,00,
9154952,000004DF,false,Rx,1,8,00,00,08,00,00,00,00,00,
9155141,000004E7,false,Rx,1,8,00,30,00,00,00,00,69,00,
9155202,000004E8,false,Rx,1,8,FF,FF,FF,05,FF,FF,FF,00,
9155312,000004E9,false,Rx,1,8,12,00,00,34,00,00,50,00,
9155515,000004EA,false,Rx,1,8,67,00,00,89,00,00,00,00,
9155803,000004EB,false,Rx,1,8,02,80,16,13,80,00,00,00,
9156322,000004EC,false,Rx,1,8,00,00,00,00,00,00,00,00,
9156596,000004ED,false,Rx,1,8,00,00,00,00,00,FF,FF,1F,
9157600,000002BF,false,Rx,0,8,FF,FF,FF,00,00,00,00,00,
9158162,000004EE,false,Rx,1,8,FF,FF,00,00,00,00,00,00,
9158443,000004EF,false,Rx,1,8,60,00,60,00,2B,14,00,00,
9158809,0000047F,false,Rx,0,8,F0,FC,FF,FF,FF,FF,FF,FF,
9158918,0000063D,false,Rx,1,8,00,80,00,00,00,00,00,00,
9158986,00000236,false,Rx,0,8,96,B9,8D,00,34,6C,AE,62,
9159167,0000063E,false,Rx,1,8,FF,FF,FF,FF,FF,FF,FF,FF,
9159281,00000151,false,Rx,0,8,D0,4E,8D,64,C8,00,28,18,
9159348,0000063F,false,Rx,1,8,00,10,00,C4,FF,00,00,00,
9159422,00000237,false,Rx,0,8,00,15,47,00,00,1E,1B,00,
9159793,00000152,false,Rx,0,8,14,17,17,00,51,00,00,00,
9160173,00000640,false,Rx,1,8,FF,FF,FF,00,FF,FF,FF,00,
9160483,00000238,false,Rx,0,8,00,00,72,00,00,00,00,00,
9160793,00000641,false,Rx,1,8,FF,FF,FF,FF,0F,FF,FF,FF,
9160879,00000153,false,Rx,0,8,00,00,00,00,00,00,00,00,
9161163,00000646,false,Rx,1,8,00,00,00,80,01,00,00,00,
9161271,00000239,false,Rx,0,8,00,00,00,00,01,00,00,00,
9161337,00000154,false,Rx,0,8,00,00,00,00,00,00,00,00,
9161652,00000121,false,Rx,0,8,5B,BF,7D,00,00,00,00,05,
9161746,000001F6,false,Rx,0,8,9B,92,8D,00,00,00,00,0E,
9162044,00000122,false,Rx,0,8,FF,D9,67,1F,46,48,46,45,
9162385,000001F7,false,Rx,0,8,26,00,DA,02,00,00,00,00,
9162908,00000123,false,Rx,0,8,B6,02,00,00,00,00,01,00,
9163553,000001F8,false,Rx,0,8,00,5E,01,45,01,00,00,00,
9163918,00000124,false,Rx,0,8,00,00,0A,00,00,00,20,40,
9164235,000001F9,false,Rx,0,8,4B,00,64,C8,14,00,4B,00,
9164523,000002FB,false,Rx,0,8,9C,98,8D,04,72,1A,B4,B4,
9164616,0000025B,false,Rx,0,8,E1,F4,8D,40,40,20,00,00,
9164935,000002FC,false,Rx,0,8,0F,00,14,18,00,00,8E,43,
9165079,0000025C,false,Rx,0,8,00,00,26,00,B4,2C,19,00,
9165157,000002FD,false,Rx,0,8,00,00,00,00,00,1C,13,EA,
9165202,0000025D,false,Rx,0,8,00,C8,00,00,00,80,C0,70,
9165260,000002FE,false,Rx,0,8,00,00,72,01,00,28,C8,02,
9165386,000004F0,false,Rx,1,8,4A,10,16,13,5C,1A,0B,02,
9165432,0000025E,false,Rx,0,8,5C,07,0E,08,00,00,46,00,
9166165,00000326,false,Rx,0,8,E2,E5,8D,00,00,00,00,00,
9166328,00000327,false,Rx,0,8,00,00,00,00,05,00,00,00,
9166383,00000328,false,Rx,0,8,DA,02,4B,00,00,5E,01,00,
9166427,00000329,false,Rx,0,8,64,45,01,00,00,00,00,00,
9166512,00000331,false,Rx,0,8,C1,40,8D,F1,C8,A0,2C,97,
9166575,00000332,false,Rx,0,8,E8,08,FC,03,00,00,00,00,
9166915,00000333,false,Rx,0,8,00,00,00,1C,0C,40,20,64,
9167246,0000010B,false,Rx,0,8,47,28,87,00,00,00,00,05,
9167346,00000334,false,Rx,0,8,C8,00,00,00,08,44,F4,8F,
9167494,0000010C,false,Rx,0,8,FF,F9,E7,1F,46,4F,48,48,
9167559,0000010D,false,Rx,0,8,B5,02,00,00,00,00,01,00,
9168513,0000010E,false,Rx,0,8,00,00,1E,00,00,C0,AB,57,
9168877,00000653,false,Rx,0,8,0A,19,03,01,02,2A,00,00,
9171227,0000011B,false,Rx,0,8,31,93,41,05,80,08,28,02,
9171577,0000012B,false,Rx,0,8,D7,C3,41,06,00,00,08,00,
9172136,0000011C,false,Rx,0,8,00,05,20,00,22,00,01,01,
9172235,0000012C,false,Rx,0,8,00,00,01,00,00,64,00,00,
9172452,000001E1,false,Rx,0,8,24,70,0D,02,00,00,00,00,
9172885,000001E2,false,Rx,0,8,00,00,00,00,00,00,00,00,
9173961,00000091,false,Rx,0,8,C3,53,90,25,06,00,00,00,
9174241,00000092,false,Rx,0,8,24,00,00,00,40,02,00,00,
9174365,00000093,false,Rx,0,8,00,00,00,00,00,00,00,00,
9174665,00000094,false,Rx,0,8,00,00,00,00,00,00,00,00,
9178662,00000256,false,Rx,0,8,44,9C,8C,15,40,00,F0,00,
9178756,00000036,false,Rx,0,8,B5,7B,9C,51,00,00,25,05,
9179202,00000257,false,Rx,0,8,00,94,41,18,85,07,00,94,
9179273,00000037,false,Rx,0,8,30,00,00,10,00,40,00,00,
9179595,00000258,false,Rx,0,8,36,EC,1A,00,10,15,00,28,
9179933,00000038,false,Rx,0,8,04,00,00,00,B0,39,96,D4,
9180014,00000259,false,Rx,0,8,5E,05,8D,3C,4C,02,00,00,
9180265,00000039,false,Rx,0,8,00,00,00,00,00,00,00,00,
9180436,0000019B,false,Rx,0,8,03,AF,92,00,00,E4,00,00,
9180592,000002E6,false,Rx,0,8,23,7A,8C,01,00,00,00,15,
9181023,0000019C,false,Rx,0,8,40,20,00,00,00,00,0B,09,
9181585,000002E7,false,Rx,0,8,0A,00,00,00,00,00,00,00,
9181687,0000019D,false,Rx,0,8,00,10,00,01,00,00,00,00,
9181958,000002E8,false,Rx,0,8,00,00,00,00,00,00,00,00,
9182574,0000019E,false,Rx,0,8,15,00,00,00,00,32,00,00,
9182699,000002E9,false,Rx,0,8,00,00,00,00,00,00,00,00,
9183006,00000384,false,Rx,0,8,BA,56,0D,01,00,FF,00,24,
9190061,0000042A,false,Rx,0,8,8E,83,0C,02,00,10,00,00,
9191150,00000396,false,Rx,0,8,38,E4,C6,0F,08,01,00,02,
9191278,00000397,false,Rx,0,8,35,00,43,10,3F,07,00,00,
9191656,00000398,false,Rx,0,8,00,00,00,00,00,00,00,00,
9192545,00000226,false,Rx,0,8,A1,D4,DF,FF,63,60,09,42,
9192682,00000227,false,Rx,0,8,02,94,00,09,03,F1,9F,03,
9197573,00000146,false,Rx,0,8,4E,E8,D0,10,04,05,00,00,
9197666,00000147,false,Rx,0,8,01,04,7D,00,40,45,07,00,
9198072,00000061,false,Rx,0,8,6C,26,1C,00,00,00,00,00,
9198421,00000148,false,Rx,0,8,00,00,42,00,1E,89,40,05,
9198513,00000062,false,Rx,0,8,02,02,00,02,40,FF,00,FF,
9198676,00000149,false,Rx,0,8,00,38,00,CC,00,00,00,00,
9198853,00000063,false,Rx,0,8,00,00,05,00,00,08,FD,00,
9199204,00000064,false,Rx,0,8,00,00,00,04,FF,FA,00,00,
9199387,000000A1,false,Rx,0,8,F7,BF,1C,57,61,02,8A,00,
9199556,000000A2,false,Rx,0,8,00,00,00,00,00,00,00,00,
9199838,000000A3,false,Rx,0,8,00,40,01,00,00,00,00,00,
9202485,0000036F,false,Rx,0,8,FE,01,01,00,00,00,00,00,
9202679,0000037F,false,Rx,0,8,FC,60,52,24,41,02,00,00,
9206547,000001B1,false,Rx,0,8,F9,9B,D0,00,72,00,00,00,
9206639,000001B2,false,Rx,0,8,23,00,04,B7,0F,08,50,10,
9207062,000001B3,false,Rx,0,8,10,33,38,00,5A,7B,6A,7D,
9207143,000001B4,false,Rx,0,8,65,7D,10,00,00,41,00,00,
9209360,00000121,false,Rx,0,8,DB,35,82,00,00,00,00,05,
9209460,00000122,false,Rx,0,8,FF,D9,67,1F,46,47,46,45,
9209898,00000123,false,Rx,0,8,B6,02,00,00,00,00,01,00,
9209981,00000124,false,Rx,0,8,00,00,0A,00,00,00,20,40,
9210632,000001AB,false,Rx,0,8,D2,E6,5F,50,70,50,00,00,
9210712,000001AC,false,Rx,0,8,00,28,00,00,00,00,00,00,
9212499,000003B0,false,Rx,0,8,72,37,FF,C7,00,00,03,C0,
9216634,0000010B,false,Rx,0,8,FF,29,8C,00,00,00,00,05,
9216727,0000010C,false,Rx,0,8,FF,F9,E7,1F,46,4F,48,48,
9217131,0000010D,false,Rx,0,8,B5,02,00,00,00,00,01,00,
9217230,0000010E,false,Rx,0,8,00,00,1E,00,00,C0,AB,57,
9220403,000003B2,false,Rx,0,8,36,15,FF,02,29,2F,34,00,
9220901,0000011B,false,Rx,0,8,AE,FB,46,05,80,08,28,02,
9221082,0000012B,false,Rx,0,8,48,AB,46,06,00,00,08,00,
9221368,0000011C,false,Rx,0,8,00,05,20,00,22,00,01,01,
9221574,0000012C,false,Rx,0,8,00,00,01,00,00,64,00,00,
9221813,00000445,false,Rx,0,8,D6,20,00,00,00,00,00,18,
9222255,00000161,false,Rx,0,8,06,71,A3,03,00,00,00,02,
9222360,00000162,false,Rx,0,8,FF,FC,01,00,00,00,00,00,
9222505,00000405,false,Rx,0,8,D2,10,00,00,00,01,00,00,
9222892,00000410,false,Rx,0,8,6A,60,57,3C,DE,6A,FF,FF,
9223253,00000411,false,Rx,0,8,04,D1,50,51,00,00,44,04,
9223569,00000412,false,Rx,0,8,CC,E0,00,00,00,00,00,00,
9223846,00000413,false,Rx,0,8,08,60,00,00,00,00,00,00,
9224144,00000414,false,Rx,0,8,41,70,00,00,28,00,00,00,
9224215,00000416,false,Rx,0,8,55,00,00,00,00,00,00,00,
9224836,00000417,false,Rx,0,8,20,E0,00,00,00,00,00,00,
9224950,00000418,false,Rx,0,8,07,C0,00,00,14,0C,00,00,
9225262,00000419,false,Rx,0,8,95,60,27,D5,2D,87,90,00,
9228852,00000036,false,Rx,0,8,D6,E0,A1,51,00,00,25,05,
9228979,00000037,false,Rx,0,8,30,00,00,10,00,40,00,00,
9229366,00000038,false,Rx,0,8,04,00,00,00,B0,39,96,D4,
9229740,00000039,false,Rx,0,8,00,00,00,00,00,00,00,00,
9229992,00000380,false,Rx,0,8,96,92,03,08,08,08,08,01,
9230492,0000019B,false,Rx,0,8,7C,83,97,00,00,E4,00,00,
9230833,0000019C,false,Rx,0,8,40,20,00,00,00,00,0B,09,
9230932,00000565,false,Rx,0,8,66,02,00,00,00,00,FF,FF,
9231556,0000019D,false,Rx,0,8,00,10,00,01,00,00,00,00,
9231669,000001A1,false,Rx,0,8,67,09,A3,FE,F7,7F,64,00,
9231961,0000019E,false,Rx,0,8,15,00,00,00,00,32,00,00,
9232256,000001A2,false,Rx,0,8,44,00,00,00,27,08,00,00,
9232465,00000427,false,Rx,0,8,1D,86,FF,00,80,0A,00,00,
9232620,000001A3,false,Rx,0,8,FF,F3,3F,00,00,00,00,00,
9232935,000001A4,false,Rx,0,8,FE,07,00,00,00,00,00,00,
9233295,000001F1,false,Rx,0,8,17,93,D3,01,00,00,28,00,
9233621,000001F2,false,Rx,0,8,00,00,00,00,00,00,00,00,
9236563,000003A1,false,Rx,0,8,C8,9B,AE,00,FF,FF,FF,FF,
9236656,000003A2,false,Rx,0,8,00,00,00,00,00,00,00,00,
9242379,00000487,false,Rx,1,8,00,00,00,00,00,00,00,00,
9242531,00000642,false,Rx,1,8,FF,FF,FF,FF,FF,FF,00,00,
9247763,00000419,false,Rx,0,8,DB,70,27,D5,31,87,90,00,
9247856,00000061,false,Rx,0,8,0F,BD,21,00,00,00,00,00,
9248260,00000062,false,Rx,0,8,02,02,00,02,40,FF,00,FF,
9248613,00000063,false,Rx,0,8,00,00,05,00,00,08,FD,00,
9248721,00000064,false,Rx,0,8,00,00,00,04,FF,FA,00,00,
9249103,000000A1,false,Rx,0,8,34,3C,21,57,61,02,8A,00,
9249455,000000A2,false,Rx,0,8,00,00,00,00,00,00,00,00,
9249759,000000A3,false,Rx,0,8,00,40,01,00,00,00,00,00,
9251022,000000FF,false,Rx,0,8,CB,10,00,00,00,00,02,00,
9251718,00000394,false,Rx,0,8,2A,22,1A,49,00,00,00,00,
9251831,000003C3,false,Rx,0,8,45,10,31,30,36,00,00,00,
9252199,000003E0,false,Rx,0,8,01,70,01,00,54,03,00,00,
9253458,000003E5,false,Rx,0,8,8E,90,01,00,00,00,00,00,
9253565,000003E6,false,Rx,0,8,7F,00,00,00,00,00,00,00,
9253941,0000041A,false,Rx,0,8,95,40,12,00,00,00,00,00,
9254036,0000041B,false,Rx,0,8,60,30,00,00,00,00,00,00,
9254366,0000041C,false,Rx,0,8,E9,80,E0,00,00,00,00,00,
9254872,00000422,false,Rx,0,8,EA,C0,01,00,00,00,04,00,
9254945,00000432,false,Rx,0,8,03,20,02,00,00,00,00,00,
9255475,00000464,false,Rx,0,8,B2,70,F0,FF,38,7F,05,00,
9256441,00000435,false,Rx,0,8,9F,D0,00,40,00,00,00,00,
9256569,00000442,false,Rx,0,8,CE,20,11,81,00,00,00,00,
9256624,00000444,false,Rx,0,8,6C,30,20,50,55,50,00,00,
9259473,00000121,false,Rx,0,8,A4,19,87,00,00,00,00,05,
9259585,00000122,false,Rx,0,8,FF,D9,67,1F,46,47,46,45,
9259939,00000123,false,Rx,0,8,B6,02,00,00,00,00,01,00,
9260032,00000124,false,Rx,0,8,00,00,0A,00,00,00,20,40,
9261277,00000445,false,Rx,0,8,D6,20,00,00,00,00,00,18,
9266651,0000010B,false,Rx,0,8,37,2B,91,00,00,00,00,05,
9266742,0000010C,false,Rx,0,8,FF,F9,E7,1F,46,4F,48,48,
9267147,0000010D,false,Rx,0,8,B5,02,00,00,00,00,01,00,
9267234,0000010E,false,Rx,0,8,00,00,1E,00,00,C0,AB,57,
9270132,00000401,false,Rx,0,8,C6,10,10,00,00,04,00,00,
9271028,0000011B,false,Rx,0,8,DD,C2,4B,05,80,08,28,02,
9271240,0000011C,false,Rx,0,8,00,05,20,00,22,00,01,01,
9271490,0000012B,false,Rx,0,8,3B,92,4B,06,00,00,08,00,
9271791,0000012C,false,Rx,0,8,00,00,01,00,00,64,00,00,
9272863,00000419,false,Rx,0,8,34,80,26,D5,31,87,90,00,
9273499,00000091,false,Rx,0,8,A2,1B,91,25,06,00,00,00,
9273626,00000092,false,Rx,0,8,25,00,00,00,50,02,00,00,
9273851,00000093,false,Rx,0,8,00,00,00,00,00,00,00,00,
9274119,00000094,false,Rx,0,8,00,00,00,00,00,00,00,00,
9277591,000001E6,false,Rx,0,8,EA,B7,1C,02,00,00,00,00,
9277736,000001BB,false,Rx,0,8,8A,A3,1C,02,00,00,00,0A,
9278064,000001BC,false,Rx,0,8,32,00,00,00,02,00,00,00,
9278157,000001BD,false,Rx,0,8,00,00,00,00,00,00,00,00,
9278474,000001E7,false,Rx,0,8,00,00,22,03,20,01,00,00,
9278751,00000036,false,Rx,0,8,25,7E,A6,51,00,00,25,05,
9278940,00000037,false,Rx,0,8,30,00,00,10,00,40,00,00,
9279229,00000038,false,Rx,0,8,04,00,00,00,B0,39,96,D4,
9279460,000003AA,false,Rx,0,8,FF,00,D0,00,54,00,00,00,
9279696,00000039,false,Rx,0,8,00,00,00,00,00,00,00,00,
9280205,000003B6,false,Rx,0,8,0E,07,C6,00,00,00,00,46,
9280402,0000019B,false,Rx,0,8,C4,82,9C,00,00,E4,00,00,
9280534,000003B7,false,Rx,0,8,46,00,00,00,00,00,00,00,
9280936,0000019C,false,Rx,0,8,40,20,00,00,00,00,0B,09,
9281296,000003B8,false,Rx,0,8,B2,02,00,00,00,00,69,0E,
9281619,0000019D,false,Rx,0,8,00,10,00,01,00,00,00,00,
9281892,000003B9,false,Rx,0,8,00,00,00,00,00,00,00,00,
9281979,0000019E,false,Rx,0,8,15,00,00,00,00,32,00,00,
9282042,000002D6,false,Rx,0,8,BF,6E,C6,00,00,00,00,00,
9282251,000002EB,false,Rx,0,8,21,E7,C6,07,08,01,00,02,
9282647,000004A3,false,Rx,1,8,80,00,48,0B,3E,00,00,00,
9282782,000002D7,false,Rx,0,8,00,00,00,00,03,00,00,00,
9282826,000002EC,false,Rx,0,8,02,00,CF,00,59,00,00,00,
9282961,000004A4,false,Rx,1,8,FF,FF,FF,00,00,00,00,00,
9283074,000002D8,false,Rx,0,8,00,00,00,00,00,00,38,47,
9283230,000002ED,false,Rx,0,8,00,00,00,00,00,00,00,00,
9283467,000002D9,false,Rx,0,8,00,00,00,00,00,00,00,00,
9283721,000002EE,false,Rx,0,8,00,00,00,00,00,00,00,00,
9283962,00000495,false,Rx,0,8,49,00,00,00,00,00,00,00,
9289503,00000251,false,Rx,0,8,2A,CC,8E,00,00,00,00,00,
9289596,00000252,false,Rx,0,8,00,00,1B,1B,03,00,00,00,
9290031,00000253,false,Rx,0,8,00,00,00,58,58,00,80,4D,
9290096,000002AB,false,Rx,0,8,31,15,91,0C,0C,00,00,00,
9290477,000003B1,false,Rx,0,8,C1,DE,00,80,00,00,20,00,
9290802,000002AC,false,Rx,0,8,00,FF,FF,00,00,40,00,54,
9291025,000002AD,false,Rx,0,8,00,01,00,40,FF,FF,FF,0F,
9291074,000002AE,false,Rx,0,8,01,00,FF,3F,01,01,00,00,
9291334,000002B6,false,Rx,0,8,8B,33,91,01,00,00,00,40,
9291746,000002B7,false,Rx,0,8,9F,00,50,1C,00,04,00,00,
9291937,000002B8,false,Rx,0,8,FF,F8,10,00,00,00,00,00,
9292111,000002B9,false,Rx,0,8,0A,00,00,00,00,00,00,00,
9292764,000002C1,false,Rx,0,8,67,17,C9,21,00,41,00,D4,
9293120,000002FF,false,Rx,0,8,D4,CB,00,71,02,00,00,00,
9293217,000002C2,false,Rx,0,8,26,00,00,00,00,00,00,00,
9293509,00000316,false,Rx,0,8,D9,82,70,34,06,80,0A,00,
9293825,000002C3,false,Rx,0,8,00,00,00,00,00,00,00,00,
9294121,00000317,false,Rx,0,8,00,00,05,00,00,00,00,00,
9294208,000002C4,false,Rx,0,8,00,00,00,00,00,00,00,00,
9294266,0000033B,false,Rx,0,8,69,7F,90,00,00,00,00,00,
9294481,000002E1,false,Rx,0,8,0D,78,91,00,00,00,00,40,
9294577,0000033C,false,Rx,0,8,00,00,00,00,F0,00,00,00,
9295164,000002E2,false,Rx,0,8,FD,00,00,00,00,14,00,04,
9295524,0000033D,false,Rx,0,8,00,00,00,00,00,00,00,00,
9295619,000002E3,false,Rx,0,8,00,00,00,00,00,00,72,01,
9295914,0000033E,false,Rx,0,8,00,00,00,00,00,00,00,00,
9296183,000002E4,false,Rx,0,8,02,00,00,00,00,00,00,00,
9296283,00000356,false,Rx,0,8,07,AA,C8,00,00,00,00,00,
9296562,00000472,false,Rx,0,8,5C,EC,00,40,08,41,00,45,
9296627,00000357,false,Rx,0,8,00,00,00,00,00,4B,4D,48,
9297193,00000473,false,Rx,0,8,5F,24,00,25,00,00,00,78,
9297536,00000358,false,Rx,0,8,35,41,45,4D,52,37,33,4F,
9297660,00000474,false,Rx,0,8,91,72,00,00,00,00,00,08,
9297936,00000146,false,Rx,0,8,31,C4,D5,10,04,05,00,00,
9298003,00000061,false,Rx,0,8,FC,23,26,00,00,00,00,00,
9298249,00000147,false,Rx,0,8,01,04,7D,00,40,45,07,00,
9298306,00000062,false,Rx,0,8,02,02,00,02,40,FF,00,FF,
9298931,00000148,false,Rx,0,8,00,00,42,00,1E,89,40,05,
9299288,00000063,false,Rx,0,8,00,00,05,00,00,08,FD,00,
9299601,00000149,false,Rx,0,8,00,38,00,CC,00,00,00,00,
9299904,00000064,false,Rx,0,8,00,00,00,04,FF,FA,00,00,
9300020,00000359,false,Rx,0,8,51,4F,34,52,4A,35,33,00,
9300271,000000A1,false,Rx,0,8,3D,B9,26,57,61,02,8A,00,
9300349,000000A2,false,Rx,0,8,00,00,00,00,00,00,00,00,
9300704,000000A3,false,Rx,0,8,00,40,01,00,00,00,00,00,
9301247,00000445,false,Rx,0,8,D6,20,00,00,00,00,00,18,
9302607,00000111,false,Rx,0,8,62,FD,F6,01,00,00,00,00,
9302824,0000036F,false,Rx,0,8,47,11,01,00,00,00,00,00,
9302993,00000112,false,Rx,0,8,00,00,00,00,00,00,00,00,
9303223,0000037F,false,Rx,0,8,45,70,52,24,41,02,00,00,
9303488,00000113,false,Rx,0,8,00,00,00,00,00,00,00,00,
9303748,00000114,false,Rx,0,8,00,00,00,00,00,00,00,00,
9306721,000001B1,false,Rx,0,8,86,B7,D5,00,72,00,00,00,
9306807,000001B2,false,Rx,0,8,23,00,04,B7,0F,08,50,10,
9306873,000001B3,false,Rx,0,8,10,33,38,00,5A,7B,6A,7D,
9307658,000001B4,false,Rx,0,8,65,7D,10,00,00,41,00,00,
9309420,00000121,false,Rx,0,8,1C,18,8C,00,00,00,00,05,
9309525,00000122,false,Rx,0,8,FF,D9,67,1F,46,47,46,45,
9309911,00000123,false,Rx,0,8,B6,02,00,00,00,00,01,00,
9309983,00000124,false,Rx,0,8,00,00,0A,00,00,00,20,40,
9310639,000001AB,false,Rx,0,8,04,7A,64,50,70,50,00,00,
9310736,000001AC,false,Rx,0,8,00,28,00,00,00,00,00,00,
9313587,00000419,false,Rx,0,8,34,80,26,D5,31,87,90,00,
9316626,0000010B,false,Rx,0,8,C4,B5,96,00,00,00,00,05,
9316719,0000010C,false,Rx,0,8,FF,F9,E7,1F,46,4F,48,48,
9317178,0000010D,false,Rx,0,8,B5,02,00,00,00,00,01,00,
9317248,0000010E,false,Rx,0,8,00,00,1E,00,00,C0,AB,57,
9320922,00000161,false,Rx,0,8,CE,88,A8,03,00,00,00,02,
9321016,0000011B,false,Rx,0,8,1F,18,50,05,80,08,28,02,
9321430,00000162,false,Rx,0,8,FF,FC,01,00,00,00,00,00,
9321505,0000011C,false,Rx,0,8,00,05,20,00,22,00,01,01,
9321831,0000012B,false,Rx,0,8,F9,48,50,06,00,00,08,00,
9322198,000001E1,false,Rx,0,8,5D,6A,10,02,00,00,00,00,
9322419,0000012C,false,Rx,0,8,00,00,01,00,00,64,00,00,
9322483,000001E2,false,Rx,0,8,00,00,00,00,00,00,00,00,
9322790,00000566,false,Rx,0,8,16,02,00,00,00,00,FF,FF,
9324336,0000030B,false,Rx,0,8,90,28,90,00,04,00,00,00,
9324444,0000030C,false,Rx,0,8,00,00,0E,00,2C,00,A0,0F,
9324746,0000030D,false,Rx,0,8,00,00,00,00,FF,00,00,00,
9324996,0000030E,false,Rx,0,8,00,00,18,05,21,00,00,0A,
9328861,00000036,false,Rx,0,8,28,B8,AB,51,00,00,25,05,
9328962,00000037,false,Rx,0,8,30,00,00,10,00,40,00,00,
9329386,00000038,false,Rx,0,8,04,00,00,00,B0,39,96,D4,
9329466,00000039,false,Rx,0,8,00,00,00,00,00,00,00,00,
9330375,0000019B,false,Rx,0,8,A7,19,A1,00,00,E4,00,00,
9330625,0000019C,false,Rx,0,8,40,20,00,00,00,00,0B,09,
9330810,0000019D,false,Rx,0,8,00,10,00,01,00,00,00,00,
9331492,000001A1,false,Rx,0,8,DF,08,A8,FE,F7,7F,64,00,
9331583,0000019E,false,Rx,0,8,15,00,00,00,00,32,00,00,
9331855,000001A2,false,Rx,0,8,44,00,00,00,27,08,00,00,
9331965,00000475,false,Rx,0,8,12,00,00,00,00,00,00,00,
9332018,000001A3,false,Rx,0,8,FF,F3,3F,00,00,00,00,00,
9332286,000001A4,false,Rx,0,8,FE,07,00,00,00,00,00,00,
9332474,00000496,false,Rx,0,8,12,00,00,00,00,00,00,00,
9333601,00000383,false,Rx,0,8,5A,53,00,10,01,00,00,00,
9341083,00000448,false,Rx,0,8,DE,80,00,00,00,00,00,00,
9341268,000001FB,false,Rx,0,8,74,8F,88,00,00,00,00,00,
9341603,000001FC,false,Rx,0,8,00,00,00,00,00,00,00,00,
9342048,000001FD,false,Rx,0,8,00,1A,03,00,00,00,00,00,
9342124,000001FE,false,Rx,0,8,00,00,00,00,00,00,00,00,
9342800,000004E8,false,Rx,1,8,FF,FF,FF,05,FF,FF,FF,00,
9347832,00000061,false,Rx,0,8,F1,E5,2B,00,00,00,00,00,
9347956,00000062,false,Rx,0,8,02,02,00,02,40,FF,00,FF,
9348356,00000063,false,Rx,0,8,00,00,05,00,00,08,FD,00,
9348434,00000064,false,Rx,0,8,00,00,00,04,FF,FA,00,00,
9348806,000000A1,false,Rx,0,8,0B,FA,2B,57,61,02,8A,00,
9349148,000000A2,false,Rx,0,8,00,00,00,00,00,00,00,00,
9349224,000000A3,false,Rx,0,8,00,40,01,00,00,00,00,00,
9350155,00000382,false,Rx,0,8,2B,FE,21,00,00,05,09,00,
9352756,000000C5,false,Rx,1,8,00,00,00,00,00,00,00,00,
9353303,00000244,false,Rx,1,8,FF,FF,FF,FF,FF,FF,FF,FF,
9353782,00000419,false,Rx,0,8,34,80,26,D5,31,87,90,00,
9353922,000004B4,false,Rx,1,8,00,00,05,40,10,70,04,00,
9353975,000004B5,false,Rx,1,8,08,00,F0,07,00,00,00,00,
9354023,000004B7,false,Rx,1,8,08,00,F0,07,00,00,00,00,
9354273,000004CA,false,Rx,1,8,00,00,00,00,00,00,00,00,
9354593,000004CC,false,Rx,1,8,08,00,00,06,00,00,03,00,
9355086,000004CE,false,Rx,1,8,DE,01,00,00,00,00,F8,FF,
9355372,000004D7,false,Rx,1,8,23,01,00,00,00,00,00,00,
9355649,000004D8,false,Rx,1,8,41,10,F0,F0,40,F2,1E,CC,
9355928,000004DD,false,Rx,1,8,00,00,FE,00,04,00,00,00,
9356348,000004DF,false,Rx,1,8,00,00,08,00,00,00,00,00,
9356459,000004E7,false,Rx,1,8,00,30,00,00,00,00,69,00,
9356710,000004E9,false,Rx,1,8,12,00,00,34,00,00,50,00,
9356893,000004EA,false,Rx,1,8,67,00,00,89,00,00,00,00,
9357164,000002BF,false,Rx,0,8,FF,FF,FF,00,00,00,00,00,
9357229,000004EB,false,Rx,1,8,02,80,16,13,80,00,00,00,
9357310,000004EC,false,Rx,1,8,00,00,00,00,00,00,00,00,
9357367,0000047F,false,Rx,0,8,F0,FC,FF,FF,FF,FF,FF,FF,
9357416,000004ED,false,Rx,1,8,00,00,00,00,00,FF,FF,1F,
9357475,000004EE,false,Rx,1,8,FF,FF,00,00,00,00,00,00,
9357616,00000236,false,Rx,0,8,1A,0B,8F,00,34,6C,AE,62,
9357675,000004EF,false,Rx,1,8,60,00,60,00,2B,14,00,00,
9357739,00000151,false,Rx,0,8,5C,FC,8F,64,C8,00,28,18,
9357795,00000237,false,Rx,0,8,00,15,47,00,00,1E,1B,00,
9358041,0000063D,false,Rx,1,8,00,80,00,00,00,00,00,00,
9358100,00000152,false,Rx,0,8,14,17,17,00,51,00,00,00,
9358282,00000238,false,Rx,0,8,00,00,72,00,00,00,00,00,
9358482,0000063E,false,Rx,1,8,FF,FF,FF,FF,FF,FF,FF,FF,
9358585,00000153,false,Rx,0,8,00,00,00,00,00,00,00,00,
9358778,00000239,false,Rx,0,8,00,00,00,00,01,00,00,00,
9359031,0000063F,false,Rx,1,8,00,10,00,C4,FF,00,00,00,
9359096,00000154,false,Rx,0,8,00,00,00,00,00,00,00,00,
9359524,00000640,false,Rx,1,8,FF,FF,FF,00,FF,FF,FF,00,
9359591,00000121,false,Rx,0,8,D4,1A,91,00,00,00,00,05,
9359742,000001F6,false,Rx,0,8,17,20,8F,00,00,00,00,0E,
9359909,00000641,false,Rx,1,8,FF,FF,FF,FF,0F,FF,FF,FF,
9360219,00000122,false,Rx,0,8,FF,D9,67,1F,46,47,46,45,
9360398,000001F7,false,Rx,0,8,26,00,DA,02,00,00,00,00,
9360977,00000646,false,Rx,1,8,00,00,00,80,01,00,00,00,
9361353,00000123,false,Rx,0,8,B6,02,00,00,00,00,01,00,
9361452,000001F8,false,Rx,0,8,00,5E,01,45,01,00,00,00,
9361705,00000124,false,Rx,0,8,00,00,0A,00,00,00,20,40,
9361832,000001F9,false,Rx,0,8,4B,00,64,C8,14,00,4B,00,
9361884,000002FB,false,Rx,0,8,10,2A,8F,04,72,1A,B4,B4,
9362144,0000025B,false,Rx,0,8,9C,DD,8F,40,40,20,00,00,
9362216,000002FC,false,Rx,0,8,0F,00,14,18,00,00,8E,43,
9362499,0000025C,false,Rx,0,8,00,00,26,00,B4,2C,19,00,
9362792,000002FD,false,Rx,0,8,00,00,00,00,00,1C,13,EA,
9362910,0000025D,false,Rx,0,8,00,C8,00,00,00,80,C0,70,
9363249,000002FE,false,Rx,0,8,00,00,72,01,00,28,C8,02,
9363572,0000025E,false,Rx,0,8,03,07,0E,01,00,00,46,00,
9363855,00000326,false,Rx,0,8,6E,57,8F,00,00,00,00,00,
9364076,00000327,false,Rx,0,8,00,00,00,00,05,00,00,00,
9364618,00000328,false,Rx,0,8,DA,02,4B,00,00,5E,01,00,
9364785,00000329,false,Rx,0,8,64,45,01,00,00,00,00,00,
9365285,00000331,false,Rx,0,8,4D,F2,8F,F1,C8,A0,2C,97,
9365751,00000332,false,Rx,0,8,E8,08,FC,03,00,00,00,00,
9366263,00000333,false,Rx,0,8,00,00,00,1C,0C,40,20,64,
9366493,0000010B,false,Rx,0,8,C9,73,9B,00,00,00,00,05,
9366731,00000334,false,Rx,0,8,C8,00,00,00,08,44,F4,8F,
9366965,0000010C,false,Rx,0,8,FF,F9,E7,1F,46,4F,48,48,
9367438,0000010D,false,Rx,0,8,B5,02,00,00,00,00,01,00,
9368116,0000010E,false,Rx,0,8,00,00,1E,00,00,C0,AB,57,
9368490,00000653,false,Rx,0,8,0A,19,03,01,02,2A,00,00,
9371076,0000011B,false,Rx,0,8,E9,30,55,05,80,08,28,02,
9371316,0000012B,false,Rx,0,8,0F,60,55,06,00,00,08,00,
9371473,0000011C,false,Rx,0,8,00,05,20,00,22,00,01,01,
9371710,0000012C,false,Rx,0,8,00,00,01,00,00,64,00,00,
9373604,00000091,false,Rx,0,8,01,C3,92,25,06,00,00,00,
9373697,00000092,false,Rx,0,8,26,00,00,00,60,02,00,00,
9374143,00000093,false,Rx,0,8,00,00,00,00,00,00,00,00,
9374454,00000094,false,Rx,0,8,00,00,00,00,00,00,00,00,
9378663,00000256,false,Rx,0,8,AC,DF,8E,15,40,00,F0,00,
9378755,00000036,false,Rx,0,8,55,7D,B0,51,00,00,25,05,
9379168,00000257,false,Rx,0,8,00,94,41,19,85,07,00,94,
9379242,00000037,false,Rx,0,8,30,00,00,10,00,40,00,00,
9379603,00000258,false,Rx,0,8,36,EC,1A,00,10,15,00,28,
9379909,00000038,false,Rx,0,8,04,00,00,00,B0,39,96,D4,
9379990,00000259,false,Rx,0,8,60,05,8D,3C,4C,02,00,00,
9380602,00000039,false,Rx,0,8,00,00,00,00,00,00,00,00,
9380991,0000019B,false,Rx,0,8,54,87,A6,00,00,E4,00,00,
9381302,000002E6,false,Rx,0,8,AF,C8,8E,01,00,00,00,15,
9381591,0000019C,false,Rx,0,8,40,20,00,00,00,00,0B,09,
9381704,000002E7,false,Rx,0,8,0A,00,00,00,00,00,00,00,
9381752,0000019D,false,Rx,0,8,00,10,00,01,00,00,00,00,
9381822,000002E8,false,Rx,0,8,00,00,00,00,00,00,00,00,
9381919,0000019E,false,Rx,0,8,15,00,00,00,00,32,00,00,
9382354,000002E9,false,Rx,0,8,00,00,00,00,00,00,00,00,
9382718,00000384,false,Rx,0,8,BA,56,0D,01,00,FF,00,24,
9383285,000001F1,false,Rx,0,8,E1,BB,D6,01,00,00,28,00,
9383817,000001F2,false,Rx,0,8,00,00,00,00,00,00,00,00,
9384201,000004E8,false,Rx,1,8,FF,FF,FF,05,FF,FF,FF,00,
9390065,0000042A,false,Rx,0,8,8E,83,0C,02,00,10,00,00,
9391010,00000396,false,Rx,0,8,4C,B5,C7,0F,08,02,00,02,
9391123,00000397,false,Rx,0,8,6F,00,43,10,3F,07,00,00,
9391383,00000398,false,Rx,0,8,00,00,00,00,00,00,00,00,
9392067,00000226,false,Rx,0,8,81,60,E1,FF,63,60,09,42,
9392293,00000227,false,Rx,0,8,02,94,00,09,03,F1,9F,03,
9397564,00000146,false,Rx,0,8,8B,DE,DA,10,04,05,00,00,
9397658,00000147,false,Rx,0,8,01,04,7D,00,40,46,07,00,
9397833,00000061,false,Rx,0,8,8C,20,30,00,00,00,00,00,
9398112,00000148,false,Rx,0,8,00,00,42,00,1E,89,40,05,
9398484,00000062,false,Rx,0,8,02,02,00,02,40,FF,00,FF,
9399032,00000149,false,Rx,0,8,00,38,00,CC,00,00,00,00,
9399121,00000063,false,Rx,0,8,00,00,05,00,00,08,FD,00,
9399414,00000064,false,Rx,0,8,00,00,00,04,FF,FA,00,00,
9399701,000000A1,false,Rx,0,8,64,4B,30,57,61,02,8A,00,
9400044,000000A2,false,Rx,0,8,00,00,00,00,00,00,00,00,
9400428,000000A3,false,Rx,0,8,00,40,01,00,00,00,00,00,
9402674,0000036F,false,Rx,0,8,91,21,01,00,00,00,00,00,
9402756,0000037F,false,Rx,0,8,EC,80,52,24,41,02,00,00,
9406549,000001B1,false,Rx,0,8,07,C3,DA,00,72,00,00,00,
9406641,000001B2,false,Rx,0,8,23,00,04,B7,0F,08,50,10,
9407089,000001B3,false,Rx,0,8,10,33,38,00,5A,7B,6A,7D,
9407154,000001B4,false,Rx,0,8,65,7D,10,00,00,41,00,00,
9409344,00000121,false,Rx,0,8,27,84,96,00,00,00,00,05,
9409445,00000122,false,Rx,0,8,FF,D9,67,1F,46,47,46,45,
9409889,00000123,false,Rx,0,8,B6,02,00,00,00,00,01,00,
9410061,00000124,false,Rx,0,8,00,00,0A,00,00,00,20,40,
9410326,000001AB,false,Rx,0,8,77,43,69,50,70,50,00,00,
9410681,000001AC,false,Rx,0,8,00,28,00,00,00,00,00,00,
9412516,000003B0,false,Rx,0,8,72,37,FF,C7,00,00,03,C0,
9416639,0000010B,false,Rx,0,8,1F,2F,A0,00,00,00,00,05,
9416731,0000010C,false,Rx,0,8,FF,F9,E7,1F,46,4F,48,48,
9417150,0000010D,false,Rx,0,8,B5,02,00,00,00,00,01,00,
9417233,0000010E,false,Rx,0,8,00,00,1E,00,00,C0,AB,57,
9420427,000003B2,false,Rx,0,8,36,15,FF,02,29,2F,34,00,
9420918,00000161,false,Rx,0,8,38,A0,AD,03,00,00,00,02,
9421036,0000011B,false,Rx,0,8,F3,49,5A,05,80,08,28,02,
9421487,00000162,false,Rx,0,8,FF,FC,01,00,00,00,00,00,
9421822,0000011C,false,Rx,0,8,00,05,20,00,22,00,01,01,
9421924,0000012B,false,Rx,0,8,15,19,5A,06,00,00,08,00,
9421985,0000012C,false,Rx,0,8,00,00,01,00,00,64,00,00,
9422909,00000405,false,Rx,0,8,D2,10,00,00,00,01,00,00,
9423245,00000410,false,Rx,0,8,6A,60,57,3C,DE,6A,FF,FF,
9423335,00000411,false,Rx,0,8,04,D1,50,51,00,00,44,04,
9423664,00000412,false,Rx,0,8,CC,E0,00,00,00,00,00,00,
9423864,00000413,false,Rx,0,8,08,60,00,00,00,00,00,00,
9424210,000004E8,false,Rx,1,8,FF,FF,FF,05,FF,FF,FF,00,
9424591,00000414,false,Rx,0,8,41,70,00,00,28,00,00,00,
9424934,00000416,false,Rx,0,8,55,00,00,00,00,00,00,00,
9425267,00000417,false,Rx,0,8,20,E0,00,00,00,00,00,00,
9425542,00000418,false,Rx,0,8,07,C0,00,00,14,0C,00,00,
9425619,00000419,false,Rx,0,8,34,80,26,D5,31,87,90,00,
9425722,00000516,false,Rx,0,8,61,02,00,00,00,00,FF,FF,
9427364,000001E6,false,Rx,0,8,A7,5F,1F,02,00,00,00,00,
9427485,000001BB,false,Rx,0,8,8F,FA,1F,02,00,00,00,0A,
9427710,000001BC,false,Rx,0,8,32,00,00,00,02,00,00,00,
9428159,000001BD,false,Rx,0,8,00,00,00,00,00,00,00,00,
9428556,000001E7,false,Rx,0,8,00,00,22,03,20,01,00,00,
9428958,00000036,false,Rx,0,8,2A,51,B5,51,00,00,25,05,
9429250,00000037,false,Rx,0,8,30,00,00,10,00,40,00,00,
9429339,00000038,false,Rx,0,8,04,00,00,00,B0,39,96,D4,
9429686,00000039,false,Rx,0,8,00,00,00,00,00,00,00,00,
9429955,00000380,false,Rx,0,8,96,92,03,08,08,08,08,01,
9430460,0000019B,false,Rx,0,8,59,41,AB,00,00,E4,00,00,
9430812,0000019C,false,Rx,0,8,40,20,00,00,00,00,0B,09,
9431138,0000019D,false,Rx,0,8,00,10,00,01,00,00,00,00,
9431441,000001A1,false,Rx,0,8,A0,24,AD,FE,F7,7F,64,00,
9431625,0000019E,false,Rx,0,8,15,00,00,00,00,32,00,00,
9431708,000001A2,false,Rx,0,8,44,00,00,00,27,08,00,00,
9431767,00000427,false,Rx,0,8,1D,86,FF,00,80,0A,00,00,
9432292,000001A3,false,Rx,0,8,FF,F3,3F,00,00,00,00,00,
9432370,000001A4,false,Rx,0,8,FE,07,00,00,00,00,00,00,
9435917,000003A1,false,Rx,0,8,EC,33,AF,00,FF,FF,FF,FF,
9436022,000003A2,false,Rx,0,8,00,00,00,00,00,00,00,00,
9443378,00000487,false,Rx,1,8,00,00,00,00,00,00,00,00,
9443609,00000642,false,Rx,1,8,FF,FF,FF,FF,FF,FF,00,00,
9447855,00000061,false,Rx,0,8,F3,0C,35,00,00,00,00,00,
9447944,00000062,false,Rx,0,8,02,02,00,02,40,FF,00,FF,
9448364,00000063,false,Rx,0,8,00,00,05,00,00,08,FD,00,
9448464,00000064,false,Rx,0,8,00,00,00,04,FF,FA,00,00,
9448839,000000A1,false,Rx,0,8,6B,A0,35,57,61,02,8A,00,
9449136,000000A2,false,Rx,0,8,00,00,00,00,00,00,00,00,
9449231,000000A3,false,Rx,0,8,00,40,01,00,00,00,00,00,
9450852,000000FF,false,Rx,0,8,CB,10,00,00,00,00,02,00,
9451467,00000394,false,Rx,0,8,2A,22,1A,49,00,00,00,00,
9451615,000003C3,false,Rx,0,8,45,10,31,30,36,00,00,00,
9451987,000003E0,false,Rx,0,8,01,70,01,00,54,03,00,00,
9453269,000003E5,false,Rx,0,8,8E,90,01,00,00,00,00,00,
9453381,000003E6,false,Rx,0,8,7F,00,00,00,00,00,00,00,
9453774,0000041A,false,Rx,0,8,95,40,12,00,00,00,00,00,
9453866,0000041B,false,Rx,0,8,60,30,00,00,00,00,00,00,
9454220,0000041C,false,Rx,0,8,E9,80,E0,00,00,00,00,00,
9454830,00000422,false,Rx,0,8,EA,C0,01,00,00,00,04,00,
9455036,00000432,false,Rx,0,8,03,20,02,00,00,00,00,00,
9456197,00000435,false,Rx,0,8,9F,D0,00,40,00,00,00,00,
9456303,00000442,false,Rx,0,8,CE,20,11,81,00,00,00,00,
9456700,00000444,false,Rx,0,8,6C,30,20,50,55,50,00,00,
9457093,00000445,false,Rx,0,8,D6,20,00,00,00,00,00,18,
9458067,00000464,false,Rx,0,8,B2,70,F0,FF,38,7F,05,00,
9459705,00000121,false,Rx,0,8,2A,42,9B,00,00,00,00,05,
9459819,00000122,false,Rx,0,8,FF,D9,67,1F,46,47,46,45,
9459873,00000123,false,Rx,0,8,B6,02,00,00,00,00,01,00,
9460476,00000124,false,Rx,0,8,00,00,0A,00,00,00,20,40,
9466630,0000010B,false,Rx,0,8,60,03,A5,00,00,00,00,05,
9466724,0000010C,false,Rx,0,8,FF,F9,E7,1F,46,4F,48,48,
9467163,0000010D,false,Rx,0,8,B5,02,00,00,00,00,01,00,
9467492,0000010E,false,Rx,0,8,00,00,1E,00,00,C0,AB,57,
9470480,00000401,false,Rx,0,8,C6,10,10,00,00,04,00,00,
9471031,0000012B,false,Rx,0,8,E3,31,5F,06,00,00,08,00,
9471115,0000011B,false,Rx,0,8,05,61,5F,05,80,08,28,02,
9471402,0000012C,false,Rx,0,8,00,00,01,00,00,64,00,00,
9471509,0000011C,false,Rx,0,8,00,05,20,00,22,00,01,01,
9472005,000001E1,false,Rx,0,8,10,82,13,02,00,00,00,00,
9472170,000001E2,false,Rx,0,8,00,00,00,00,00,00,00,00,
9473581,00000091,false,Rx,0,8,AD,75,93,25,06,00,00,00,
9473682,00000092,false,Rx,0,8,28,00,00,00,80,02,00,00,
9473914,00000093,false,Rx,0,8,00,00,00,00,00,00,00,00,
9474110,00000094,false,Rx,0,8,00,00,00,00,00,00,00,00,
9478677,00000036,false,Rx,0,8,AB,25,BA,51,00,00,25,05,
9478771,00000037,false,Rx,0,8,30,00,00,10,00,40,00,00,
9479177,00000038,false,Rx,0,8,04,00,00,00,B0,39,96,D4,
9479280,00000039,false,Rx,0,8,00,00,00,00,00,00,00,00,
9479622,000003AA,false,Rx,0,8,FF,00,D0,00,54,00,00,00,
9480283,000003B6,false,Rx,0,8,48,5E,C7,00,00,00,00,46,
9480357,0000019B,false,Rx,0,8,24,84,B0,00,00,E4,00,00,
9480952,000003B7,false,Rx,0,8,46,00,00,00,00,00,00,00,
9481255,0000019C,false,Rx,0,8,40,20,00,00,00,00,0B,09,
9481333,000003B8,false,Rx,0,8,B2,02,00,00,00,00,69,0E,
9481385,0000019D,false,Rx,0,8,00,10,00,01,00,00,00,00,
9481736,000002D6,false,Rx,0,8,F9,37,C7,00,00,00,00,00,
9482098,0000019E,false,Rx,0,8,15,00,00,00,00,32,00,00,
9482170,000002D7,false,Rx,0,8,00,00,00,00,03,00,00,00,
9482326,000002EB,false,Rx,0,8,84,F6,C7,07,08,01,00,02,
9482506,000002D8,false,Rx,0,8,00,00,00,00,00,00,38,47,
9482758,000002EC,false,Rx,0,8,00,00,CF,00,59,00,00,00,
9483047,000002D9,false,Rx,0,8,00,00,00,00,00,00,00,00,
9483501,000002ED,false,Rx,0,8,00,00,00,00,00,00,00,00,
9484060,000003B9,false,Rx,0,8,00,00,00,00,00,00,00,00,
9484164,000002EE,false,Rx,0,8,00,00,00,00,00,00,00,00,
9484743,00000495,false,Rx,0,8,49,00,00,00,00,00,00,00,
9485739,000004A3,false,Rx,1,8,80,00,48,0B,3E,00,00,00,
9486121,000004A4,false,Rx,1,8,FF,FF,FF,00,00,00,00,00,
9489515,00000251,false,Rx,0,8,4A,96,90,00,00,00,00,00,
9489607,00000252,false,Rx,0,8,00,00,1B,1B,03,00,00,00,
9490020,00000253,false,Rx,0,8,00,00,00,58,58,00,80,4D,
9490103,000002AB,false,Rx,0,8,BD,A7,93,0C,0C,00,00,00,
9490475,000003B1,false,Rx,0,8,C1,DE,00,80,00,00,20,00,
9490742,000002AC,false,Rx,0,8,00,FF,FF,00,00,40,00,54,
9490820,000002AD,false,Rx,0,8,00,01,00,40,FF,FF,FF,0F,
9491502,000002AE,false,Rx,0,8,01,00,FF,3F,01,01,00,00,
9492093,000002B6,false,Rx,0,8,07,81,93,01,00,00,00,40,
9492199,000002B7,false,Rx,0,8,9F,00,50,1C,00,04,00,00,
9492490,000002B8,false,Rx,0,8,FF,F8,10,00,00,00,00,00,
9492779,000002B9,false,Rx,0,8,0A,00,00,00,00,00,00,00,
9493095,000002C1,false,Rx,0,8,AD,FC,CA,21,00,41,00,D4,
9493203,000002FF,false,Rx,0,8,D4,CB,00,71,02,00,00,00,
9493510,000002C2,false,Rx,0,8,26,00,00,00,00,00,00,00,
9493852,00000316,false,Rx,0,8,FD,2A,71,34,06,80,0A,00,
9494175,000002C3,false,Rx,0,8,00,00,00,00,00,00,00,00,
9494464,00000317,false,Rx,0,8,00,00,05,00,00,00,00,00,
9494574,000002C4,false,Rx,0,8,00,00,00,00,00,00,00,00,
9494839,0000033B,false,Rx,0,8,E5,CD,92,00,00,00,00,00,
9495185,000002E1,false,Rx,0,8,81,CA,93,00,00,00,00,40,
9495550,0000033C,false,Rx,0,8,00,00,00,00,F0,00,00,00,
9495921,000002E2,false,Rx,0,8,FD,00,00,00,00,14,00,04,
9496220,0000033D,false,Rx,0,8,00,00,00,00,00,00,00,00,
9496511,000002E3,false,Rx,0,8,00,00,00,00,00,00,72,01,
9496641,0000033E,false,Rx,0,8,00,00,00,00,00,00,00,00,
9496718,000002E4,false,Rx,0,8,02,00,00,00,00,00,00,00,
9496765,00000356,false,Rx,0,8,41,F3,C9,00,00,00,00,00,
9496816,00000472,false,Rx,0,8,5C,EC,00,40,08,41,00,45,
9496867,00000357,false,Rx,0,8,00,00,00,00,00,4B,4D,48,
9497197,00000473,false,Rx,0,8,5F,24,00,25,00,00,00,78,
9497369,00000358,false,Rx,0,8,35,41,45,4D,52,37,33,4F,
9497452,00000474,false,Rx,0,8,91,72,00,00,00,00,00,08,
9497501,00000146,false,Rx,0,8,F4,F2,DF,10,04,05,00,00,
9497689,00000061,false,Rx,0,8,72,78,3A,00,00,00,00,00,
9497941,00000147,false,Rx,0,8,01,04,7D,00,40,46,07,00,
9498174,00000062,false,Rx,0,8,02,02,00,02,40,FF,00,FF,
9498418,00000148,false,Rx,0,8,00,00,42,00,1E,89,40,05,
9498878,00000063,false,Rx,0,8,00,00,05,00,00,08,FD,00,
9498978,00000149,false,Rx,0,8,00,38,00,CC,00,00,00,00,
9499187,00000064,false,Rx,0,8,00,00,00,04,FF,FA,00,00,
9499483,00000359,false,Rx,0,8,51,4F,34,52,4A,35,33,00,
9499833,000000A1,false,Rx,0,8,5B,8D,3A,57,61,02,8A,00,
9500177,000000A2,false,Rx,0,8,00,00,00,00,00,00,00,00,
9500552,000000A3,false,Rx,0,8,00,40,01,00,00,00,00,00,
9502791,0000036F,false,Rx,0,8,28,31,01,00,00,00,00,00,
9502876,00000111,false,Rx,0,8,24,A4,F7,01,00,00,00,00,
9503104,0000037F,false,Rx,0,8,55,90,52,24,41,02,00,00,
9503233,00000112,false,Rx,0,8,00,00,00,00,00,00,00,00,
9503619,00000113,false,Rx,0,8,00,00,00,00,00,00,00,00,
9503712,00000114,false,Rx,0,8,00,00,00,00,00,00,00,00,
9506450,000001B1,false,Rx,0,8,78,EF,DF,00,72,00,00,00,
9506552,000001B2,false,Rx,0,8,23,00,04,B7,0F,08,50,10,
9506927,000001B3,false,Rx,0,8,10,33,38,00,5A,7B,6A,7D,
9507315,000001B4,false,Rx,0,8,65,7D,10,00,00,41,00,00,
9509253,00000121,false,Rx,0,8,FC,1E,A0,00,00,00,00,05,
9509398,00000122,false,Rx,0,8,FF,D9,67,1F,46,47,46,45,
9509631,00000123,false,Rx,0,8,B6,02,00,00,00,00,01,00,
9509878,00000124,false,Rx,0,8,00,00,0A,00,00,00,20,40,
9510404,000001AB,false,Rx,0,8,E8,2B,6E,50,70,50,00,00,
9510803,000001AC,false,Rx,0,8,00,28,00,00,00,00,00,00,
9516634,0000010B,false,Rx,0,8,E1,77,AA,00,00,00,00,05,
9516727,0000010C,false,Rx,0,8,FF,F9,E7,1F,46,4F,48,48,
9517133,0000010D,false,Rx,0,8,B5,02,00,00,00,00,01,00,
9517233,0000010E,false,Rx,0,8,00,00,1E,00,00,C0,AB,57,
9520960,00000161,false,Rx,0,8,28,FA,B2,03,00,00,00,02,
9521053,0000011B,false,Rx,0,8,D3,FD,64,05,80,08,28,02,
9521497,00000162,false,Rx,0,8,FF,FC,01,00,00,00,00,00,
9521567,0000011C,false,Rx,0,8,00,05,20,00,22,00,01,01,
9521940,0000012B,false,Rx,0,8,35,AD,64,06,00,00,08,00,
9522255,0000012C,false,Rx,0,8,00,00,01,00,00,64,00,00,
9524697,0000030B,false,Rx,0,8,7F,D9,92,00,04,00,00,00,
9524811,0000030C,false,Rx,0,8,00,00,0E,00,2C,00,A0,0F,
9524862,00000561,false,Rx,0,8,63,02,00,00,00,00,FF,FF,
9525500,0000030D,false,Rx,0,8,00,00,00,00,FF,00,00,00,
9525601,0000030E,false,Rx,0,8,00,00,18,05,21,00,00,1A,
9528863,00000036,false,Rx,0,8,D4,09,BF,51,00,00,25,05,
9528998,00000037,false,Rx,0,8,30,00,00,10,00,40,00,00,
9529453,00000038,false,Rx,0,8,04,00,00,00,B0,39,96,D4,
9529754,00000039,false,Rx,0,8,00,00,00,00,00,00,00,00,
9530454,0000019B,false,Rx,0,8,5B,A8,B5,00,00,E4,00,00,
9530837,0000019C,false,Rx,0,8,40,20,00,00,00,00,0B,09,
9531183,0000019D,false,Rx,0,8,00,10,00,01,00,00,00,00,
9531307,00000475,false,Rx,0,8,12,00,00,00,00,00,00,00,
9531591,0000019E,false,Rx,0,8,15,00,00,00,00,32,00,00,
9531668,000001A1,false,Rx,0,8,E4,94,B2,FE,F7,7F,64,00,
9531945,00000496,false,Rx,0,8,12,00,00,00,00,00,00,00,
9532210,000001A2,false,Rx,0,8,44,00,00,00,27,08,00,00,
9532557,000001A3,false,Rx,0,8,FF,F3,3F,00,00,00,00,00,
9532670,000001A4,false,Rx,0,8,FE,07,00,00,00,00,00,00,
9533028,000001F1,false,Rx,0,8,FB,C2,D9,01,00,00,28,00,
9533327,000001F2,false,Rx,0,8,00,00,00,00,00,00,00,00,
9533603,00000383,false,Rx,0,8,5A,53,00,10,01,00,00,00,
9541041,00000448,false,Rx,0,8,DE,80,00,00,00,00,00,00,
9541531,000001FB,false,Rx,0,8,F8,3D,8A,00,00,00,00,00,
9541639,000001FC,false,Rx,0,8,00,00,00,00,00,00,00,00,
9542132,000001FD,false,Rx,0,8,00,1A,03,00,00,00,00,00,
9542486,000001FE,false,Rx,0,8,00,00,00,00,00,00,00,00,
9547841,00000061,false,Rx,0,8,0D,54,3F,00,00,00,00,00,
9547943,00000062,false,Rx,0,8,02,02,00,02,40,FF,00,FF,
9548393,00000063,false,Rx,0,8,00,00,05,00,00,08,FD,00,
9548696,00000064,false,Rx,0,8,00,00,00,04,FF,FA,00,00,
9548761,000000A1,false,Rx,0,8,54,66,3F,57,61,02,8A,00,
9548996,000000A2,false,Rx,0,8,00,00,00,00,00,00,00,00,
9549478,000000A3,false,Rx,0,8,00,40,01,00,00,00,00,00,
9549937,00000382,false,Rx,0,8,2B,FE,21,00,00,05,09,00,
9554853,000000C5,false,Rx,1,8,00,00,00,00,00,00,00,00,
9555017,00000244,false,Rx,1,8,FF,FF,FF,FF,FF,FF,FF,FF,
9555254,000004B4,false,Rx,1,8,00,00,05,40,10,70,04,00,
9555773,000004B5,false,Rx,1,8,08,00,F0,07,00,00,00,00,
9556060,000004B7,false,Rx,1,8,08,00,F0,07,00,00,00,00,
9556328,000004CA,false,Rx,1,8,00,00,00,00,00,00,00,00,
9556573,000004CC,false,Rx,1,8,08,00,00,06,00,00,03,00,
9557346,000002BF,false,Rx,0,8,FF,FF,FF,00,00,00,00,00,
9557886,000004CE,false,Rx,1,8,DE,01,00,00,00,00,F8,FF,
9558136,000004D7,false,Rx,1,8,23,01,00,00,00,00,00,00,
9558654,0000047F,false,Rx,0,8,F0,FC,FF,FF,FF,FF,FF,FF,
9559149,000004D8,false,Rx,1,8,41,10,F0,F0,40,F2,1E,CC,
9559461,000004DD,false,Rx,1,8,00,00,FE,00,04,00,00,00,
9560038,00000236,false,Rx,0,8,18,E2,91,00,34,6C,AE,62,
9560703,00000151,false,Rx,0,8,5E,15,91,64,C8,00,28,18,
9561181,000004DF,false,Rx,1,8,00,00,08,00,00,00,00,00,
9561812,00000237,false,Rx,0,8,00,15,47,00,00,1E,1B,00,
9562532,00000152,false,Rx,0,8,14,17,17,00,51,00,00,00,
9563020,000004E7,false,Rx,1,8,00,30,00,00,00,00,69,00,
9563287,00000238,false,Rx,0,8,00,00,72,00,00,00,00,00,
9563379,000004E8,false,Rx,1,8,FF,FF,FF,05,FF,FF,FF,00,
9563462,00000153,false,Rx,0,8,00,00,00,00,00,00,00,00,
9563760,000004E9,false,Rx,1,8,12,00,00,34,00,00,50,00,
9563888,00000239,false,Rx,0,8,00,00,00,00,01,00,00,00,
9564184,00000154,false,Rx,0,8,00,00,00,00,00,00,00,00,
9564286,000004EA,false,Rx,1,8,67,00,00,89,00,00,00,00,
9564457,000004EB,false,Rx,1,8,02,80,16,13,80,00,00,00,
9564532,00000121,false,Rx,0,8,75,F4,A5,00,00,00,00,05,
9564586,000004EC,false,Rx,1,8,00,00,00,00,00,00,00,00,
9564654,000001F6,false,Rx,0,8,15,C9,91,00,00,00,00,0E,
9564709,000004ED,false,Rx,1,8,00,00,00,00,00,FF,FF,1F,
9564986,00000122,false,Rx,0,8,FF,D9,67,1F,46,48,46,45,
9565098,000004EE,false,Rx,1,8,FF,FF,00,00,00,00,00,00,
9565646,00000123,false,Rx,0,8,B6,02,00,00,00,00,01,00,
9565742,000001F7,false,Rx,0,8,26,00,DA,02,00,00,00,00,
9566104,000004EF,false,Rx,1,8,60,00,60,00,2B,14,00,00,
9566395,00000124,false,Rx,0,8,00,00,0A,00,00,00,20,40,
9566506,0000063D,false,Rx,1,8,00,80,00,00,00,00,00,00,
9566707,000001F8,false,Rx,0,8,00,5E,01,45,01,00,00,00,
9566766,000002FB,false,Rx,0,8,12,C3,91,04,72,1A,B4,B4,
9566821,0000063E,false,Rx,1,8,FF,FF,FF,FF,FF,FF,FF,FF,
9566891,000001F9,false,Rx,0,8,4B,00,64,C8,14,00,4B,00,
9567179,0000063F,false,Rx,1,8,00,10,00,C4,FF,00,00,00,
9567504,000002FC,false,Rx,0,8,0F,00,14,18,00,00,8E,43,
9567863,00000640,false,Rx,1,8,FF,FF,FF,00,FF,FF,FF,00,
9568151,0000025B,false,Rx,0,8,DB,5B,91,40,40,20,00,00,
9568230,000002FD,false,Rx,0,8,00,00,00,00,00,1C,13,EA,
9568561,00000641,false,Rx,1,8,FF,FF,FF,FF,0F,FF,FF,FF,
9568810,0000025C,false,Rx,0,8,00,00,26,00,B4,2C,19,00,
9568876,000002FE,false,Rx,0,8,00,00,72,01,00,28,C8,02,
9569224,00000646,false,Rx,1,8,00,00,00,80,01,00,00,00,
9569551,0000025D,false,Rx,0,8,00,C8,00,00,00,80,C0,70,
9569719,00000326,false,Rx,0,8,6C,BE,91,00,00,00,00,00,
9570278,0000025E,false,Rx,0,8,02,07,0E,01,00,00,46,00,
9570374,00000327,false,Rx,0,8,00,00,00,00,05,00,00,00,
9570687,00000328,false,Rx,0,8,DA,02,4B,00,00,5E,01,00,
9570776,00000329,false,Rx,0,8,64,45,01,00,00,00,00,00,
9570848,00000331,false,Rx,0,8,4F,1B,91,F1,C8,A0,2C,97,
9570893,00000332,false,Rx,0,8,E8,08,FC,03,00,00,00,00,
9571295,00000333,false,Rx,0,8,00,00,00,1C,0C,40,20,64,
9571717,0000010B,false,Rx,0,8,9E,5B,AF,00,00,00,00,05,
9572268,00000334,false,Rx,0,8,C8,00,00,00,08,44,F4,8F,
9572379,0000010C,false,Rx,0,8,FF,F9,E7,1F,46,4F,48,48,
9572982,0000010D,false,Rx,0,8,B5,02,00,00,00,00,01,00,
9573358,0000010E,false,Rx,0,8,00,00,1E,00,00,C0,AB,57,
9573706,00000653,false,Rx,0,8,0A,19,03,01,02,2A,00,00,
9574026,0000011B,false,Rx,0,8,A0,C4,69,05,80,08,28,02,
9574329,0000012B,false,Rx,0,8,46,94,69,06,00,00,08,00,
9574443,0000011C,false,Rx,0,8,00,05,20,00,22,00,01,01,
9574494,0000012C,false,Rx,0,8,00,00,01,00,00,64,00,00,
9574538,00000091,false,Rx,0,8,5E,EB,94,25,06,00,00,00,
9574584,00000092,false,Rx,0,8,28,00,00,00,80,02,00,00,
9574627,00000093,false,Rx,0,8,00,00,00,00,00,00,00,00,
9574695,00000094,false,Rx,0,8,00,00,00,00,00,00,00,00,
9577621,000001E6,false,Rx,0,8,CA,03,22,02,00,00,00,00,
9577711,000001BB,false,Rx,0,8,4C,79,22,02,00,00,00,0A,
9578073,000001BC,false,Rx,0,8,32,00,00,00,02,00,00,00,
9578412,000001BD,false,Rx,0,8,00,00,00,00,00,00,00,00,
9578592,000001E7,false,Rx,0,8,00,00,22,03,20,01,00,00,
9578641,00000036,false,Rx,0,8,75,76,C4,51,00,00,25,05,
9579379,00000037,false,Rx,0,8,30,00,00,10,00,40,00,00,
9579724,00000038,false,Rx,0,8,04,00,00,00,B0,39,96,D4,
9580064,00000039,false,Rx,0,8,00,00,00,00,00,00,00,00,
9580157,00000256,false,Rx,0,8,B9,F5,90,15,40,00,00,01,
9580446,000002E6,false,Rx,0,8,AD,21,90,01,00,00,00,15,
9580752,00000257,false,Rx,0,8,00,94,41,19,85,07,00,94,
9580811,000002E7,false,Rx,0,8,0A,00,00,00,00,00,00,00,
9581094,0000019B,false,Rx,0,8,DA,DC,BA,00,00,E4,00,00,
9581435,00000258,false,Rx,0,8,36,ED,1A,00,10,15,00,28,
9581781,0000019C,false,Rx,0,8,40,20,00,00,00,00,0B,09,
9582084,00000259,false,Rx,0,8,63,05,8D,3C,4C,02,00,00,
9582163,0000019D,false,Rx,0,8,00,10,00,01,00,00,00,00,
9582520,000002E8,false,Rx,0,8,00,00,00,00,00,00,00,00,
9582777,0000019E,false,Rx,0,8,15,00,00,00,00,32,00,00,
9583057,000002E9,false,Rx,0,8,00,00,00,00,00,00,00,00,
9583409,00000384,false,Rx,0,8,BA,56,0D,01,00,FF,00,24,
9583744,0000048B,false,Rx,0,8,3F,B0,C2,1E,01,00,00,00,
9584084,0000048C,false,Rx,0,8,00,00,00,00,00,00,00,00,
9590064,0000042A,false,Rx,0,8,8E,83,0C,02,00,10,00,00,
9591112,00000396,false,Rx,0,8,0B,FE,C8,0F,08,01,00,02,
9591220,00000397,false,Rx,0,8,35,00,43,10,3F,07,00,00,
9591519,00000398,false,Rx,0,8,00,00,00,00,00,00,00,00,
9591918,00000226,false,Rx,0,8,E8,20,E3,FF,63,60,09,42,
9592446,00000227,false,Rx,0,8,02,94,00,09,03,F1,9F,03,
9597556,00000146,false,Rx,0,8,22,AE,E4,10,04,05,00,00,
9597649,00000147,false,Rx,0,8,01,04,7D,00,40,46,07,00,
9598052,00000061,false,Rx,0,8,AC,2B,44,00,00,00,00,00,
9598153,00000148,false,Rx,0,8,00,00,42,00,1E,89,40,05,
9598487,00000062,false,Rx,0,8,02,02,00,02,40,FF,00,FF,
9598566,00000149,false,Rx,0,8,00,38,00,CC,00,00,00,00,
9598884,00000063,false,Rx,0,8,00,00,05,00,00,08,FD,00,
9599188,00000064,false,Rx,0,8,00,00,00,04,FF,FA,00,00,
9599830,000000A1,false,Rx,0,8,F0,46,44,57,61,02,8A,00,
9600173,000000A2,false,Rx,0,8,00,00,00,00,00,00,00,00,
9600248,000000A3,false,Rx,0,8,00,40,01,00,00,00,00,00,
9602788,0000036F,false,Rx,0,8,20,41,01,00,00,00,00,00,
9602881,0000037F,false,Rx,0,8,83,A0,52,24,41,02,00,00,
9606493,000001B1,false,Rx,0,8,AE,B3,E4,00,72,00,00,00,
9606588,000001B2,false,Rx,0,8,23,00,04,B7,0F,08,50,10,
9606785,000001B3,false,Rx,0,8,10,33,38,00,5A,7B,6A,7D,
9607037,000001B4,false,Rx,0,8,65,7D,10,00,00,41,00,00,
9609332,00000121,false,Rx,0,8,02,46,AA,00,00,00,00,05,
9609422,00000122,false,Rx,0,8,FF,D9,67,1F,46,47,46,45,
9609718,00000123,false,Rx,0,8,B6,02,00,00,00,00,01,00,
9609886,00000124,false,Rx,0,8,00,00,0A,00,00,00,20,40,
9610159,000001AB,false,Rx,0,8,91,31,73,50,70,50,00,00,
9610413,000001AC,false,Rx,0,8,00,28,00,00,00,00,00,00,
9611439,0000034B,false,Rx,0,8,4D,96,C2,31,D8,0D,05,01,
9611669,0000034C,false,Rx,0,8,00,00,00,00,00,00,00,00,
9611915,0000034D,false,Rx,0,8,00,00,00,00,00,00,00,00,
9612305,0000034E,false,Rx,0,8,00,00,00,00,00,00,00,00,
9612541,000003B0,false,Rx,0,8,72,37,FF,C7,00,00,03,C0,
9616630,0000010B,false,Rx,0,8,E3,9E,B4,00,00,00,00,05,
9616722,0000010C,false,Rx,0,8,FF,F9,E7,1F,46,4F,48,48,
9617130,0000010D,false,Rx,0,8,B5,02,00,00,00,00,01,00,
9617214,0000010E,false,Rx,0,8,00,00,1E,00,00,C0,AB,57,
9620339,00000563,false,Rx,1,8,65,02,00,00,00,00,FF,FF,
9620543,000003B2,false,Rx,0,8,36,15,FF,02,29,2F,34,00,
9621091,00000161,false,Rx,0,8,DE,D2,B7,03,00,00,00,02,
9621190,0000011B,false,Rx,0,8,3F,AC,6E,05,80,08,28,02,
9621677,0000012B,false,Rx,0,8,D9,FC,6E,06,00,00,08,00,
9621983,0000011C,false,Rx,0,8,00,05,20,00,22,00,01,01,
9622063,0000012C,false,Rx,0,8,00,00,01,00,00,64,00,00,
9622127,000001E1,false,Rx,0,8,E6,AA,16,02,00,00,00,00,
9622465,00000162,false,Rx,0,8,FF,FC,01,00,00,00,00,00,
9622778,000001E2,false,Rx,0,8,00,00,00,00,00,00,00,00,
9622871,00000405,false,Rx,0,8,D2,10,00,00,00,01,00,00,
9623082,00000410,false,Rx,0,8,6A,60,57,3C,DE,6A,FF,FF,
9623371,00000411,false,Rx,0,8,04,D1,50,51,00,00,44,04,
9623622,00000412,false,Rx,0,8,CC,E0,00,00,00,00,00,00,
9624271,00000413,false,Rx,0,8,08,60,00,00,00,00,00,00,
9624831,00000414,false,Rx,0,8,41,70,00,00,28,00,00,00,
9624952,00000416,false,Rx,0,8,55,00,00,00,00,00,00,00,
9625239,00000417,false,Rx,0,8,20,E0,00,00,00,00,00,00,
9625498,00000418,false,Rx,0,8,07,C0,00,00,14,0C,00,00,
9625590,00000419,false,Rx,0,8,34,80,26,D5,31,87,90,00,
9629477,00000036,false,Rx,0,8,78,B0,C9,51,00,00,25,05,
9629866,00000037,false,Rx,0,8,30,00,00,10,00,40,00,00,
9629972,00000038,false,Rx,0,8,04,00,00,00,B0,39,96,D4,
9630035,00000039,false,Rx,0,8,00,00,00,00,00,00,00,00,
9630353,00000380,false,Rx,0,8,96,92,03,08,08,08,08,01,
9630629,0000019B,false,Rx,0,8,A5,F0,BF,00,00,E4,00,00,
9630707,0000019C,false,Rx,0,8,40,20,00,00,00,00,0B,09,
9631377,0000019D,false,Rx,0,8,00,10,00,01,00,00,00,00,
9631768,000001A1,false,Rx,0,8,9B,B8,B7,FE,F7,7F,64,00,
9632085,0000019E,false,Rx,0,8,15,00,00,00,00,32,00,00,
9632176,000001A2,false,Rx,0,8,44,00,00,00,27,08,00,00,
9632641,000001A3,false,Rx,0,8,FF,F3,3F,00,00,00,00,00,
9632729,00000427,false,Rx,0,8,1D,86,FF,00,80,0A,00,00,
9632802,000001A4,false,Rx,0,8,FE,07,00,00,00,00,00,00,
9635671,000003A1,false,Rx,0,8,FC,69,B0,00,FF,FF,FF,FF,
9635778,000003A2,false,Rx,0,8,00,00,00,00,00,00,00,00,
9645383,00000487,false,Rx,1,8,00,00,00,00,00,00,00,00,
9645587,00000642,false,Rx,1,8,FF,FF,FF,FF,FF,FF,00,00,
9647864,00000061,false,Rx,0,8,A1,ED,49,00,00,00,00,00,
9647972,00000062,false,Rx,0,8,02,02,00,02,40,FF,00,FF,
9648297,00000063,false,Rx,0,8,00,00,05,00,00,08,FD,00,
9648398,00000064,false,Rx,0,8,00,00,00,04,FF,FA,00,00,
9648732,000000A1,false,Rx,0,8,C6,05,49,57,61,02,8A,00,
9649361,000000A2,false,Rx,0,8,00,00,00,00,00,00,00,00,
9649698,000000A3,false,Rx,0,8,00,40,01,00,00,00,00,00,
9650680,000000FF,false,Rx,0,8,CB,10,00,00,00,00,02,00,
9651228,00000394,false,Rx,0,8,2A,22,1A,49,00,00,00,00,
9651412,000003C3,false,Rx,0,8,45,10,31,30,36,00,00,00,
9651725,000003E0,false,Rx,0,8,01,70,01,00,54,03,00,00,
9652812,000003E5,false,Rx,0,8,8E,90,01,00,00,00,00,00,
9653305,000003E6,false,Rx,0,8,7F,00,00,00,00,00,00,00,
9653421,0000041A,false,Rx,0,8,95,40,12,00,00,00,00,00,
9653836,0000041B,false,Rx,0,8,60,30,00,00,00,00,00,00,
9653929,0000041C,false,Rx,0,8,E9,80,E0,00,00,00,00,00,
9654329,00000422,false,Rx,0,8,EA,C0,01,00,00,00,04,00,
9654918,00000432,false,Rx,0,8,03,20,02,00,00,00,00,00,
9656016,00000435,false,Rx,0,8,9F,D0,00,40,00,00,00,00,
9656129,00000442,false,Rx,0,8,CE,20,11,81,00,00,00,00,
9656537,00000444,false,Rx,0,8,6C,30,20,50,55,50,00,00,
9656624,00000445,false,Rx,0,8,D6,20,00,00,00,00,00,18,
9657685,00000464,false,Rx,0,8,B2,70,F0,FF,38,7F,05,00,
9659520,00000121,false,Rx,0,8,7D,6A,AF,00,00,00,00,05,
9659644,00000122,false,Rx,0,8,FF,D9,67,1F,46,47,46,45,
9660017,00000123,false,Rx,0,8,B6,02,00,00,00,00,01,00,
9660089,00000124,false,Rx,0,8,00,00,0A,00,00,00,20,40,
9666627,0000010B,false,Rx,0,8,EE,58,B9,00,00,00,00,05,
9666719,0000010C,false,Rx,0,8,FF,F9,E7,1F,46,4F,48,48,
9667135,0000010D,false,Rx,0,8,B5,02,00,00,00,00,01,00,
9667223,0000010E,false,Rx,0,8,00,00,1E,00,00,C0,AB,57,
9670653,00000401,false,Rx,0,8,C6,10,10,00,00,04,00,00,
9671155,0000011B,false,Rx,0,8,46,B6,73,05,80,08,28,02,
9671335,0000012B,false,Rx,0,8,A0,E6,73,06,00,00,08,00,
9671637,0000011C,false,Rx,0,8,00,05,20,00,22,00,01,01,
9672105,0000012C,false,Rx,0,8,00,00,01,00,00,64,00,00,
9673622,00000091,false,Rx,0,8,D5,4C,95,25,06,00,00,00,
9673721,00000092,false,Rx,0,8,27,00,00,00,70,02,00,00,
9674125,00000093,false,Rx,0,8,00,00,00,00,00,00,00,00,
9674225,00000094,false,Rx,0,8,00,00,00,00,00,00,00,00,
9678384,00000415,false,Rx,0,8,40,13,10,00,08,01,00,00,
9678486,00000036,false,Rx,0,8,8B,2E,CE,51,00,00,25,05,
9678913,00000037,false,Rx,0,8,30,00,00,10,00,40,00,00,
9679277,00000038,false,Rx,0,8,04,00,00,00,B0,39,96,D4,
9679358,00000039,false,Rx,0,8,00,00,00,00,00,00,00,00,
9679617,000003AA,false,Rx,0,8,FF,00,D0,00,54,00,00,00,
9680397,000003B6,false,Rx,0,8,C9,2A,C8,00,00,00,00,46,
9680726,0000019B,false,Rx,0,8,04,8F,C4,00,00,E4,00,00,
9680836,000003B7,false,Rx,0,8,46,00,00,00,00,00,00,00,
9681199,0000019C,false,Rx,0,8,40,20,00,00,00,00,0B,09,
9681515,000003B8,false,Rx,0,8,B2,02,00,00,00,00,69,0E,
9681646,0000019D,false,Rx,0,8,00,10,00,01,00,00,00,00,
9681728,000002D6,false,Rx,0,8,78,43,C8,00,00,00,00,00,
9681775,0000019E,false,Rx,0,8,15,00,00,00,00,32,00,00,
9682271,000002D7,false,Rx,0,8,00,00,00,00,03,00,00,00,
9682634,000002EB,false,Rx,0,8,E6,CA,C8,07,08,01,00,02,
9682963,000001F1,false,Rx,0,8,0D,EA,DC,01,00,00,28,00,
9683266,000002D8,false,Rx,0,8,00,00,00,00,00,00,38,47,
9683539,000001F2,false,Rx,0,8,00,00,00,00,00,00,00,00,
9683675,000002D9,false,Rx,0,8,00,00,00,00,00,00,00,00,
9683861,000002EC,false,Rx,0,8,02,00,CF,00,59,00,00,00,
9683947,000003B9,false,Rx,0,8,00,00,00,00,00,00,00,00,
9684225,000002ED,false,Rx,0,8,00,00,00,00,00,00,00,00,
9684374,00000495,false,Rx,0,8,49,00,00,00,00,00,00,00,
9684451,000002EE,false,Rx,0,8,00,00,00,00,00,00,00,00,
9687253,000004A3,false,Rx,1,8,80,00,48,0B,3E,00,00,00,
9687513,000004A4,false,Rx,1,8,FF,FF,FF,00,00,00,00,00,
9689501,00000251,false,Rx,0,8,4C,F8,92,00,00,00,00,00,
9689596,00000252,false,Rx,0,8,00,00,1B,1B,03,00,00,00,
9689985,00000253,false,Rx,0,8,00,00,00,58,58,00,80,4D,
9690052,000002AB,false,Rx,0,8,08,60,95,0C,0C,00,00,00,
9690507,000003B1,false,Rx,0,8,C1,DE,00,80,00,00,20,00,
9690843,000002AC,false,Rx,0,8,00,FF,FF,00,00,40,00,54,
9691153,000002AD,false,Rx,0,8,00,01,00,40,FF,FF,FF,0F,
9691364,000002AE,false,Rx,0,8,01,00,FF,3F,01,01,00,00,
9691428,000002B6,false,Rx,0,8,B2,46,95,01,00,00,00,40,
9691847,000002B7,false,Rx,0,8,9F,00,50,1C,00,04,00,00,
9692180,000002B8,false,Rx,0,8,FF,F8,10,00,00,00,00,00,
9692522,000002B9,false,Rx,0,8,0A,00,00,00,00,00,00,00,
9692846,000002FF,false,Rx,0,8,D4,CB,00,71,02,00,00,00,
9693150,000002C1,false,Rx,0,8,EB,A5,CB,21,00,41,00,D4,
9693227,00000316,false,Rx,0,8,B0,C2,72,34,06,80,0A,00,
9693537,000002C2,false,Rx,0,8,26,00,00,00,00,00,00,00,
9693648,00000317,false,Rx,0,8,00,00,05,00,00,00,00,00,
9693718,000002C3,false,Rx,0,8,00,00,00,00,00,00,00,00,
9693781,0000033B,false,Rx,0,8,50,0A,94,00,00,00,00,00,
9694009,000002C4,false,Rx,0,8,00,00,00,00,00,00,00,00,
9694262,0000033C,false,Rx,0,8,00,00,00,00,F0,00,00,00,
9694490,000002E1,false,Rx,0,8,34,0D,95,00,00,00,00,40,
9694759,0000033D,false,Rx,0,8,00,00,00,00,00,00,00,00,
9694987,000002E2,false,Rx,0,8,FD,00,00,00,00,14,00,04,
9695254,0000033E,false,Rx,0,8,00,00,00,00,00,00,00,00,
9695487,000002E3,false,Rx,0,8,00,00,00,00,00,00,72,01,
9695732,00000356,false,Rx,0,8,8B,18,CA,00,00,00,00,00,
9696073,000002E4,false,Rx,0,8,02,00,00,00,00,00,00,00,
9696298,00000357,false,Rx,0,8,00,00,00,00,00,4B,4D,48,
9696480,00000472,false,Rx,0,8,5C,EC,00,40,08,41,00,45,
9696889,00000358,false,Rx,0,8,35,41,45,4D,52,37,33,4F,
9697223,00000473,false,Rx,0,8,5F,24,00,25,00,00,00,78,
9697536,00000359,false,Rx,0,8,51,4F,34,52,4A,35,33,00,
9697798,00000146,false,Rx,0,8,2F,68,E9,10,04,05,00,00,
9697915,00000474,false,Rx,0,8,91,72,00,00,00,00,00,08,
9697997,00000061,false,Rx,0,8,52,73,4E,00,00,00,00,00,
9698114,00000147,false,Rx,0,8,01,04,7D,00,40,46,07,00,
9698662,00000062,false,Rx,0,8,02,02,00,02,40,FF,00,FF,
9698844,00000148,false,Rx,0,8,00,00,42,00,1E,89,40,05,
9698911,00000063,false,Rx,0,8,00,00,05,00,00,08,FD,00,
9699528,00000149,false,Rx,0,8,00,38,00,CC,00,00,00,00,
9699888,00000064,false,Rx,0,8,00,00,00,04,FF,FA,00,00,
9700174,000000A1,false,Rx,0,8,CF,80,4E,57,61,02,8A,00,
9700266,000000A2,false,Rx,0,8,00,00,00,00,00,00,00,00,
9700563,000000A3,false,Rx,0,8,00,40,01,00,00,00,00,00,
9702591,0000036F,false,Rx,0,8,99,51,01,00,00,00,00,00,
9702676,00000111,false,Rx,0,8,A5,D0,F8,01,00,00,00,00,
9703071,0000037F,false,Rx,0,8,3A,B0,52,24,41,02,00,00,
9703235,00000112,false,Rx,0,8,00,00,00,00,00,00,00,00,
9703509,00000113,false,Rx,0,8,00,00,00,00,00,00,00,00,
9703743,00000114,false,Rx,0,8,00,00,00,00,00,00,00,00,
9706630,000001B1,false,Rx,0,8,A3,75,E9,00,72,00,00,00,
9706923,000001B2,false,Rx,0,8,23,00,04,B7,0F,08,50,10,
9706990,000001B3,false,Rx,0,8,10,33,38,00,5A,7B,6A,7D,
9707323,000001B4,false,Rx,0,8,65,7D,10,00,00,41,00,00,
9709435,00000121,false,Rx,0,8,00,AF,B4,00,00,00,00,05,
9709552,00000122,false,Rx,0,8,FF,D9,67,1F,46,47,46,45,
9709903,00000123,false,Rx,0,8,B6,02,00,00,00,00,01,00,
9709983,00000124,false,Rx,0,8,00,00,0A,00,00,00,20,40,
9710325,000001AB,false,Rx,0,8,59,C8,78,50,70,50,00,00,
9710670,000001AC,false,Rx,0,8,00,28,00,00,00,00,00,00,
9716624,0000010B,false,Rx,0,8,1D,C6,BE,00,00,00,00,05,
9716717,0000010C,false,Rx,0,8,FF,F9,E7,1F,46,4F,48,48,
9717145,0000010D,false,Rx,0,8,B5,02,00,00,00,00,01,00,
9717475,0000010E,false,Rx,0,8,00,00,1E,00,00,C0,AB,57,
9720993,00000565,false,Rx,0,8,66,02,00,00,00,00,FF,FF,
9721086,0000011B,false,Rx,0,8,8E,4F,78,05,80,08,28,02,
9721527,00000161,false,Rx,0,8,16,2B,BC,03,00,00,00,02,
9721598,0000011C,false,Rx,0,8,00,05,20,00,22,00,01,01,
9721961,0000012B,false,Rx,0,8,68,1F,78,06,00,00,08,00,
9722260,0000012C,false,Rx,0,8,00,00,01,00,00,64,00,00,
9722350,00000162,false,Rx,0,8,FF,FC,01,00,00,00,00,00,
9724723,0000030B,false,Rx,0,8,68,9A,94,00,04,00,00,00,
9724822,0000030C,false,Rx,0,8,00,00,0E,00,2C,00,A0,0F,
9724870,0000030D,false,Rx,0,8,00,00,00,00,FF,00,00,00,
9725330,0000030E,false,Rx,0,8,00,00,18,05,21,00,00,00,
9727323,000001E6,false,Rx,0,8,55,6B,25,02,00,00,00,00,
9727432,000001BB,false,Rx,0,8,45,FC,25,02,00,00,00,0A,
9727720,000001BC,false,Rx,0,8,32,00,00,00,02,00,00,00,
9727899,000001BD,false,Rx,0,8,00,00,00,00,00,00,00,00,
9728323,000001E7,false,Rx,0,8,00,00,22,03,20,01,00,00,
9728895,00000036,false,Rx,0,8,43,2C,D3,51,00,00,25,05,
9729000,00000037,false,Rx,0,8,30,00,00,10,00,40,00,00,
9729363,00000038,false,Rx,0,8,04,00,00,00,B0,39,96,D4,
9729595,00000039,false,Rx,0,8,00,00,00,00,00,00,00,00,
9730465,0000019B,false,Rx,0,8,09,49,C9,00,00,E4,00,00,
9730853,0000019C,false,Rx,0,8,40,20,00,00,00,00,0B,09,
9730905,0000019D,false,Rx,0,8,00,10,00,01,00,00,00,00,
9731297,00000475,false,Rx,0,8,12,00,00,00,00,00,00,00,
9731619,0000019E,false,Rx,0,8,15,00,00,00,00,32,00,00,
9731886,000001A1,false,Rx,0,8,23,B9,BC,FE,F7,7F,64,00,
9731978,00000496,false,Rx,0,8,12,00,00,00,00,00,00,00,
9732293,000001A2,false,Rx,0,8,44,00,00,00,27,08,00,00,
9732522,000001A3,false,Rx,0,8,FF,F3,3F,00,00,00,00,00,
9732580,000001A4,false,Rx,0,8,FE,07,00,00,00,00,00,00,
9733662,00000383,false,Rx,0,8,5A,53,00,10,01,00,00,00,
9741054,00000448,false,Rx,0,8,DE,80,00,00,00,00,00,00,
9741614,000001FB,false,Rx,0,8,4D,FA,8C,00,00,00,00,00,
9741696,000001FC,false,Rx,0,8,00,00,00,00,00,00,00,00,
9742051,000001FD,false,Rx,0,8,00,1A,03,00,00,00,00,00,
9742529,000001FE,false,Rx,0,8,00,00,00,00,00,00,00,00,
9747836,00000061,false,Rx,0,8,9A,71,53,00,00,00,00,00,
9747937,00000062,false,Rx,0,8,02,02,00,02,40,FF,00,FF,
9748343,00000063,false,Rx,0,8,00,00,05,00,00,08,FD,00,
9748437,00000064,false,Rx,0,8,00,00,00,04,FF,FA,00,00,
9748801,000000A1,false,Rx,0,8,AA,83,53,57,61,02,8A,00,
9749152,000000A2,false,Rx,0,8,00,00,00,00,00,00,00,00,
9749355,000000A3,false,Rx,0,8,00,40,01,00,00,00,00,00,
9749865,00000382,false,Rx,0,8,2B,FE,21,00,00,05,09,00,
9756516,000000C5,false,Rx,1,8,00,00,00,00,00,00,00,00,
9757056,000002BF,false,Rx,0,8,FF,FF,FF,00,00,00,00,00,
9757458,00000244,false,Rx,1,8,FF,FF,FF,FF,FF,FF,FF,FF,
9758034,0000047F,false,Rx,0,8,F0,FC,FF,FF,FF,FF,FF,FF,
9758262,0000041F,false,Rx,1,8,00,0C,00,00,00,00,00,00,
9758608,00000653,false,Rx,0,8,0A,19,03,01,02,2A,00,00,
9759061,000004B4,false,Rx,1,8,00,00,05,40,10,70,04,00,
9759794,00000236,false,Rx,0,8,94,50,93,00,34,6C,AE,62,
9760328,000004B5,false,Rx,1,8,08,00,F0,07,00,00,00,00,
9761078,000002FB,false,Rx,0,8,9E,71,93,04,72,1A,B4,B4,
9761986,00000237,false,Rx,0,8,00,15,47,00,00,1E,1B,00,
9762459,000004B7,false,Rx,1,8,08,00,F0,07,00,00,00,00,
9762547,000004CA,false,Rx,1,8,00,00,00,00,00,00,00,00,
9762783,00000238,false,Rx,0,8,00,00,72,00,00,00,00,00,
9762843,000002FC,false,Rx,0,8,0F,00,14,18,00,00,8E,43,
9762893,000004CC,false,Rx,1,8,08,00,00,06,00,00,03,00,
9763028,00000239,false,Rx,0,8,00,00,00,00,01,00,00,00,
9763078,000004CE,false,Rx,1,8,DE,01,00,00,00,00,F8,FF,
9763126,000002FD,false,Rx,0,8,00,00,00,00,00,1C,13,EA,
9763240,000004D7,false,Rx,1,8,23,01,00,00,00,00,00,00,
9763288,00000121,false,Rx,0,8,0D,69,B9,00,00,00,00,05,
9763334,000004D8,false,Rx,1,8,41,10,F0,F0,40,F2,1E,CC,
9763378,000001F6,false,Rx,0,8,99,7B,93,00,00,00,00,0E,
9763431,000004DD,false,Rx,1,8,00,00,FE,00,04,00,00,00,
9763508,00000122,false,Rx,0,8,FF,D9,67,1F,46,47,46,45,
9763554,000001F7,false,Rx,0,8,26,00,DA,02,00,00,00,00,
9763606,000004DF,false,Rx,1,8,00,00,08,00,00,00,00,00,
9763745,00000123,false,Rx,0,8,B6,02,00,00,00,00,01,00,
9763802,000004E7,false,Rx,1,8,00,30,00,00,00,00,69,00,
9763847,000001F8,false,Rx,0,8,00,5E,01,45,01,00,00,00,
9763983,000004E8,false,Rx,1,8,FF,FF,FF,05,FF,FF,FF,00,
9764034,00000124,false,Rx,0,8,00,00,0A,00,00,00,20,40,
9764093,000004E9,false,Rx,1,8,12,00,00,34,00,00,50,00,
9764216,000001F9,false,Rx,0,8,4B,00,64,C8,14,00,4B,00,
9764269,00000151,false,Rx,0,8,D2,A7,93,64,C8,00,28,18,
9764320,000004EA,false,Rx,1,8,67,00,00,89,00,00,00,00,
9764365,0000025B,false,Rx,0,8,57,E9,93,40,40,20,00,00,
9764421,000004EB,false,Rx,1,8,02,80,16,13,80,00,00,00,
9764484,00000152,false,Rx,0,8,14,17,17,00,51,00,00,00,
9764527,0000025C,false,Rx,0,8,00,00,26,00,B4,2C,19,00,
9764612,00000153,false,Rx,0,8,00,00,00,00,00,00,00,00,
9764761,000004EC,false,Rx,1,8,00,00,00,00,00,00,00,00,
9764808,0000025D,false,Rx,0,8,00,C8,00,00,00,80,C0,70,
9764857,000004ED,false,Rx,1,8,00,00,00,00,00,FF,FF,1F,
9764995,00000154,false,Rx,0,8,00,00,00,00,00,00,00,00,
9765052,000004EE,false,Rx,1,8,FF,FF,00,00,00,00,00,00,
9765125,0000025E,false,Rx,0,8,02,07,0E,01,00,00,46,00,
9765255,000004EF,false,Rx,1,8,60,00,60,00,2B,14,00,00,
9765300,000002FE,false,Rx,0,8,00,00,72,01,00,28,C8,02,
9765354,000004F0,false,Rx,1,8,4A,10,16,13,5C,1A,0B,02,
9765488,00000326,false,Rx,0,8,E0,0C,93,00,00,00,00,00,
9765545,000004F1,false,Rx,1,8,00,C0,00,00,00,00,00,00,
9765617,00000327,false,Rx,0,8,00,00,00,00,05,00,00,00,
9765740,000004F2,false,Rx,1,8,02,FF,DD,FF,03,01,00,00,
9765785,00000328,false,Rx,0,8,DA,02,4B,00,00,5E,01,00,
9765833,000004F3,false,Rx,1,8,00,00,00,00,30,00,00,00,
9765913,00000329,false,Rx,0,8,64,45,01,00,00,00,00,00,
9765959,000004F9,false,Rx,1,8,E0,FF,FF,FF,FF,FF,FF,FF,
9766005,00000331,false,Rx,0,8,C3,A9,93,F1,C8,A0,2C,97,
9766102,000004FE,false,Rx,1,8,69,23,00,03,CF,00,48,A8,
9766163,00000332,false,Rx,0,8,E8,08,FC,03,00,00,00,00,
9766995,0000010B,false,Rx,0,8,09,7E,C3,00,00,00,00,05,
9767950,0000063D,false,Rx,1,8,00,80,00,00,00,00,00,00,
9768202,00000333,false,Rx,0,8,00,00,00,1C,0C,40,20,64,
9768253,0000010C,false,Rx,0,8,FF,F9,E7,1F,46,4F,48,48,
9768343,0000063E,false,Rx,1,8,FF,FF,FF,FF,FF,FF,FF,FF,
9768393,00000334,false,Rx,0,8,C8,00,00,00,08,44,F4,8F,
9768438,0000010D,false,Rx,0,8,B5,02,00,00,00,00,01,00,
9768490,0000063F,false,Rx,1,8,00,10,00,C4,FF,00,00,00,
9768626,0000010E,false,Rx,0,8,00,00,1E,00,00,C0,AB,57,
9768681,00000640,false,Rx,1,8,FF,FF,FF,00,FF,FF,FF,00,
9768729,00000641,false,Rx,1,8,FF,FF,FF,FF,0F,FF,FF,FF,
9769189,00000646,false,Rx,1,8,00,00,00,80,01,00,00,00,
9771947,0000011B,false,Rx,0,8,78,67,7D,05,80,08,28,02,
9772045,0000012B,false,Rx,0,8,9E,37,7D,06,00,00,08,00,
9772088,0000011C,false,Rx,0,8,00,05,20,00,22,00,01,01,
9772148,0000012C,false,Rx,0,8,00,00,01,00,00,64,00,00,
9772194,000001E1,false,Rx,0,8,FC,D3,19,02,00,00,00,00,
9773093,000001E2,false,Rx,0,8,00,00,00,00,00,00,00,00,
9773461,00000091,false,Rx,0,8,38,B6,96,25,06,00,00,00,
9774172,00000092,false,Rx,0,8,26,00,00,00,60,02,00,00,
9774878,00000093,false,Rx,0,8,00,00,00,00,00,00,00,00,
9774964,00000094,false,Rx,0,8,00,00,00,00,00,00,00,00,
9778620,00000036,false,Rx,0,8,FB,2D,D8,51,00,00,25,05,
9778704,00000037,false,Rx,0,8,30,00,00,10,00,40,00,00,
9779234,00000038,false,Rx,0,8,04,00,00,00,B0,39,96,D4,
9779591,00000039,false,Rx,0,8,00,00,00,00,00,00,00,00,
9779822,00000256,false,Rx,0,8,1D,0F,92,15,40,00,00,01,
9779884,000002E6,false,Rx,0,8,21,93,92,01,00,00,00,15,
9780239,00000257,false,Rx,0,8,00,94,41,1B,85,07,00,94,
9780545,000002E7,false,Rx,0,8,0A,00,00,00,00,00,00,00,
9780905,0000019B,false,Rx,0,8,FA,D7,CE,00,00,E4,00,00,
9781250,00000258,false,Rx,0,8,36,ED,1A,00,10,15,00,28,
9781317,0000019C,false,Rx,0,8,40,20,00,00,00,00,0B,09,
9781622,00000259,false,Rx,0,8,6B,05,8E,3C,4C,02,00,00,
9781922,0000019D,false,Rx,0,8,00,10,00,01,00,00,00,00,
9781989,000002E8,false,Rx,0,8,00,00,00,00,00,00,00,00,
9782294,0000019E,false,Rx,0,8,15,00,00,00,00,32,00,00,
9782592,000002E9,false,Rx,0,8,00,00,00,00,00,00,00,00,
9782671,00000384,false,Rx,0,8,BA,56,0D,01,00,FF,00,24,
9790079,0000042A,false,Rx,0,8,8E,83,0C,02,00,10,00,00,
9791006,00000396,false,Rx,0,8,44,86,C9,0F,08,03,00,02,
9791146,00000397,false,Rx,0,8,1C,00,43,10,3F,07,00,00,
9791406,00000398,false,Rx,0,8,00,00,00,00,00,00,00,00,
9791937,00000226,false,Rx,0,8,53,E0,E5,FF,63,60,09,42,
9792328,00000227,false,Rx,0,8,02,94,00,09,03,F1,9F,03,
9797547,00000146,false,Rx,0,8,DC,F6,EE,10,04,05,00,00,
9797640,00000147,false,Rx,0,8,01,04,7D,00,40,46,07,00,
9798052,00000061,false,Rx,0,8,22,70,58,00,00,00,00,00,
9798140,00000148,false,Rx,0,8,00,00,42,00,1E,89,40,05,
9798463,00000062,false,Rx,0,8,02,02,00,02,40,FF,00,FF,
9798821,00000149,false,Rx,0,8,00,38,00,CC,00,00,00,00,
9799142,00000063,false,Rx,0,8,00,00,05,00,00,08,FD,00,
9799464,00000064,false,Rx,0,8,00,00,00,04,FF,FA,00,00,
9799823,000000A1,false,Rx,0,8,96,72,58,57,61,02,8A,00,
9800160,000000A2,false,Rx,0,8,00,00,00,00,00,00,00,00,
9800242,000000A3,false,Rx,0,8,00,40,01,00,00,00,00,00,
9802618,0000036F,false,Rx,0,8,4F,61,01,00,00,00,00,00,
9802711,0000037F,false,Rx,0,8,32,C0,52,24,41,02,00,00,
9806506,000001B1,false,Rx,0,8,50,EB,EE,00,72,00,00,00,
9806922,000001B2,false,Rx,0,8,23,00,04,B7,0F,08,50,10,
9806999,000001B3,false,Rx,0,8,10,33,38,00,5A,7B,6A,7D,
9807075,000001B4,false,Rx,0,8,65,7D,10,00,00,41,00,00,
9809432,00000121,false,Rx,0,8,FE,F7,BE,00,00,00,00,05,
9809547,00000122,false,Rx,0,8,FF,D9,67,1F,46,47,46,45,
9809880,00000123,false,Rx,0,8,B6,02,00,00,00,00,01,00,
9810009,00000124,false,Rx,0,8,00,00,0A,00,00,00,20,40,
9810238,000001AB,false,Rx,0,8,AF,E0,7D,50,70,50,00,00,
9810652,000001AC,false,Rx,0,8,00,28,00,00,00,00,00,00,
9811232,00000566,false,Rx,0,8,16,02,00,00,00,00,FF,FF,
9812370,000003B0,false,Rx,0,8,72,37,FF,C7,00,00,03,C0,
9816640,0000010B,false,Rx,0,8,B1,7F,C8,00,00,00,00,05,
9816732,0000010C,false,Rx,0,8,FF,F9,E7,1F,46,4F,48,48,
9817139,0000010D,false,Rx,0,8,B5,02,00,00,00,00,01,00,
9817222,0000010E,false,Rx,0,8,00,00,1E,00,00,C0,AB,57,
9820434,000003B2,false,Rx,0,8,36,15,FF,02,29,2F,34,00,
9820932,00000161,false,Rx,0,8,53,FB,C1,03,00,00,00,02,
9821059,0000011B,false,Rx,0,8,25,FF,82,05,80,08,28,02,
9821445,00000162,false,Rx,0,8,FF,FC,01,00,00,00,00,00,
9821539,0000011C,false,Rx,0,8,00,05,20,00,22,00,01,01,
9821901,0000012B,false,Rx,0,8,C3,AF,82,06,00,00,08,00,
9822350,0000012C,false,Rx,0,8,00,00,01,00,00,64,00,00,
9822910,00000405,false,Rx,0,8,D2,10,00,00,00,01,00,00,
9822995,00000410,false,Rx,0,8,6A,60,57,3C,DE,6A,FF,FF,
9823278,00000411,false,Rx,0,8,04,D1,50,51,00,00,44,04,
9823604,00000412,false,Rx,0,8,CC,E0,00,00,00,00,00,00,
9824032,00000413,false,Rx,0,8,08,60,00,00,00,00,00,00,
9824635,00000414,false,Rx,0,8,41,70,00,00,28,00,00,00,
9824920,00000416,false,Rx,0,8,55,00,00,00,00,00,00,00,
9825002,00000417,false,Rx,0,8,20,E0,00,00,00,00,00,00,
9825065,00000418,false,Rx,0,8,07,C0,00,00,14,0C,00,00,
9825408,00000419,false,Rx,0,8,34,80,26,D5,31,87,90,00,
9825470,0000048F,false,Rx,0,8,AD,10,41,00,05,00,00,00,
9828870,00000036,false,Rx,0,8,84,01,DD,51,00,00,25,05,
9829002,00000037,false,Rx,0,8,30,00,00,10,00,40,00,00,
9829393,00000038,false,Rx,0,8,04,00,00,00,B0,39,96,D4,
9829475,00000039,false,Rx,0,8,00,00,00,00,00,00,00,00,
9830210,00000380,false,Rx,0,8,96,92,03,08,08,08,08,01,
9830576,0000019B,false,Rx,0,8,32,D5,D3,00,00,E4,00,00,
9830667,0000019C,false,Rx,0,8,40,20,00,00,00,00,0B,09,
9831325,0000019D,false,Rx,0,8,00,10,00,01,00,00,00,00,
9831647,000001A1,false,Rx,0,8,37,01,C1,FE,F7,7F,64,00,
9831755,0000019E,false,Rx,0,8,15,00,00,00,00,32,00,00,
9832044,000001A2,false,Rx,0,8,44,00,00,00,27,08,00,00,
9832339,000001A3,false,Rx,0,8,FF,F3,3F,00,00,00,00,00,
9832683,00000427,false,Rx,0,8,1D,86,FF,00,80,0A,00,00,
9833047,000001A4,false,Rx,0,8,FE,07,00,00,00,00,00,00,
9833377,000001F1,false,Rx,0,8,40,02,DF,01,00,00,28,00,
9833648,000001F2,false,Rx,0,8,00,00,00,00,00,00,00,00,
9835530,000003A1,false,Rx,0,8,D8,C1,B1,00,FF,FF,FF,FF,
9835626,000003A2,false,Rx,0,8,00,00,00,00,00,00,00,00,
9847795,00000061,false,Rx,0,8,5D,5C,5D,00,00,00,00,00,
9847887,00000062,false,Rx,0,8,02,02,00,02,40,FF,00,FF,
9848482,00000063,false,Rx,0,8,00,00,05,00,00,08,FD,00,
9848894,00000064,false,Rx,0,8,00,00,00,04,FF,FA,00,00,
9849339,00000487,false,Rx,1,8,00,00,00,00,00,00,00,00,
9849530,000000A1,false,Rx,0,8,99,99,5D,57,61,02,8A,00,
9849603,000000A2,false,Rx,0,8,00,00,00,00,00,00,00,00,
9849656,00000642,false,Rx,1,8,FF,FF,FF,FF,FF,FF,00,00,
9849702,000000A3,false,Rx,0,8,00,40,01,00,00,00,00,00,
9849761,00000645,false,Rx,1,8,C7,35,06,79,E0,32,56,00,
9850829,000000FF,false,Rx,0,8,CB,10,00,00,00,00,02,00,
9851319,00000394,false,Rx,0,8,2A,22,1A,49,00,00,00,00,
9851420,000003C3,false,Rx,0,8,45,10,31,30,36,00,00,00,
9851851,000003E0,false,Rx,0,8,01,70,01,00,54,03,00,00,
9852832,000003E5,false,Rx,0,8,8E,90,01,00,00,00,00,00,
9853379,000003E6,false,Rx,0,8,7F,00,00,00,00,00,00,00,
9853486,0000041A,false,Rx,0,8,95,40,12,00,00,00,00,00,
9853894,0000041B,false,Rx,0,8,60,30,00,00,00,00,00,00,
9853991,0000041C,false,Rx,0,8,E9,80,E0,00,00,00,00,00,
9854206,00000422,false,Rx,0,8,EA,C0,01,00,00,00,04,00,
9854590,00000432,false,Rx,0,8,03,20,02,00,00,00,00,00,
9854852,00000435,false,Rx,0,8,9F,D0,00,40,00,00,00,00,
9855614,00000442,false,Rx,0,8,CE,20,11,81,00,00,00,00,
9855878,00000444,false,Rx,0,8,6C,30,20,50,55,50,00,00,
9856125,00000445,false,Rx,0,8,D6,20,00,00,00,00,00,18,
9857228,00000464,false,Rx,0,8,B2,70,F0,FF,38,7F,05,00,
9859708,00000121,false,Rx,0,8,EA,4F,C3,00,00,00,00,05,
9859819,00000122,false,Rx,0,8,FF,D9,67,1F,46,47,46,45,
9859863,00000123,false,Rx,0,8,B6,02,00,00,00,00,01,00,
9860494,00000124,false,Rx,0,8,00,00,0A,00,00,00,20,40,
9866630,0000010B,false,Rx,0,8,CE,53,CD,00,00,00,00,05,
9866723,0000010C,false,Rx,0,8,FF,F9,E7,1F,46,4F,48,48,
9867129,0000010D,false,Rx,0,8,B5,02,00,00,00,00,01,00,
9867210,0000010E,false,Rx,0,8,00,00,1E,00,00,C0,AB,57,
9871063,00000401,false,Rx,0,8,C6,10,10,00,00,04,00,00,
9871154,0000011B,false,Rx,0,8,D3,D7,87,05,80,08,28,02,
9871530,0000012B,false,Rx,0,8,35,87,87,06,00,00,08,00,
9871637,0000011C,false,Rx,0,8,00,05,20,00,22,00,01,01,
9872054,0000012C,false,Rx,0,8,00,00,01,00,00,64,00,00,
9873690,00000091,false,Rx,0,8,17,DC,97,25,06,00,00,00,
9873811,00000092,false,Rx,0,8,25,00,00,00,50,02,00,00,
9874138,00000093,false,Rx,0,8,00,00,00,00,00,00,00,00,
9874276,00000094,false,Rx,0,8,00,00,00,00,00,00,00,00,
9877244,000001E6,false,Rx,0,8,26,52,28,02,00,00,00,00,
9877350,000001BB,false,Rx,0,8,73,BF,28,02,00,00,00,0A,
9877533,000001BC,false,Rx,0,8,32,00,00,00,02,00,00,00,
9878040,000001BD,false,Rx,0,8,00,00,00,00,00,00,00,00,
9878167,000001E7,false,Rx,0,8,00,00,22,03,20,01,00,00,
9878844,00000036,false,Rx,0,8,6B,28,E2,51,00,00,25,05,
9879029,00000037,false,Rx,0,8,30,00,00,10,00,40,00,00,
9879190,00000038,false,Rx,0,8,04,00,00,00,B0,39,96,D4,
9879659,000003AA,false,Rx,0,8,FF,00,D0,00,54,00,00,00,
9880199,00000039,false,Rx,0,8,00,00,00,00,00,00,00,00,
9880306,000003B6,false,Rx,0,8,8F,73,C9,00,00,00,00,46,
9880901,0000019B,false,Rx,0,8,8A,D4,D8,00,00,E4,00,00,
9881252,000003B7,false,Rx,0,8,46,00,00,00,00,00,00,00,
9881330,0000019C,false,Rx,0,8,40,20,00,00,00,00,0B,09,
9881386,000003B8,false,Rx,0,8,B2,02,00,00,00,00,69,0E,
9881772,0000019D,false,Rx,0,8,00,10,00,01,00,00,00,00,
9882125,000002D6,false,Rx,0,8,3E,1A,C9,00,00,00,00,00,
9882212,0000019E,false,Rx,0,8,15,00,00,00,00,32,00,00,
9882495,000002D7,false,Rx,0,8,00,00,00,00,03,00,00,00,
9882761,000002EB,false,Rx,0,8,0C,AF,C9,07,08,02,00,02,
9882872,000002D8,false,Rx,0,8,00,00,00,00,00,00,38,47,
9883193,000002EC,false,Rx,0,8,07,00,CF,00,59,00,00,00,
9883386,000002D9,false,Rx,0,8,00,00,00,00,00,00,00,00,
9883432,000002ED,false,Rx,0,8,00,00,00,00,00,00,00,00,
9883906,000003B9,false,Rx,0,8,00,00,00,00,00,00,00,00,
9884469,000002EE,false,Rx,0,8,00,00,00,00,00,00,00,00,
9884578,00000495,false,Rx,0,8,49,00,00,00,00,00,00,00,
9889664,00000251,false,Rx,0,8,46,4A,94,00,00,00,00,00,
9889839,000004A3,false,Rx,1,8,80,00,48,0B,3E,00,00,00,
9890135,00000252,false,Rx,0,8,00,00,1B,1B,03,00,00,00,
9890229,000004A4,false,Rx,1,8,FF,FF,FF,00,00,00,00,00,
9890298,00000253,false,Rx,0,8,00,00,00,58,58,00,80,4D,
9890649,000002AB,false,Rx,0,8,84,D2,97,0C,0C,00,00,00,
9891013,000003B1,false,Rx,0,8,C1,DE,00,80,00,00,20,00,
9891305,000002AC,false,Rx,0,8,00,FF,FF,00,00,40,00,54,
9891378,000002AD,false,Rx,0,8,00,01,00,40,FF,FF,FF,0F,
9891436,000002AE,false,Rx,0,8,01,00,FF,3F,01,01,00,00,
9892127,000002B6,false,Rx,0,8,3E,F4,97,01,00,00,00,40,
9892476,000002B7,false,Rx,0,8,9F,00,50,1C,00,04,00,00,
9892834,000002B8,false,Rx,0,8,FF,F8,10,00,00,00,00,00,
9893147,00000316,false,Rx,0,8,94,6A,73,34,06,80,0A,00,
9893438,000002B9,false,Rx,0,8,0A,00,00,00,00,00,00,00,
9893575,00000317,false,Rx,0,8,00,00,05,00,00,00,00,00,
9893623,000002C1,false,Rx,0,8,18,3B,CC,21,00,41,00,D4,
9893668,0000033B,false,Rx,0,8,DC,B8,96,00,00,00,00,00,
9893780,000002C2,false,Rx,0,8,26,00,00,00,00,00,00,00,
9893840,0000033C,false,Rx,0,8,00,00,00,00,F0,00,00,00,
9894207,000002C3,false,Rx,0,8,00,00,00,00,00,00,00,00,
9894778,0000033D,false,Rx,0,8,00,00,00,00,00,00,00,00,
9895113,000002C4,false,Rx,0,8,00,00,00,00,00,00,00,00,
9895437,0000033E,false,Rx,0,8,00,00,00,00,00,00,00,00,
9895642,000002E1,false,Rx,0,8,B8,BF,97,00,00,00,00,40,
9895845,00000356,false,Rx,0,8,CD,41,CB,00,00,00,00,00,
9896123,000002E2,false,Rx,0,8,FD,00,00,00,00,14,00,04,
9896212,00000357,false,Rx,0,8,00,00,00,00,00,4B,4D,48,
9896527,000002E3,false,Rx,0,8,00,00,00,00,00,00,72,01,
9896868,00000358,false,Rx,0,8,35,41,45,4D,52,37,33,4F,
9897210,000002E4,false,Rx,0,8,02,00,00,00,00,00,00,00,
9897520,00000359,false,Rx,0,8,51,4F,34,52,4A,35,33,00,
9897702,000003CB,false,Rx,0,8,36,14,00,F4,00,00,00,00,
9897768,00000472,false,Rx,0,8,5C,EC,00,40,08,41,00,45,
9897865,00000146,false,Rx,0,8,14,F4,F3,10,04,05,00,00,
9898145,000002FF,false,Rx,0,8,D4,CB,00,71,02,00,00,00,
9898258,00000061,false,Rx,0,8,B2,75,62,00,00,00,00,00,
9898371,00000147,false,Rx,0,8,01,04,7D,00,40,46,07,00,
9898415,00000062,false,Rx,0,8,02,02,00,02,40,FF,00,FF,
9898655,00000148,false,Rx,0,8,00,00,42,00,1E,89,40,05,
9898850,00000063,false,Rx,0,8,00,00,05,00,00,08,FD,00,
9899080,00000149,false,Rx,0,8,00,38,00,CC,00,00,00,00,
9899330,00000064,false,Rx,0,8,00,00,00,04,FF,FA,00,00,
9899551,000003CC,false,Rx,0,8,36,31,34,30,33,34,31,00,
9899794,000000A1,false,Rx,0,8,5C,74,62,57,61,02,8A,00,
9900031,00000473,false,Rx,0,8,5F,24,00,25,00,00,00,78,
9900438,000000A2,false,Rx,0,8,00,00,00,00,00,00,00,00,
9900543,00000474,false,Rx,0,8,91,72,00,00,00,00,00,08,
9900886,000000A3,false,Rx,0,8,00,40,01,00,00,00,00,00,
9902759,0000036F,false,Rx,0,8,F6,71,01,00,00,00,00,00,
9902856,00000111,false,Rx,0,8,E3,89,F9,01,00,00,00,00,
9903166,0000037F,false,Rx,0,8,8B,D0,52,24,41,02,00,00,
9903517,00000112,false,Rx,0,8,00,00,00,00,00,00,00,00,
9903825,00000113,false,Rx,0,8,00,00,00,00,00,00,00,00,
9904050,00000114,false,Rx,0,8,00,00,00,00,00,00,00,00,
9906852,000001B1,false,Rx,0,8,98,E9,F3,00,72,00,00,00,
9906940,000001B2,false,Rx,0,8,23,00,04,B7,0F,08,50,10,
9907194,000001B3,false,Rx,0,8,10,33,38,00,5A,7B,6A,7D,
9907287,000001B4,false,Rx,0,8,65,7D,10,00,00,41,00,00,
9907872,00000516,false,Rx,0,8,61,02,00,00,00,00,FF,FF,
9909149,00000121,false,Rx,0,8,52,4E,C8,00,00,00,00,05,
9909376,00000122,false,Rx,0,8,FF,D9,67,1F,46,47,46,45,
9909621,00000123,false,Rx,0,8,B6,02,00,00,00,00,01,00,
9909934,00000124,false,Rx,0,8,00,00,0A,00,00,00,20,40,
9910243,000001AB,false,Rx,0,8,F2,78,82,50,70,50,00,00,
9910389,000001AC,false,Rx,0,8,00,28,00,00,00,00,00,00,
9916641,0000010B,false,Rx,0,8,8A,E3,D2,00,00,00,00,05,
9916735,0000010C,false,Rx,0,8,FF,F9,E7,1F,46,4F,48,48,
9917134,0000010D,false,Rx,0,8,B5,02,00,00,00,00,01,00,
9917471,0000010E,false,Rx,0,8,00,00,1E,00,00,C0,AB,57,
9921034,00000161,false,Rx,0,8,CC,93,C6,03,00,00,00,02,
9921127,0000011B,false,Rx,0,8,1B,2E,8C,05,80,08,28,02,
9921574,00000162,false,Rx,0,8,FF,FC,01,00,00,00,00,00,
9921646,0000011C,false,Rx,0,8,00,05,20,00,22,00,01,01,
9922022,0000012B,false,Rx,0,8,FD,7E,8C,06,00,00,08,00,
9922329,000001E1,false,Rx,0,8,0A,FB,1C,02,00,00,00,00,
9922428,0000012C,false,Rx,0,8,00,00,01,00,00,64,00,00,
9922607,000001E2,false,Rx,0,8,00,00,00,00,00,00,00,00,
9924937,0000030B,false,Rx,0,8,E4,28,96,00,04,00,00,00,
9925169,0000030C,false,Rx,0,8,00,00,0E,00,2C,00,A0,0F,
9925252,0000030D,false,Rx,0,8,00,00,00,00,FF,00,00,00,
9925298,0000030E,false,Rx,0,8,00,00,18,05,21,00,00,00,
9928927,00000036,false,Rx,0,8,14,04,E7,51,00,00,25,05,
9929019,00000037,false,Rx,0,8,30,00,00,10,00,40,00,00,
9929486,00000038,false,Rx,0,8,04,00,00,00,B0,39,96,D4,
9929557,00000039,false,Rx,0,8,00,00,00,00,00,00,00,00,
9930632,0000019B,false,Rx,0,8,F5,F8,DD,00,00,E4,00,00,
9930753,0000019C,false,Rx,0,8,40,20,00,00,00,00,0B,09,
9931099,0000019D,false,Rx,0,8,00,10,00,01,00,00,00,00,
9931432,00000475,false,Rx,0,8,12,00,00,00,00,00,00,00,
9931554,0000019E,false,Rx,0,8,15,00,00,00,00,32,00,00,
9931797,000001A1,false,Rx,0,8,C4,9F,C6,FE,F7,7F,64,00,
9932104,00000496,false,Rx,0,8,12,00,00,00,00,00,00,00,
9932453,000001A2,false,Rx,0,8,44,00,00,00,27,08,00,00,
9932555,000001A3,false,Rx,0,8,FF,F3,3F,00,00,00,00,00,
9933117,000001A4,false,Rx,0,8,FE,07,00,00,00,00,00,00,
9933645,00000383,false,Rx,0,8,5A,53,00,10,01,00,00,00,
9941078,00000448,false,Rx,0,8,DE,80,00,00,00,00,00,00,
9941644,000001FB,false,Rx,0,8,C1,48,8E,00,00,00,00,00,
9941730,000001FC,false,Rx,0,8,00,00,00,00,00,00,00,00,
9942026,000001FD,false,Rx,0,8,00,1A,03,00,00,00,00,00,
9942177,000001FE,false,Rx,0,8,00,00,00,00,00,00,00,00,
9947845,00000061,false,Rx,0,8,CD,59,67,00,00,00,00,00,
9947946,00000062,false,Rx,0,8,02,02,00,02,40,FF,00,FF,
9948345,00000063,false,Rx,0,8,00,00,05,00,00,08,FD,00,
9948441,00000064,false,Rx,0,8,00,00,00,04,FF,FA,00,00,
9948809,000000A1,false,Rx,0,8,53,9F,67,57,61,02,8A,00,
9949173,000000A2,false,Rx,0,8,00,00,00,00,00,00,00,00,
9949270,000000A3,false,Rx,0,8,00,40,01,00,00,00,00,00,
9949806,00000382,false,Rx,0,8,2B,FE,21,00,00,05,09,00,
9956457,000002BF,false,Rx,0,8,FF,FF,FF,00,00,00,00,00,
9956609,0000047F,false,Rx,0,8,F0,FC,FF,FF,FF,FF,FF,FF,
9956986,00000653,false,Rx,0,8,0A,19,03,01,02,2A,00,00,
9957464,00000236,false,Rx,0,8,1A,F9,95,00,34,6C,AE,62,
9957537,000002FB,false,Rx,0,8,2B,B6,95,04,72,1A,B4,B4,
9957741,00000237,false,Rx,0,8,00,15,47,00,00,1D,1B,00,
9957908,000002FC,false,Rx,0,8,0F,00,14,18,00,00,8E,43,
9958256,00000238,false,Rx,0,8,00,00,72,00,00,00,00,00,
9958441,000002FD,false,Rx,0,8,00,00,00,00,00,1C,13,EA,
9958591,00000239,false,Rx,0,8,00,00,00,00,01,00,00,00,
9958839,000002FE,false,Rx,0,8,00,00,72,01,00,28,C8,02,
9959864,00000121,false,Rx,0,8,2D,62,CD,00,00,00,00,05,
9960666,000000C5,false,Rx,1,8,00,00,00,00,00,00,00,00,
9961040,00000122,false,Rx,0,8,FF,D9,67,1F,46,47,46,45,
9961092,00000123,false,Rx,0,8,B6,02,00,00,00,00,01,00,
9961372,00000244,false,Rx,1,8,FF,FF,FF,FF,FF,FF,FF,FF,
9961889,000001F6,false,Rx,0,8,2C,BC,95,00,00,00,00,0E,
9962032,00000124,false,Rx,0,8,00,00,0A,00,00,00,20,40,
9962103,000003E4,false,Rx,1,8,FE,00,00,00,00,00,00,00,
9962804,000001F7,false,Rx,0,8,26,00,DA,02,00,00,00,00,
9963119,000004B4,false,Rx,1,8,00,00,05,40,10,70,04,00,
9963179,00000151,false,Rx,0,8,67,60,95,64,C8,00,28,18,
9963223,000001F8,false,Rx,0,8,00,5E,01,45,01,00,00,00,
9963271,000004B5,false,Rx,1,8,08,00,F0,07,00,00,00,00,
9963323,00000152,false,Rx,0,8,14,17,17,00,51,00,00,00,
9963405,000001F9,false,Rx,0,8,4B,00,64,C8,14,00,4B,00,
9963454,000004B7,false,Rx,1,8,08,00,F0,07,00,00,00,00,
