Time Stamp,ID,Extended,Dir,Bus,LEN,D1,D2,D3,D4,D5,D6,D7,D8
190617,00000146,false,Rx,0,8,14,B7,D5,10,04,01,00,00,
190744,00000147,false,Rx,0,8,00,04,7D,00,40,00,00,00,
191218,00000148,false,Rx,0,8,00,00,00,00,00,7E,40,05,
191947,00000149,false,Rx,0,8,00,00,00,00,00,00,00,00,
192380,000001B1,false,Rx,0,8,DA,D7,D5,00,72,00,00,00,
192564,000001B2,false,Rx,0,8,23,00,04,10,0F,03,51,10,
192758,000001B3,false,Rx,0,8,10,28,00,00,73,7C,78,80,
192859,000001B4,false,Rx,0,8,72,82,17,00,00,40,01,00,
196212,00000061,false,Rx,0,8,5A,7C,0B,00,00,00,00,00,
196362,00000062,false,Rx,0,8,02,02,00,02,40,FF,00,FF,
196779,00000063,false,Rx,0,8,00,00,05,00,00,08,FD,00,
197233,00000064,false,Rx,0,8,00,00,00,04,FF,FA,00,00,
199825,00000226,false,Rx,0,8,E1,DB,EF,FF,B4,20,09,42,
199971,000002FF,false,Rx,0,8,E2,01,00,F1,3F,00,00,00,
200152,00000227,false,Rx,0,8,02,77,4F,09,00,F2,6F,03,
200385,00000316,false,Rx,0,8,CC,E5,77,40,0B,80,0A,00,
201037,0000019B,false,Rx,0,8,B1,48,C2,00,00,E4,00,00,
201704,00000317,false,Rx,0,8,00,00,05,00,00,00,00,00,
201930,0000019C,false,Rx,0,8,40,20,00,00,00,00,0B,09,
202630,00000472,false,Rx,0,8,5C,EC,00,40,08,41,00,45,
203357,0000019D,false,Rx,0,8,00,10,00,01,00,00,00,00,
203749,00000473,false,Rx,0,8,5F,24,00,25,00,00,00,78,
204296,0000019E,false,Rx,0,8,15,00,00,00,00,32,00,00,
204466,00000474,false,Rx,0,8,51,AE,00,00,00,00,00,0C,
204894,000004F0,false,Rx,1,8,4A,12,38,37,64,1A,07,02,
205402,000001E1,false,Rx,0,8,18,90,8E,02,00,00,00,00,
205534,000001E2,false,Rx,0,8,00,00,00,00,00,00,00,00,
212136,0000010B,false,Rx,0,8,10,27,B5,00,00,00,00,05,
212287,0000010C,false,Rx,0,8,FF,F9,E7,1F,46,57,49,49,
213237,0000010D,false,Rx,0,8,D6,02,00,00,00,00,01,35,
214256,0000010E,false,Rx,0,8,00,00,0A,00,00,C0,AB,57,
215061,000000C5,false,Rx,1,8,00,00,00,00,00,00,00,00,
215908,00000244,false,Rx,1,8,FF,FF,FF,FF,FF,FF,FF,FF,
216765,000004B4,false,Rx,1,8,00,00,00,00,00,00,00,00,
217401,000004B5,false,Rx,1,8,08,00,F0,07,00,00,00,00,
218244,000004B7,false,Rx,1,8,08,00,F0,07,00,00,00,00,
218936,000004CA,false,Rx,1,8,00,00,00,00,00,00,00,00,
219295,00000445,false,Rx,0,8,61,40,00,00,00,04,00,18,
219476,000004CC,false,Rx,1,8,08,00,00,06,00,00,03,00,
219590,000004CE,false,Rx,1,8,14,01,FF,FF,FF,FF,FF,FF,
219817,000004D7,false,Rx,1,8,23,01,00,00,00,00,00,00,
220096,000004D8,false,Rx,1,8,41,10,F0,F0,40,F2,1E,CC,
220573,000004DD,false,Rx,1,8,00,00,FE,00,04,00,00,00,
220810,000004DF,false,Rx,1,8,FF,03,0C,3F,00,00,00,00,
221065,000000A1,false,Rx,0,8,F8,96,0D,21,09,04,00,00,
221195,000000A2,false,Rx,0,8,00,00,00,00,00,00,00,00,
221390,000004E7,false,Rx,1,8,00,30,00,00,00,00,69,0F,
221556,000004E8,false,Rx,1,8,FF,FF,FF,05,FF,FF,FF,00,
221676,000000A3,false,Rx,0,8,00,40,01,00,00,00,00,00,
221970,000004E9,false,Rx,1,8,12,00,00,34,00,00,50,00,
222267,000004EA,false,Rx,1,8,67,00,00,89,00,00,00,00,
222446,000004EB,false,Rx,1,8,40,90,38,37,80,00,00,00,
222575,000004EC,false,Rx,1,8,00,00,00,00,00,00,00,00,
222724,000004ED,false,Rx,1,8,00,00,00,00,00,FF,FF,1F,
222861,000004EE,false,Rx,1,8,FF,FF,00,00,00,00,00,00,
223002,000004EF,false,Rx,1,8,60,00,60,00,29,14,00,00,
223141,0000063D,false,Rx,1,8,00,80,00,00,00,00,00,00,
223270,0000063E,false,Rx,1,8,FF,FF,FF,FF,FF,FF,FF,FF,
223397,0000063F,false,Rx,1,8,00,10,00,C4,FF,00,00,00,
223520,00000640,false,Rx,1,8,FF,FF,FF,00,FF,FF,FF,00,
223662,00000641,false,Rx,1,8,FF,FF,FF,FF,0F,FF,FF,FF,
223791,00000646,false,Rx,1,8,00,00,00,80,01,00,00,00,
224034,00000419,false,Rx,0,8,8D,A0,38,D6,BD,79,84,00,
224186,00000121,false,Rx,0,8,11,EA,B6,00,00,00,00,05,
224371,0000011B,false,Rx,0,8,40,88,C8,05,80,08,A8,02,
224626,00000122,false,Rx,0,8,FF,D9,67,1F,45,45,46,46,
224851,0000011C,false,Rx,0,8,00,05,20,00,22,00,01,01,
225096,00000123,false,Rx,0,8,D7,02,00,00,00,00,01,35,
225873,00000124,false,Rx,0,8,00,00,0A,00,00,00,20,40,
226565,0000012B,false,Rx,0,8,07,72,C8,06,00,00,08,00,
227004,0000012C,false,Rx,0,8,00,00,01,00,00,64,00,00,
227489,00000161,false,Rx,0,8,B1,95,E4,03,00,00,00,02,
227908,00000162,false,Rx,0,8,FF,FC,01,00,00,00,00,00,
234807,000001A1,false,Rx,0,8,E8,D3,E4,FE,F7,7F,64,00,
234963,00000036,false,Rx,0,8,7B,8C,CA,51,00,00,25,01,
235377,000001A2,false,Rx,0,8,00,00,00,00,00,08,00,00,
235812,00000037,false,Rx,0,8,00,00,00,10,00,40,00,00,
236288,000001A3,false,Rx,0,8,FF,F3,3F,00,00,00,00,00,
236986,00000038,false,Rx,0,8,04,00,00,00,F0,39,96,D4,
237445,000001A4,false,Rx,0,8,FE,07,00,00,00,00,00,00,
237606,00000039,false,Rx,0,8,00,00,00,00,00,00,00,00,
240964,000001F1,false,Rx,0,8,44,34,03,01,00,00,28,00,
241114,000001F2,false,Rx,0,8,00,00,00,00,00,00,00,00,
241922,00000475,false,Rx,0,8,12,00,00,00,00,00,00,00,
242055,00000496,false,Rx,0,8,12,00,00,00,00,00,00,00,
243155,000004F0,false,Rx,1,8,4A,12,38,37,64,1A,07,02,
244082,0000030B,false,Rx,0,8,B2,24,C7,00,04,00,00,00,
244385,0000030C,false,Rx,0,8,00,00,0C,00,2C,00,A0,0F,
244630,0000030D,false,Rx,0,8,00,00,00,00,FF,00,00,00,
244930,0000030E,false,Rx,0,8,00,00,20,05,21,00,00,1A,
246049,00000061,false,Rx,0,8,27,B9,10,00,00,00,00,00,
246218,00000062,false,Rx,0,8,02,02,00,02,40,FF,00,FF,
246517,00000063,false,Rx,0,8,00,00,05,00,00,08,FD,00,
246823,00000064,false,Rx,0,8,00,00,00,04,FF,FA,00,00,
247412,00000419,false,Rx,0,8,1D,B0,38,D6,C1,79,84,00,
250474,0000019B,false,Rx,0,8,CE,64,C7,00,00,E4,00,00,
250609,0000019C,false,Rx,0,8,40,20,00,00,00,00,0B,09,
250865,0000019D,false,Rx,0,8,00,10,00,01,00,00,00,00,
251088,0000019E,false,Rx,0,8,15,00,00,00,00,32,00,00,
252903,00000236,false,Rx,0,8,A8,1D,C7,00,34,6C,34,6C,
253060,000002FB,false,Rx,0,8,C7,47,C7,04,D2,16,BD,BD,
253288,00000151,false,Rx,0,8,DC,C7,C7,C8,C8,00,28,15,
253604,00000237,false,Rx,0,8,00,05,78,00,00,66,1C,00,
253790,00000152,false,Rx,0,8,14,15,14,00,32,00,00,00,
254025,000001F6,false,Rx,0,8,82,4E,C7,00,00,00,00,0D,
254347,00000153,false,Rx,0,8,00,00,00,00,00,00,00,00,
254586,000001F7,false,Rx,0,8,22,00,EA,06,00,00,00,00,
254719,00000154,false,Rx,0,8,00,00,00,00,00,00,00,00,
255017,000001F8,false,Rx,0,8,00,48,03,16,03,00,00,00,
255268,000002FC,false,Rx,0,8,04,00,14,15,00,00,86,77,
255551,000001F9,false,Rx,0,8,B9,00,C8,C8,14,00,B9,00,
255693,000002FD,false,Rx,0,8,00,00,00,00,00,1C,0F,EA,
256451,00000238,false,Rx,0,8,00,00,D2,00,00,00,00,00,
257184,000002FE,false,Rx,0,8,00,00,72,01,00,28,00,00,
257777,00000239,false,Rx,0,8,00,00,00,00,01,00,00,00,
258225,000002D6,false,Rx,0,8,39,BC,62,00,00,00,00,00,
258667,0000025B,false,Rx,0,8,3E,B5,C7,00,40,20,00,00,
259196,000002D7,false,Rx,0,8,00,00,00,00,03,00,00,00,
259663,0000025C,false,Rx,0,8,00,00,22,00,3E,52,16,00,
260112,000002D8,false,Rx,0,8,00,00,00,00,00,00,38,44,
260790,0000025D,false,Rx,0,8,00,C8,00,00,00,40,C0,70,
261094,000002D9,false,Rx,0,8,00,00,00,00,00,00,00,00,
261226,0000025E,false,Rx,0,8,B6,02,08,00,00,00,00,00,
261369,00000326,false,Rx,0,8,5A,70,C7,00,00,00,00,00,
261725,00000396,false,Rx,0,8,7B,4E,62,0F,08,01,00,02,
262392,000002EB,false,Rx,0,8,6A,9E,62,08,08,01,00,02,
262981,00000397,false,Rx,0,8,1C,00,00,00,00,00,00,00,
263255,000002EC,false,Rx,0,8,07,00,00,00,00,00,00,00,
263427,00000398,false,Rx,0,8,00,00,00,00,00,00,00,00,
263621,000002ED,false,Rx,0,8,00,00,00,00,00,00,00,00,
263726,00000445,false,Rx,0,8,61,40,00,00,00,04,00,18,
263872,000002EE,false,Rx,0,8,00,00,00,00,00,00,00,00,
264043,000001AB,false,Rx,0,8,58,0B,B2,50,70,40,00,00,
264213,00000327,false,Rx,0,8,00,00,00,00,05,00,00,00,
264420,000001AC,false,Rx,0,8,00,28,00,00,00,00,00,00,
264560,00000328,false,Rx,0,8,EA,06,B9,00,00,48,03,00,
264686,00000380,false,Rx,0,8,97,8B,03,00,00,00,00,01,
264781,0000010B,false,Rx,0,8,91,53,BA,00,00,00,00,05,
264894,00000329,false,Rx,0,8,C8,16,03,00,00,00,00,00,
265379,0000010C,false,Rx,0,8,FF,F9,E7,1F,46,57,49,49,
265666,00000331,false,Rx,0,8,82,25,C7,F1,C8,A0,2C,97,
265840,0000010D,false,Rx,0,8,D6,02,00,00,00,00,01,35,
266079,00000332,false,Rx,0,8,F8,07,1C,02,00,00,00,00,
266215,0000010E,false,Rx,0,8,00,00,0A,00,00,C0,AB,57,
266376,00000333,false,Rx,0,8,00,00,00,1C,0C,40,20,C8,
266569,00000383,false,Rx,0,8,67,25,02,00,02,00,00,00,
266776,00000334,false,Rx,0,8,C8,00,00,00,F1,8F,F1,8F,
266918,00000561,false,Rx,0,8,63,02,00,00,00,00,FF,FF,
267125,000002AB,false,Rx,0,8,A8,09,C8,0C,0C,00,00,00,
267348,000002AC,false,Rx,0,8,00,FF,FF,00,00,40,00,50,
267517,00000384,false,Rx,0,8,3A,9B,03,00,00,FF,00,21,
267737,000002AD,false,Rx,0,8,00,01,00,40,FF,FF,FF,0F,
267856,000002AE,false,Rx,0,8,01,00,FF,3F,01,01,00,00,
268107,000000A1,false,Rx,0,8,9B,FB,12,21,09,04,00,00,
268381,000002B6,false,Rx,0,8,93,DF,C8,01,00,00,00,40,
268650,000000A2,false,Rx,0,8,00,00,00,00,00,00,00,00,
268822,000002B7,false,Rx,0,8,22,01,86,00,00,04,00,00,
269021,000000A3,false,Rx,0,8,00,40,01,00,00,00,00,00,
269133,000002B8,false,Rx,0,8,FE,F1,0F,00,00,00,00,00,
269359,000002B9,false,Rx,0,8,0A,00,00,00,00,00,00,00,
269566,000002E1,false,Rx,0,8,8B,2C,C8,00,00,00,00,40,
269757,00000091,false,Rx,0,8,5B,B9,C5,16,00,00,00,00,
269981,000002E2,false,Rx,0,8,FD,00,00,00,00,14,00,04,
270121,00000092,false,Rx,0,8,00,00,00,00,00,00,00,00,
270354,000002E3,false,Rx,0,8,00,00,00,00,00,00,72,01,
270485,00000093,false,Rx,0,8,00,00,00,00,00,00,00,00,
270637,000002E4,false,Rx,0,8,02,00,00,00,00,00,00,00,
270740,00000094,false,Rx,0,8,00,00,00,00,00,00,00,00,
270855,0000042A,false,Rx,0,8,1D,C5,02,01,00,10,00,00,
273372,000003AA,false,Rx,0,8,FF,00,D0,00,54,00,00,00,
274033,00000121,false,Rx,0,8,1C,2C,BB,00,00,00,00,05,
274521,00000122,false,Rx,0,8,FF,D9,67,1F,45,45,46,46,
275139,0000011B,false,Rx,0,8,B6,A0,CD,05,80,08,A8,02,
275846,00000123,false,Rx,0,8,D7,02,00,00,00,00,01,35,
276132,0000011C,false,Rx,0,8,00,05,20,00,22,00,01,01,
276462,00000124,false,Rx,0,8,00,00,0A,00,00,00,20,40,
276661,0000012B,false,Rx,0,8,F1,5A,CD,06,00,00,08,00,
276756,0000012C,false,Rx,0,8,00,00,01,00,00,64,00,00,
277369,000001E6,false,Rx,0,8,2A,5C,8A,02,00,00,00,00,
277560,000001BB,false,Rx,0,8,09,73,8A,02,00,00,00,0A,
278183,000001BC,false,Rx,0,8,32,00,00,00,02,00,00,00,
278911,000001BD,false,Rx,0,8,00,00,00,00,00,00,00,00,
279476,000001E7,false,Rx,0,8,00,00,22,03,20,01,00,00,
281866,00000419,false,Rx,0,8,53,C0,39,D6,C1,79,84,00,
283622,00000415,false,Rx,0,8,40,13,10,00,08,01,00,00,
284921,00000036,false,Rx,0,8,04,A0,CF,51,00,00,25,01,
285340,00000037,false,Rx,0,8,00,00,00,10,00,40,00,00,
285715,00000038,false,Rx,0,8,04,00,00,00,F0,39,96,D4,
286161,0000033B,false,Rx,0,8,A9,72,C8,00,00,00,00,00,
286317,00000039,false,Rx,0,8,00,00,00,00,00,00,00,00,
286625,0000033C,false,Rx,0,8,00,00,00,00,F0,00,00,00,
286762,00000356,false,Rx,0,8,09,EA,64,00,00,00,00,00,
287030,0000033D,false,Rx,0,8,00,00,00,00,00,00,00,00,
287165,00000357,false,Rx,0,8,00,00,00,00,00,4B,4D,48,
287468,0000033E,false,Rx,0,8,00,00,00,00,00,00,00,00,
287678,00000358,false,Rx,0,8,35,41,45,4D,52,37,33,4F,
287857,00000359,false,Rx,0,8,51,4F,34,52,4A,35,33,00,
287995,0000036F,false,Rx,0,8,FE,01,01,00,00,00,00,00,
288097,0000037F,false,Rx,0,8,B5,70,92,24,41,02,00,00,
288934,00000495,false,Rx,0,8,49,00,00,00,00,00,00,00,
290539,00000146,false,Rx,0,8,95,C3,DA,10,04,01,00,00,
290678,00000147,false,Rx,0,8,00,04,7D,00,40,00,00,00,
290900,00000148,false,Rx,0,8,00,00,00,00,00,7E,40,05,
291124,00000149,false,Rx,0,8,00,00,00,00,00,00,00,00,
291466,000001B1,false,Rx,0,8,5B,A3,DA,00,72,00,00,00,
291776,000001B2,false,Rx,0,8,23,00,04,10,0F,03,51,10,
291896,000001B3,false,Rx,0,8,10,28,00,00,73,7C,78,80,
292138,000001B4,false,Rx,0,8,72,82,17,00,00,40,01,00,
295182,00000445,false,Rx,0,8,61,40,00,00,00,04,00,18,
296253,00000061,false,Rx,0,8,58,95,15,00,00,00,00,00,
296620,00000062,false,Rx,0,8,02,02,00,02,40,FF,00,FF,
296871,00000063,false,Rx,0,8,00,00,05,00,00,08,FD,00,
297044,00000064,false,Rx,0,8,00,00,00,04,FF,FA,00,00,
300612,0000019B,false,Rx,0,8,76,65,CC,00,00,E4,00,00,
300766,0000019C,false,Rx,0,8,40,20,00,00,00,00,0B,09,
301187,000003A1,false,Rx,0,8,9F,0A,A2,00,FF,FF,FF,FF,
301585,0000019D,false,Rx,0,8,00,10,00,01,00,00,00,00,
301911,000003A2,false,Rx,0,8,00,00,00,00,00,00,00,00,
302046,0000019E,false,Rx,0,8,15,00,00,00,00,32,00,00,
305229,00000487,false,Rx,1,8,00,00,00,00,00,00,00,00,
305406,00000642,false,Rx,1,8,00,00,00,00,00,00,00,00,
308069,00000405,false,Rx,0,8,0C,50,00,00,00,01,00,00,
308405,00000413,false,Rx,0,8,FD,60,00,41,00,00,00,00,
308537,00000410,false,Rx,0,8,64,50,54,3C,5C,6A,FF,FF,
308935,00000414,false,Rx,0,8,F0,10,00,00,28,00,00,00,
309372,00000411,false,Rx,0,8,CA,71,50,51,00,00,44,04,
309827,00000416,false,Rx,0,8,55,00,00,00,00,00,00,00,
310058,00000412,false,Rx,0,8,A3,C0,00,00,00,00,00,00,
310146,00000417,false,Rx,0,8,B7,70,00,00,00,01,00,00,
310272,00000418,false,Rx,0,8,1F,50,00,00,14,0C,00,00,
311252,00000111,false,Rx,0,8,42,F6,82,01,00,00,00,00,
311746,00000112,false,Rx,0,8,00,00,00,00,00,00,00,00,
312520,00000113,false,Rx,0,8,00,00,00,00,00,00,00,00,
313024,00000114,false,Rx,0,8,00,00,00,00,00,00,00,00,
313452,0000010B,false,Rx,0,8,EE,7F,BF,00,00,00,00,05,
313744,0000010C,false,Rx,0,8,FF,F9,E7,1F,46,57,49,49,
313861,0000010D,false,Rx,0,8,D6,02,00,00,00,00,01,35,
314418,0000010E,false,Rx,0,8,00,00,0A,00,00,C0,AB,57,
315337,000000FF,false,Rx,0,8,CB,10,00,00,00,00,02,00,
316000,00000394,false,Rx,0,8,2A,22,1A,49,00,00,00,00,
316159,000002E6,false,Rx,0,8,60,EA,C5,01,00,00,00,15,
316471,000003C3,false,Rx,0,8,45,10,31,30,36,00,00,00,
316908,000002E7,false,Rx,0,8,0A,00,00,00,00,00,00,00,
317320,000000A1,false,Rx,0,8,94,10,17,21,09,04,00,00,
317764,00000256,false,Rx,0,8,99,EB,C5,15,00,00,30,01,
318448,000000A2,false,Rx,0,8,00,00,00,00,00,00,00,00,
318982,00000257,false,Rx,0,8,00,8B,3F,1D,84,07,00,8B,
319431,000000A3,false,Rx,0,8,00,40,01,00,00,00,00,00,
319621,00000258,false,Rx,0,8,03,2F,1C,00,10,15,00,1C,
320357,000002E8,false,Rx,0,8,00,00,00,00,00,00,00,00,
320538,00000259,false,Rx,0,8,60,05,8C,3C,28,02,00,00,
321285,000002E9,false,Rx,0,8,00,00,00,00,00,00,00,00,
321456,000003E0,false,Rx,0,8,A8,80,01,00,54,03,00,00,
321870,0000041A,false,Rx,0,8,D4,80,12,00,50,01,00,00,
322293,000003B6,false,Rx,0,8,1D,C1,62,00,00,00,00,44,
322715,000002BF,false,Rx,0,8,FF,FF,FF,00,00,00,00,00,
323397,000003B7,false,Rx,0,8,44,00,00,00,00,00,00,00,
323815,0000041B,false,Rx,0,8,17,80,00,00,00,00,00,00,
324171,000003B8,false,Rx,0,8,D2,02,00,00,00,00,69,0E,
67422,0000041C,false,Rx,0,8,E9,80,E0,00,00,00,00,00,
67865,000003B9,false,Rx,0,8,00,00,00,00,00,00,00,00,
68394,00000422,false,Rx,0,8,E2,B0,01,00,00,00,04,00,
68839,000003E5,false,Rx,0,8,27,60,01,00,00,00,00,00,
69275,00000432,false,Rx,0,8,03,20,02,00,00,00,00,00,
69919,000003E6,false,Rx,0,8,6F,E0,00,00,00,00,00,00,
70079,00000435,false,Rx,0,8,3E,50,00,40,00,00,00,00,
70326,0000047F,false,Rx,0,8,F3,FF,FF,FF,FF,3F,FF,FF,
70438,00000419,false,Rx,0,8,53,C0,39,D6,C1,79,84,00,
70554,00000653,false,Rx,0,8,0A,19,03,01,02,2A,00,00,
70729,00000442,false,Rx,0,8,CE,20,11,81,00,00,00,00,
70831,00000444,false,Rx,0,8,AA,E0,20,50,55,50,00,00,
71025,00000464,false,Rx,0,8,7C,D0,F0,FF,38,7F,05,00,
71130,00000121,false,Rx,0,8,D5,E5,C0,00,00,00,00,05,
71248,00000122,false,Rx,0,8,FF,D9,67,1F,46,45,46,46,
71388,0000011B,false,Rx,0,8,A6,FA,D2,05,80,08,A8,02,
71524,00000123,false,Rx,0,8,D7,02,00,00,00,00,01,35,
71696,0000011C,false,Rx,0,8,00,05,20,00,22,00,01,01,
72026,00000124,false,Rx,0,8,00,00,0A,00,00,00,20,40,
72170,000001FB,false,Rx,0,8,08,1E,C8,00,32,32,00,00,
72312,0000012B,false,Rx,0,8,E1,00,D2,06,00,00,08,00,
72474,000001FC,false,Rx,0,8,00,00,00,00,00,00,19,00,
72773,0000012C,false,Rx,0,8,00,00,01,00,00,64,00,00,
73199,000001FD,false,Rx,0,8,00,1A,03,00,00,00,00,00,
73860,00000161,false,Rx,0,8,C2,AC,E9,03,00,00,00,02,
74390,000001FE,false,Rx,0,8,00,00,00,00,00,00,00,00,
74518,00000162,false,Rx,0,8,FF,FC,01,00,00,00,00,00,
74898,00000445,false,Rx,0,8,61,40,00,00,00,04,00,18,
77368,000001A1,false,Rx,0,8,E5,15,E9,FE,F7,7F,64,00,
77609,000001A2,false,Rx,0,8,00,00,00,00,00,08,00,00,
77767,000001A3,false,Rx,0,8,FF,F3,3F,00,00,00,00,00,
78338,00000036,false,Rx,0,8,79,65,D4,51,00,00,25,01,
78735,000001A4,false,Rx,0,8,FE,07,00,00,00,00,00,00,
78987,00000037,false,Rx,0,8,00,00,00,10,00,40,00,00,
79113,00000038,false,Rx,0,8,04,00,00,00,F0,39,96,D4,
79260,00000039,false,Rx,0,8,00,00,00,00,00,00,00,00,
84616,00000448,false,Rx,0,8,7F,00,00,00,00,00,00,00,
87896,000004A3,false,Rx,1,8,80,00,48,0B,3E,00,00,00,
88167,000004A4,false,Rx,1,8,FF,FF,FF,00,00,00,00,00,
89056,00000061,false,Rx,0,8,D9,E1,1A,00,00,00,00,00,
89223,00000062,false,Rx,0,8,02,02,00,02,40,FF,00,FF,
89508,00000063,false,Rx,0,8,00,00,05,00,00,08,FD,00,
89789,00000064,false,Rx,0,8,00,00,00,04,FF,FA,00,00,
90276,00000419,false,Rx,0,8,A4,D0,39,D6,C5,79,84,00,
93382,0000019B,false,Rx,0,8,BE,67,D1,00,00,E4,00,00,
93533,0000019C,false,Rx,0,8,40,20,00,00,00,00,0B,09,
93830,0000019D,false,Rx,0,8,00,10,00,01,00,00,00,00,
94094,0000019E,false,Rx,0,8,15,00,00,00,00,32,00,00,
97426,00000251,false,Rx,0,8,6F,12,C6,00,00,00,00,00,
97587,00000252,false,Rx,0,8,00,00,00,00,03,00,00,00,
97870,00000253,false,Rx,0,8,00,00,00,4E,4E,00,80,51,
98146,000001E1,false,Rx,0,8,08,CA,91,02,00,00,00,00,
98318,000001E2,false,Rx,0,8,00,00,00,00,00,00,00,00,
102770,00000563,false,Rx,1,8,65,02,00,00,00,00,FF,FF,
103195,000001AB,false,Rx,0,8,AE,23,B7,50,70,40,00,00,
103692,000001AC,false,Rx,0,8,00,28,00,00,00,00,00,00,
105031,0000010B,false,Rx,0,8,4F,00,C4,00,00,00,00,05,
105187,0000010C,false,Rx,0,8,FF,F9,E7,1F,46,57,49,49,
105480,0000010D,false,Rx,0,8,D6,02,00,00,00,00,01,35,
105779,0000010E,false,Rx,0,8,00,00,0A,00,00,C0,AB,57,
108771,000002C1,false,Rx,0,8,CB,B7,65,21,00,41,00,A5,
109175,000002C2,false,Rx,0,8,1F,00,00,00,00,00,00,00,
109344,000002C3,false,Rx,0,8,00,00,00,00,00,00,00,00,
109497,000002C4,false,Rx,0,8,00,00,00,00,00,00,00,00,
109737,000000A1,false,Rx,0,8,A8,E1,1C,21,09,04,00,00,
110049,000000A2,false,Rx,0,8,00,00,00,00,00,00,00,00,
110279,000000A3,false,Rx,0,8,00,40,01,00,00,00,00,00,
111430,00000091,false,Rx,0,8,91,52,C6,16,00,00,00,00,
111574,00000092,false,Rx,0,8,00,00,00,00,00,00,00,00,
111878,00000093,false,Rx,0,8,00,00,00,00,00,00,00,00,
112119,00000094,false,Rx,0,8,00,00,00,00,00,00,00,00,
115879,00000401,false,Rx,0,8,C6,10,10,00,00,04,00,00,
117046,00000121,false,Rx,0,8,C2,7F,C5,00,00,00,00,05,
117223,00000122,false,Rx,0,8,FF,D9,67,1F,45,45,46,46,
117656,0000011B,false,Rx,0,8,50,D2,D7,05,80,08,A8,02,
118375,00000123,false,Rx,0,8,D7,02,00,00,00,00,01,35,
118757,0000011C,false,Rx,0,8,00,05,20,00,22,00,01,01,
119086,00000124,false,Rx,0,8,00,00,0A,00,00,00,20,40,
119258,0000012B,false,Rx,0,8,17,28,D7,06,00,00,08,00,
119692,0000012C,false,Rx,0,8,00,00,01,00,00,64,00,00,
121391,000003B0,false,Rx,0,8,72,37,FF,C7,00,00,03,C0,
124520,00000382,false,Rx,0,8,F8,23,08,00,00,01,08,00,
125150,00000419,false,Rx,0,8,B8,E0,3A,D6,C5,79,84,00,
126992,000003B1,false,Rx,0,8,9B,3C,FF,40,00,00,20,00,
127892,00000036,false,Rx,0,8,74,A3,D9,51,00,00,25,01,
128045,00000037,false,Rx,0,8,00,00,00,10,00,40,00,00,
128230,00000038,false,Rx,0,8,04,00,00,00,F0,39,96,D4,
128387,00000039,false,Rx,0,8,00,00,00,00,00,00,00,00,
129124,000003B2,false,Rx,0,8,36,15,FF,02,29,2F,34,00,
130092,0000036F,false,Rx,0,8,47,11,01,00,00,00,00,00,
130450,0000037F,false,Rx,0,8,1C,80,92,24,41,02,00,00,
131473,00000427,false,Rx,0,8,1D,86,FF,00,80,0A,00,00,
133684,00000146,false,Rx,0,8,EA,EF,DF,10,04,01,00,00,
133911,00000147,false,Rx,0,8,00,04,7D,00,40,00,00,00,
134040,000001F1,false,Rx,0,8,B2,1C,06,01,00,00,28,00,
134139,00000148,false,Rx,0,8,00,00,00,00,00,7E,40,05,
134882,000001F2,false,Rx,0,8,00,00,00,00,00,00,00,00,
135530,00000149,false,Rx,0,8,00,00,00,00,00,00,00,00,
135812,000001B1,false,Rx,0,8,24,8F,DF,00,72,00,00,00,
135906,000001B2,false,Rx,0,8,23,00,04,10,0F,03,51,10,
135992,000001B3,false,Rx,0,8,10,28,00,00,73,7C,78,80,
136113,000001B4,false,Rx,0,8,72,82,17,00,00,40,01,00,
139653,00000061,false,Rx,0,8,A6,CD,1F,00,00,00,00,00,
139987,00000062,false,Rx,0,8,02,02,00,02,40,FF,00,FF,
140133,00000063,false,Rx,0,8,00,00,05,00,00,08,FD,00,
140522,00000064,false,Rx,0,8,00,00,00,04,FF,FA,00,00,
143140,00000226,false,Rx,0,8,D5,29,F1,FF,B4,20,09,42,
143601,00000316,false,Rx,0,8,D6,9C,78,40,0B,80,0A,00,
144066,00000227,false,Rx,0,8,02,77,4F,09,00,F2,6F,03,
144500,00000317,false,Rx,0,8,00,00,05,00,00,00,00,00,
144827,0000019B,false,Rx,0,8,4D,F9,D6,00,00,E4,00,00,
144995,000003CB,false,Rx,0,8,36,14,00,F4,00,00,00,00,
145416,0000019C,false,Rx,0,8,40,20,00,00,00,00,0B,09,
145853,000003CC,false,Rx,0,8,36,31,34,30,33,34,31,00,
146307,0000019D,false,Rx,0,8,00,10,00,01,00,00,00,00,
146791,00000472,false,Rx,0,8,5C,EC,00,40,08,41,00,45,
146900,0000019E,false,Rx,0,8,15,00,00,00,00,32,00,00,
147034,00000473,false,Rx,0,8,5F,24,00,25,00,00,00,78,
147125,00000474,false,Rx,0,8,51,AE,00,00,00,00,00,0C,
147666,000002FF,false,Rx,0,8,E2,01,00,F1,3F,00,00,00,
151339,0000048B,false,Rx,0,8,66,1E,E1,1E,01,00,00,00,
151475,0000048C,false,Rx,0,8,00,00,00,00,00,00,00,00,
155090,0000010B,false,Rx,0,8,42,C6,C9,00,00,00,00,05,
155241,0000010C,false,Rx,0,8,FF,F9,E7,1F,46,57,49,49,
155452,0000010D,false,Rx,0,8,D6,02,00,00,00,00,01,35,
155712,0000010E,false,Rx,0,8,00,00,0A,00,00,C0,AB,57,
158311,00000445,false,Rx,0,8,DE,50,00,00,00,00,00,18,
159527,000000C5,false,Rx,1,8,00,00,00,00,00,00,00,00,
160122,00000244,false,Rx,1,8,FF,FF,FF,FF,FF,FF,FF,FF,
160482,000000A1,false,Rx,0,8,6B,62,21,21,09,04,00,00,
160681,000004B4,false,Rx,1,8,00,00,00,00,00,00,00,00,
160807,000000A2,false,Rx,0,8,00,00,00,00,00,00,00,00,
161071,000004B5,false,Rx,1,8,08,00,F0,07,00,00,00,00,
161784,000004B7,false,Rx,1,8,08,00,F0,07,00,00,00,00,
162704,000000A3,false,Rx,0,8,00,40,01,00,00,00,00,00,
163116,000004CA,false,Rx,1,8,00,00,00,00,00,00,00,00,
163528,000004CC,false,Rx,1,8,08,00,00,06,00,00,03,00,
163799,000004CE,false,Rx,1,8,14,01,FF,FF,FF,FF,FF,FF,
164096,000004D7,false,Rx,1,8,23,01,00,00,00,00,00,00,
164381,000004D8,false,Rx,1,8,41,10,F0,F0,40,F2,1E,CC,
164953,000004DD,false,Rx,1,8,00,00,FE,00,04,00,00,00,
165741,000004DF,false,Rx,1,8,FF,03,0C,3F,00,00,00,00,
166233,000004E7,false,Rx,1,8,00,30,00,00,00,00,69,0F,
166754,000004E8,false,Rx,1,8,FF,FF,FF,05,FF,FF,FF,00,
166991,000004E9,false,Rx,1,8,12,00,00,34,00,00,50,00,
167148,000004EA,false,Rx,1,8,67,00,00,89,00,00,00,00,
167267,000004EB,false,Rx,1,8,40,90,38,37,80,00,00,00,
167418,000004EC,false,Rx,1,8,00,00,00,00,00,00,00,00,
167566,000004ED,false,Rx,1,8,00,00,00,00,00,FF,FF,1F,
167701,000004EE,false,Rx,1,8,FF,FF,00,00,00,00,00,00,
167819,000004EF,false,Rx,1,8,60,00,60,00,29,14,00,00,
167963,0000063D,false,Rx,1,8,00,80,00,00,00,00,00,00,
168241,00000419,false,Rx,0,8,B8,E0,3A,D6,C5,79,84,00,
168651,0000063E,false,Rx,1,8,FF,FF,FF,FF,FF,FF,FF,FF,
168850,0000063F,false,Rx,1,8,00,10,00,C4,FF,00,00,00,
168998,00000640,false,Rx,1,8,FF,FF,FF,00,FF,FF,FF,00,
169137,00000641,false,Rx,1,8,FF,FF,FF,FF,0F,FF,FF,FF,
169271,00000646,false,Rx,1,8,00,00,00,80,01,00,00,00,
169497,00000121,false,Rx,0,8,43,0B,CA,00,00,00,00,05,
169660,00000122,false,Rx,0,8,FF,D9,67,1F,45,45,46,46,
169993,0000011B,false,Rx,0,8,98,2B,DC,05,80,08,A8,02,
170407,00000123,false,Rx,0,8,D7,02,00,00,00,00,01,35,
171119,0000011C,false,Rx,0,8,00,05,20,00,22,00,01,01,
171312,00000124,false,Rx,0,8,00,00,0A,00,00,00,20,40,
171775,0000012B,false,Rx,0,8,DF,D1,DC,06,00,00,08,00,
172431,0000012C,false,Rx,0,8,00,00,01,00,00,64,00,00,
172957,00000161,false,Rx,0,8,5D,C4,EE,03,00,00,00,02,
173299,00000162,false,Rx,0,8,FF,FC,01,00,00,00,00,00,
173567,000001E6,false,Rx,0,8,B5,34,8D,02,00,00,00,00,
173721,000001BB,false,Rx,0,8,00,F6,8D,02,00,00,00,0A,
174179,000001BC,false,Rx,0,8,32,00,00,00,02,00,00,00,
175071,000001BD,false,Rx,0,8,00,00,00,00,00,00,00,00,
175260,000001E7,false,Rx,0,8,00,00,22,03,20,01,00,00,
177496,000001A1,false,Rx,0,8,16,8B,EE,FE,F7,7F,64,00,
177639,000001A2,false,Rx,0,8,00,00,00,00,00,08,00,00,
177835,000001A3,false,Rx,0,8,FF,F3,3F,00,00,00,00,00,
178088,00000036,false,Rx,0,8,87,3D,DE,51,00,00,25,01,
178683,000001A4,false,Rx,0,8,FE,07,00,00,00,00,00,00,
179169,00000037,false,Rx,0,8,00,00,00,10,00,40,00,00,
179510,00000038,false,Rx,0,8,04,00,00,00,F0,39,96,D4,
179898,00000039,false,Rx,0,8,00,00,00,00,00,00,00,00,
185275,00000475,false,Rx,0,8,12,00,00,00,00,00,00,00,
185430,00000496,false,Rx,0,8,12,00,00,00,00,00,00,00,
187301,0000030B,false,Rx,0,8,D7,8D,C9,00,04,00,00,00,
187465,0000030C,false,Rx,0,8,00,00,0C,00,2C,00,A0,0F,
188168,0000030D,false,Rx,0,8,00,00,00,00,FF,00,00,00,
188544,0000030E,false,Rx,0,8,00,00,20,05,21,00,00,00,
189172,00000061,false,Rx,0,8,70,91,24,00,00,00,00,00,
189301,00000062,false,Rx,0,8,02,02,00,02,40,FF,00,FF,
189520,00000063,false,Rx,0,8,00,00,05,00,00,08,FD,00,
189748,00000064,false,Rx,0,8,00,00,00,04,FF,FA,00,00,
193462,0000019B,false,Rx,0,8,40,3F,DB,00,00,E4,00,00,
193593,0000019C,false,Rx,0,8,40,20,00,00,00,00,0B,09,
193909,0000019D,false,Rx,0,8,00,10,00,01,00,00,00,00,
194154,0000019E,false,Rx,0,8,15,00,00,00,00,32,00,00,
194908,00000565,false,Rx,0,8,66,02,00,00,00,00,FF,FF,
195925,00000236,false,Rx,0,8,6F,30,C9,00,34,6C,34,6C,
196057,000002FB,false,Rx,0,8,00,6A,C9,04,D2,16,BD,BD,
196346,00000237,false,Rx,0,8,00,05,78,00,00,66,1C,00,
196658,00000151,false,Rx,0,8,1B,EA,C9,C8,C8,00,28,15,
196779,000001F6,false,Rx,0,8,45,63,C9,00,00,00,00,0D,
197049,00000152,false,Rx,0,8,14,15,14,00,32,00,00,00,
197246,000001F7,false,Rx,0,8,22,00,EA,06,00,00,00,00,
197558,00000153,false,Rx,0,8,00,00,00,00,00,00,00,00,
197731,000001F8,false,Rx,0,8,00,48,03,16,03,00,00,00,
198021,00000154,false,Rx,0,8,00,00,00,00,00,00,00,00,
198221,000001F9,false,Rx,0,8,B9,00,C8,C8,14,00,B9,00,
198552,000002FC,false,Rx,0,8,04,00,14,15,00,00,86,77,
198709,00000238,false,Rx,0,8,00,00,D2,00,00,00,00,00,
199178,000002FD,false,Rx,0,8,00,00,00,00,00,1C,0F,EA,
199393,00000239,false,Rx,0,8,00,00,00,00,01,00,00,00,
199518,000002FE,false,Rx,0,8,00,00,72,01,00,28,00,00,
199832,0000025B,false,Rx,0,8,90,A6,C9,00,40,20,00,00,
200082,000002D6,false,Rx,0,8,7F,E5,63,00,00,00,00,00,
200198,0000025C,false,Rx,0,8,00,00,22,00,3E,52,16,00,
200483,000002D7,false,Rx,0,8,00,00,00,00,03,00,00,00,
200642,0000025D,false,Rx,0,8,00,C8,00,00,00,40,C0,70,
200984,000002D8,false,Rx,0,8,00,00,00,00,00,00,38,44,
201570,0000025E,false,Rx,0,8,B5,02,0A,00,00,00,00,00,
201988,000002D9,false,Rx,0,8,00,00,00,00,00,00,00,00,
202912,00000326,false,Rx,0,8,9D,5D,C9,00,00,00,00,00,
203382,00000396,false,Rx,0,8,06,7F,63,0F,08,01,00,02,
204377,000002EB,false,Rx,0,8,80,FB,63,08,08,02,00,02,
205027,00000397,false,Rx,0,8,25,00,00,00,00,00,00,00,
205455,000002EC,false,Rx,0,8,02,00,00,00,00,00,00,00,
206051,00000398,false,Rx,0,8,00,00,00,00,00,00,00,00,
206279,000002ED,false,Rx,0,8,00,00,00,00,00,00,00,00,
206527,00000445,false,Rx,0,8,DE,50,00,00,00,00,00,18,
206720,000001AB,false,Rx,0,8,66,DA,BC,50,70,40,00,00,
207010,000002EE,false,Rx,0,8,00,00,00,00,00,00,00,00,
207270,000001AC,false,Rx,0,8,00,28,00,00,00,00,00,00,
207501,00000327,false,Rx,0,8,00,00,00,00,05,00,00,00,
207600,00000380,false,Rx,0,8,97,8B,03,00,00,00,00,01,
207705,00000328,false,Rx,0,8,EA,06,B9,00,00,48,03,00,
207923,0000010B,false,Rx,0,8,B1,58,CE,00,00,00,00,05,
208032,00000329,false,Rx,0,8,C8,16,03,00,00,00,00,00,
208156,0000010C,false,Rx,0,8,FF,F9,E7,1F,46,57,49,49,
208439,00000331,false,Rx,0,8,45,08,C9,F1,C8,A0,2C,97,
208684,0000010D,false,Rx,0,8,D6,02,00,00,00,00,01,35,
209082,00000332,false,Rx,0,8,F8,07,1C,02,00,00,00,00,
209752,0000010E,false,Rx,0,8,00,00,0A,00,00,C0,AB,57,
210425,00000333,false,Rx,0,8,00,00,00,1C,0C,40,20,C8,
210632,00000383,false,Rx,0,8,67,25,02,00,02,00,00,00,
210768,00000334,false,Rx,0,8,C8,00,00,00,F1,8F,F1,8F,
211132,00000419,false,Rx,0,8,B8,E0,3A,D6,C5,79,84,00,
211827,000002AB,false,Rx,0,8,24,BB,CA,0C,0C,00,00,00,
212827,000002AC,false,Rx,0,8,00,FF,FF,00,00,40,00,50,
213203,00000384,false,Rx,0,8,3A,9B,03,00,00,FF,00,21,
213830,000002AD,false,Rx,0,8,00,01,00,40,FF,FF,FF,0F,
214469,000000A1,false,Rx,0,8,62,E7,26,21,09,04,00,00,
214653,000002AE,false,Rx,0,8,01,00,FF,3F,01,01,00,00,
214874,000000A2,false,Rx,0,8,00,00,00,00,00,00,00,00,
214981,000002B6,false,Rx,0,8,1F,6D,CA,01,00,00,00,40,
215320,000000A3,false,Rx,0,8,00,40,01,00,00,00,00,00,
215966,000002B7,false,Rx,0,8,22,01,86,00,00,04,00,00,
216377,000002B8,false,Rx,0,8,FE,F1,0F,00,00,00,00,00,
216867,000002B9,false,Rx,0,8,0A,00,00,00,00,00,00,00,
217548,00000091,false,Rx,0,8,D7,0B,C7,16,00,00,00,00,
218033,000002E1,false,Rx,0,8,07,9E,CA,00,00,00,00,40,
218203,00000092,false,Rx,0,8,00,00,00,00,00,00,00,00,
218615,000002E2,false,Rx,0,8,FD,00,00,00,00,14,00,04,
218909,00000093,false,Rx,0,8,00,00,00,00,00,00,00,00,
219073,000002E3,false,Rx,0,8,00,00,00,00,00,00,72,01,
219761,00000094,false,Rx,0,8,00,00,00,00,00,00,00,00,
220169,000002E4,false,Rx,0,8,02,00,00,00,00,00,00,00,
220982,0000042A,false,Rx,0,8,1D,C5,02,01,00,10,00,00,
221139,000003AA,false,Rx,0,8,FF,00,D0,00,54,00,00,00,
221548,00000121,false,Rx,0,8,54,91,CF,00,00,00,00,05,
222000,00000122,false,Rx,0,8,FF,D9,67,1F,46,45,46,46,
222323,0000011B,false,Rx,0,8,F5,77,E1,05,80,08,A8,02,
223104,00000123,false,Rx,0,8,D7,02,00,00,00,00,01,35,
223547,0000011C,false,Rx,0,8,00,05,20,00,22,00,01,01,
224020,00000124,false,Rx,0,8,00,00,0A,00,00,00,20,40,
224205,0000012B,false,Rx,0,8,B2,8D,E1,06,00,00,08,00,
224623,0000012C,false,Rx,0,8,00,00,01,00,00,64,00,00,
227834,00000036,false,Rx,0,8,E4,A6,E3,51,00,00,25,01,
227968,00000037,false,Rx,0,8,00,00,00,10,00,40,00,00,
228426,00000038,false,Rx,0,8,04,00,00,00,F0,39,96,D4,
228837,0000033B,false,Rx,0,8,25,C0,CA,00,00,00,00,00,
229297,00000039,false,Rx,0,8,00,00,00,00,00,00,00,00,
229990,0000033C,false,Rx,0,8,00,00,00,00,F0,00,00,00,
230208,00000356,false,Rx,0,8,4F,B3,65,00,00,00,00,00,
230383,0000033D,false,Rx,0,8,00,00,00,00,00,00,00,00,
230554,00000357,false,Rx,0,8,00,00,00,00,00,4B,4D,48,
230801,0000033E,false,Rx,0,8,00,00,00,00,00,00,00,00,
231038,00000358,false,Rx,0,8,35,41,45,4D,52,37,33,4F,
231167,00000419,false,Rx,0,8,21,00,3C,D6,C5,79,84,00,
231269,00000359,false,Rx,0,8,51,4F,34,52,4A,35,33,00,
231356,0000036F,false,Rx,0,8,91,21,01,00,00,00,00,00,
231538,0000037F,false,Rx,0,8,A5,90,92,24,41,02,00,00,
231710,000004E8,false,Rx,1,8,FF,FF,FF,05,FF,FF,FF,00,
232078,00000495,false,Rx,0,8,49,00,00,00,00,00,00,00,
233745,00000146,false,Rx,0,8,3C,B3,E4,10,04,01,00,00,
234232,00000147,false,Rx,0,8,00,04,7D,00,40,00,00,00,
234658,00000148,false,Rx,0,8,00,00,00,00,00,7E,40,05,
235395,00000149,false,Rx,0,8,00,00,00,00,00,00,00,00,
235826,000001B1,false,Rx,0,8,F2,D3,E4,00,72,00,00,00,
236017,000001B2,false,Rx,0,8,23,00,04,10,0F,03,51,10,
236500,000001B3,false,Rx,0,8,10,28,00,00,73,7C,78,80,
236620,000001B4,false,Rx,0,8,72,82,17,00,00,40,01,00,
238106,00000445,false,Rx,0,8,DE,50,00,00,00,00,00,18,
239254,00000061,false,Rx,0,8,7D,57,29,00,00,00,00,00,
239403,00000062,false,Rx,0,8,02,02,00,02,40,FF,00,FF,
239816,00000063,false,Rx,0,8,00,00,05,00,00,08,FD,00,
240256,00000064,false,Rx,0,8,00,00,00,04,FF,FA,00,00,
242938,000003A1,false,Rx,0,8,BB,A2,A3,00,FF,FF,FF,FF,
243089,000003A2,false,Rx,0,8,00,00,00,00,00,00,00,00,
243529,0000019B,false,Rx,0,8,96,63,E0,00,00,E4,00,00,
243965,0000019C,false,Rx,0,8,40,20,00,00,00,00,0B,09,
244259,0000019D,false,Rx,0,8,00,10,00,01,00,00,00,00,
244386,0000019E,false,Rx,0,8,15,00,00,00,00,32,00,00,
248173,000001E1,false,Rx,0,8,FE,E2,94,02,00,00,00,00,
248419,000001E2,false,Rx,0,8,00,00,00,00,00,00,00,00,
250288,00000405,false,Rx,0,8,0C,50,00,00,00,01,00,00,
250467,00000410,false,Rx,0,8,64,50,54,3C,5C,6A,FF,FF,
250616,00000413,false,Rx,0,8,FD,60,00,41,00,00,00,00,
250746,00000411,false,Rx,0,8,CA,71,50,51,00,00,44,04,
250847,00000414,false,Rx,0,8,F0,10,00,00,28,00,00,00,
251020,00000487,false,Rx,1,8,00,00,00,00,00,00,00,00,
251151,00000412,false,Rx,0,8,A3,C0,00,00,00,00,00,00,
252053,00000416,false,Rx,0,8,55,00,00,00,00,00,00,00,
252673,00000642,false,Rx,1,8,00,00,00,00,00,00,00,00,
253069,00000417,false,Rx,0,8,B7,70,00,00,00,01,00,00,
253278,00000418,false,Rx,0,8,1F,50,00,00,14,0C,00,00,
254145,00000111,false,Rx,0,8,04,AF,83,01,00,00,00,00,
254506,00000112,false,Rx,0,8,00,00,00,00,00,00,00,00,
254735,00000113,false,Rx,0,8,00,00,00,00,00,00,00,00,
254919,00000114,false,Rx,0,8,00,00,00,00,00,00,00,00,
255626,0000010B,false,Rx,0,8,79,5A,D3,00,00,00,00,05,
256308,0000010C,false,Rx,0,8,FF,F9,E7,1F,46,57,49,49,
256713,0000010D,false,Rx,0,8,D6,02,00,00,00,00,01,35,
256958,0000010E,false,Rx,0,8,00,00,0A,00,00,C0,AB,57,
258044,000000FF,false,Rx,0,8,CB,10,00,00,00,00,02,00,
258698,00000394,false,Rx,0,8,2A,22,1A,49,00,00,00,00,
258880,000003C3,false,Rx,0,8,45,10,31,30,36,00,00,00,
259571,000002E6,false,Rx,0,8,EC,58,C7,01,00,00,00,15,
260056,000003E0,false,Rx,0,8,A8,80,01,00,54,03,00,00,
260520,000002E7,false,Rx,0,8,0A,00,00,00,00,00,00,00,
260960,000000A1,false,Rx,0,8,54,A4,2B,21,09,04,00,00,
261373,00000256,false,Rx,0,8,1D,E2,C7,15,00,00,00,01,
261873,000000A2,false,Rx,0,8,00,00,00,00,00,00,00,00,
262108,00000257,false,Rx,0,8,00,8B,3F,19,84,07,00,8B,
262256,000000A3,false,Rx,0,8,00,40,01,00,00,00,00,00,
262407,00000258,false,Rx,0,8,03,30,1C,00,10,15,00,1C,
262683,000002E8,false,Rx,0,8,00,00,00,00,00,00,00,00,
263034,00000259,false,Rx,0,8,4F,05,8C,3C,28,02,00,00,
263742,000002E9,false,Rx,0,8,00,00,00,00,00,00,00,00,
264419,000003E5,false,Rx,0,8,27,60,01,00,00,00,00,00,
264638,0000041A,false,Rx,0,8,D4,80,12,00,50,01,00,00,
265042,000003B6,false,Rx,0,8,5B,98,63,00,00,00,00,44,
265437,0000041B,false,Rx,0,8,17,80,00,00,00,00,00,00,
265665,000002BF,false,Rx,0,8,FF,FF,FF,00,00,00,00,00,
265798,000003B7,false,Rx,0,8,44,00,00,00,00,00,00,00,
266048,0000041C,false,Rx,0,8,E9,80,E0,00,00,00,00,00,
266151,000003B8,false,Rx,0,8,D2,02,00,00,00,00,69,0E,
266372,00000422,false,Rx,0,8,E2,B0,01,00,00,00,04,00,
266493,000003B9,false,Rx,0,8,00,00,00,00,00,00,00,00,
266757,00000432,false,Rx,0,8,03,20,02,00,00,00,00,00,
266918,000003E6,false,Rx,0,8,6F,E0,00,00,00,00,00,00,
267077,00000435,false,Rx,0,8,3E,50,00,40,00,00,00,00,
267239,0000047F,false,Rx,0,8,F3,FF,FF,FF,FF,3F,FF,FF,
267453,00000442,false,Rx,0,8,CE,20,11,81,00,00,00,00,
267661,00000653,false,Rx,0,8,0A,19,03,01,02,2A,00,00,
267783,00000444,false,Rx,0,8,AA,E0,20,50,55,50,00,00,
267917,00000464,false,Rx,0,8,7C,D0,F0,FF,38,7F,05,00,
268552,00000121,false,Rx,0,8,41,E2,D4,00,00,00,00,05,
269218,00000122,false,Rx,0,8,FF,D9,67,1F,45,45,46,46,
269865,0000011B,false,Rx,0,8,6A,1F,E6,05,80,08,A8,02,
270250,00000123,false,Rx,0,8,D7,02,00,00,00,00,01,35,
271347,0000011C,false,Rx,0,8,00,05,20,00,22,00,01,01,
272070,00000124,false,Rx,0,8,00,00,0A,00,00,00,20,40,
272748,000001FB,false,Rx,0,8,84,AC,CA,00,32,32,00,00,
273544,0000012B,false,Rx,0,8,2D,E5,E6,06,00,00,08,00,
273692,000001FC,false,Rx,0,8,00,00,00,00,00,00,19,00,
274401,0000012C,false,Rx,0,8,00,00,01,00,00,64,00,00,
274842,000001FD,false,Rx,0,8,00,1A,03,00,00,00,00,00,
275009,00000161,false,Rx,0,8,24,DE,F3,03,00,00,00,02,
275329,000001FE,false,Rx,0,8,00,00,00,00,00,00,00,00,
275542,00000162,false,Rx,0,8,FF,FC,01,00,00,00,00,00,
275858,00000445,false,Rx,0,8,DE,50,00,00,00,00,00,18,
276523,000004E8,false,Rx,1,8,FF,FF,FF,05,FF,FF,FF,00,
276978,00000419,false,Rx,0,8,21,00,3C,D6,C5,79,84,00,
277645,000001A1,false,Rx,0,8,DE,89,F3,FE,F7,7F,64,00,
278146,000001A2,false,Rx,0,8,00,00,00,00,00,08,00,00,
278509,000001A3,false,Rx,0,8,FF,F3,3F,00,00,00,00,00,
278771,00000036,false,Rx,0,8,5C,A7,E8,51,00,00,25,01,
278937,000001A4,false,Rx,0,8,FE,07,00,00,00,00,00,00,
279195,00000037,false,Rx,0,8,00,00,00,10,00,40,00,00,
279318,00000038,false,Rx,0,8,04,00,00,00,F0,39,96,D4,
279959,00000039,false,Rx,0,8,00,00,00,00,00,00,00,00,
283960,000001F1,false,Rx,0,8,A8,65,09,01,00,00,28,00,
284114,000001F2,false,Rx,0,8,00,00,00,00,00,00,00,00,
284910,00000448,false,Rx,0,8,7F,00,00,00,00,00,00,00,
287728,00000566,false,Rx,0,8,16,02,00,00,00,00,FF,FF,
289275,00000061,false,Rx,0,8,8E,C9,2E,00,00,00,00,00,
289702,00000062,false,Rx,0,8,02,02,00,02,40,FF,00,FF,
289945,00000063,false,Rx,0,8,00,00,05,00,00,08,FD,00,
290050,00000064,false,Rx,0,8,00,00,00,04,FF,FA,00,00,
290965,000004A3,false,Rx,1,8,80,00,48,0B,3E,00,00,00,
291427,000004A4,false,Rx,1,8,FF,FF,FF,00,00,00,00,00,
293383,0000019B,false,Rx,0,8,E9,4F,E5,00,00,E4,00,00,
293563,0000019C,false,Rx,0,8,40,20,00,00,00,00,0B,09,
293849,0000019D,false,Rx,0,8,00,10,00,01,00,00,00,00,
294140,0000019E,false,Rx,0,8,15,00,00,00,00,32,00,00,
294764,00000419,false,Rx,0,8,4A,10,3C,D6,C9,79,84,00,
297436,00000251,false,Rx,0,8,5C,08,C8,00,00,00,00,00,
297583,00000252,false,Rx,0,8,00,00,00,00,03,00,00,00,
297878,00000253,false,Rx,0,8,00,00,00,4E,4E,00,80,51,
303714,000001AB,false,Rx,0,8,23,0A,C1,50,70,40,00,00,
303887,000001AC,false,Rx,0,8,00,28,00,00,00,00,00,00,
305088,0000010B,false,Rx,0,8,C1,5B,D8,00,00,00,00,05,
305234,0000010C,false,Rx,0,8,FF,F9,E7,1F,46,57,49,49,
305436,0000010D,false,Rx,0,8,D6,02,00,00,00,00,01,35,
305703,0000010E,false,Rx,0,8,00,00,0A,00,00,C0,AB,57,
308966,000002C1,false,Rx,0,8,01,5C,66,21,00,41,00,A5,
309141,000002C2,false,Rx,0,8,1F,00,00,00,00,00,00,00,
309822,000002C3,false,Rx,0,8,00,00,00,00,00,00,00,00,
310329,000002C4,false,Rx,0,8,00,00,00,00,00,00,00,00,
310511,000000A1,false,Rx,0,8,3B,15,30,21,09,04,00,00,
310797,000000A2,false,Rx,0,8,00,00,00,00,00,00,00,00,
311367,000000A3,false,Rx,0,8,00,40,01,00,00,00,00,00,
312036,000004E8,false,Rx,1,8,FF,FF,FF,05,FF,FF,FF,00,
312374,00000091,false,Rx,0,8,56,7F,C8,16,00,00,00,00,
312506,00000092,false,Rx,0,8,00,00,00,00,00,00,00,00,
312831,00000093,false,Rx,0,8,00,00,00,00,00,00,00,00,
313000,00000094,false,Rx,0,8,00,00,00,00,00,00,00,00,
316168,00000401,false,Rx,0,8,C6,10,10,00,00,04,00,00,
316991,00000121,false,Rx,0,8,24,92,D9,00,00,00,00,05,
317175,00000122,false,Rx,0,8,FF,D9,67,1F,46,45,46,46,
317593,00000123,false,Rx,0,8,D7,02,00,00,00,00,01,35,
318295,0000011B,false,Rx,0,8,19,26,EB,05,80,08,A8,02,
318759,00000124,false,Rx,0,8,00,00,0A,00,00,00,20,40,
318946,0000011C,false,Rx,0,8,00,05,20,00,22,00,01,01,
319363,0000012B,false,Rx,0,8,5E,DC,EB,06,00,00,08,00,
319783,0000012C,false,Rx,0,8,00,00,01,00,00,64,00,00,
320762,000001E6,false,Rx,0,8,CC,2E,90,02,00,00,00,00,
321190,000001BB,false,Rx,0,8,65,F5,90,02,00,00,00,0A,
321645,000001BC,false,Rx,0,8,32,00,00,00,02,00,00,00,
322144,000001BD,false,Rx,0,8,00,00,00,00,00,00,00,00,
322325,000003B0,false,Rx,0,8,72,37,FF,C7,00,00,03,C0,
322475,000001E7,false,Rx,0,8,00,00,22,03,20,01,00,00,
324375,00000382,false,Rx,0,8,F8,23,08,00,00,01,08,00,
324895,00000419,false,Rx,0,8,DA,20,3D,D6,C9,79,84,00,
326299,000003B1,false,Rx,0,8,9B,3C,FF,40,00,00,20,00,
327707,00000036,false,Rx,0,8,23,8B,ED,51,00,00,25,01,
327869,00000037,false,Rx,0,8,00,00,00,10,00,40,00,00,
328164,00000038,false,Rx,0,8,04,00,00,00,F0,39,96,D4,
328469,00000039,false,Rx,0,8,00,00,00,00,00,00,00,00,
328821,000003B2,false,Rx,0,8,36,15,FF,02,29,2F,34,00,
329921,0000036F,false,Rx,0,8,28,31,01,00,00,00,00,00,
330080,0000037F,false,Rx,0,8,73,A0,92,24,41,02,00,00,
331305,00000427,false,Rx,0,8,1D,86,FF,00,80,0A,00,00,
333515,00000146,false,Rx,0,8,31,75,E9,10,04,01,00,00,
333644,00000147,false,Rx,0,8,00,04,7D,00,40,00,00,00,
333914,00000148,false,Rx,0,8,00,00,00,00,00,7E,40,05,
334152,00000149,false,Rx,0,8,00,00,00,00,00,00,00,00,
334460,000001B1,false,Rx,0,8,FF,15,E9,00,72,00,00,00,
334639,000001B2,false,Rx,0,8,23,00,04,10,0F,03,51,10,
334928,000001B3,false,Rx,0,8,10,28,00,00,73,7C,78,80,
335174,000001B4,false,Rx,0,8,72,82,17,00,00,40,01,00,
339078,00000061,false,Rx,0,8,46,CB,33,00,00,00,00,00,
339247,00000062,false,Rx,0,8,02,02,00,02,40,FF,00,FF,
339532,00000063,false,Rx,0,8,00,00,05,00,00,08,FD,00,
339800,00000064,false,Rx,0,8,00,00,00,04,FF,FA,00,00,
342430,00000226,false,Rx,0,8,BC,69,F3,FF,B4,20,09,42,
342587,000002FF,false,Rx,0,8,E2,01,00,F1,3F,00,00,00,
342926,00000227,false,Rx,0,8,02,77,4F,09,00,F2,6F,03,
343121,00000316,false,Rx,0,8,F2,34,79,40,0B,80,0A,00,
343286,00000472,false,Rx,0,8,5C,EC,00,40,08,41,00,45,
343548,0000019B,false,Rx,0,8,68,3B,EA,00,00,E4,00,00,
343766,00000317,false,Rx,0,8,00,00,05,00,00,00,00,00,
344065,0000019C,false,Rx,0,8,40,20,00,00,00,00,0B,09,
344231,00000473,false,Rx,0,8,5F,24,00,25,00,00,00,78,
344506,0000019D,false,Rx,0,8,00,10,00,01,00,00,00,00,
344725,00000474,false,Rx,0,8,51,AE,00,00,00,00,00,0C,
345043,0000019E,false,Rx,0,8,15,00,00,00,00,32,00,00,
355040,0000010B,false,Rx,0,8,BE,77,DD,00,00,00,00,05,
355169,0000010C,false,Rx,0,8,FF,F9,E7,1F,46,57,49,49,
355462,0000010D,false,Rx,0,8,D6,02,00,00,00,00,01,35,
355798,0000010E,false,Rx,0,8,00,00,0A,00,00,C0,AB,57,
359530,000000A1,false,Rx,0,8,34,FE,35,21,09,04,00,00,
359688,000000A2,false,Rx,0,8,00,00,00,00,00,00,00,00,
359984,000000A3,false,Rx,0,8,00,40,01,00,00,00,00,00,
361835,000000C5,false,Rx,1,8,00,00,00,00,00,00,00,00,
362092,00000244,false,Rx,1,8,FF,FF,FF,FF,FF,FF,FF,FF,
362443,0000041F,false,Rx,1,8,00,0C,00,00,00,00,00,00,
362701,000004B4,false,Rx,1,8,00,00,00,00,00,00,00,00,
363008,000004B5,false,Rx,1,8,08,00,F0,07,00,00,00,00,
363212,000004B7,false,Rx,1,8,08,00,F0,07,00,00,00,00,
363539,000004CA,false,Rx,1,8,00,00,00,00,00,00,00,00,
363808,000004CC,false,Rx,1,8,08,00,00,06,00,00,03,00,
364104,000004CE,false,Rx,1,8,14,01,FF,FF,FF,FF,FF,FF,
364434,000004D7,false,Rx,1,8,23,01,00,00,00,00,00,00,
365190,000004D8,false,Rx,1,8,41,10,F0,F0,40,F2,1E,CC,
365766,000004DD,false,Rx,1,8,00,00,FE,00,04,00,00,00,
366230,000004DF,false,Rx,1,8,FF,03,0C,3F,00,00,00,00,
367317,00000419,false,Rx,0,8,DA,20,3D,D6,C9,79,84,00,
368109,000004E7,false,Rx,1,8,00,30,00,00,00,00,69,0F,
368315,000004E8,false,Rx,1,8,FF,FF,FF,05,FF,FF,FF,00,
368644,000004E9,false,Rx,1,8,12,00,00,34,00,00,50,00,
368999,000004EA,false,Rx,1,8,67,00,00,89,00,00,00,00,
369106,000004EB,false,Rx,1,8,40,90,38,37,80,00,00,00,
369281,000004EC,false,Rx,1,8,00,00,00,00,00,00,00,00,
369417,000004ED,false,Rx,1,8,00,00,00,00,00,FF,FF,1F,
369656,00000121,false,Rx,0,8,D7,0C,DE,00,00,00,00,05,
369814,00000122,false,Rx,0,8,FF,D9,67,1F,46,45,46,46,
370123,000004EE,false,Rx,1,8,FF,FF,00,00,00,00,00,00,
370271,0000011B,false,Rx,0,8,DB,FC,F0,05,80,08,A8,02,
370698,000004EF,false,Rx,1,8,60,00,60,00,29,14,00,00,
371165,00000123,false,Rx,0,8,D7,02,00,00,00,00,01,35,
371324,0000011C,false,Rx,0,8,00,05,20,00,22,00,01,01,
371694,0000063D,false,Rx,1,8,00,80,00,00,00,00,00,00,
372141,00000124,false,Rx,0,8,00,00,0A,00,00,00,20,40,
372394,0000063E,false,Rx,1,8,FF,FF,FF,FF,FF,FF,FF,FF,
372556,0000063F,false,Rx,1,8,00,10,00,C4,FF,00,00,00,
372800,0000012B,false,Rx,0,8,9C,06,F0,06,00,00,08,00,
372972,00000640,false,Rx,1,8,FF,FF,FF,00,FF,FF,FF,00,
373286,00000641,false,Rx,1,8,FF,FF,FF,FF,0F,FF,FF,FF,
373540,0000012C,false,Rx,0,8,00,00,01,00,00,64,00,00,
373730,00000646,false,Rx,1,8,00,00,00,80,01,00,00,00,
374191,00000161,false,Rx,0,8,EC,27,F8,03,00,00,00,02,
374612,00000162,false,Rx,0,8,FF,FC,01,00,00,00,00,00,
377526,000001A1,false,Rx,0,8,66,88,F8,FE,F7,7F,64,00,
377671,000001A2,false,Rx,0,8,00,00,00,00,00,08,00,00,
378114,000001A3,false,Rx,0,8,FF,F3,3F,00,00,00,00,00,
378447,00000036,false,Rx,0,8,67,3B,F2,51,00,00,25,01,
378642,000001A4,false,Rx,0,8,FE,07,00,00,00,00,00,00,
378779,00000037,false,Rx,0,8,00,00,00,10,00,40,00,00,
378926,00000038,false,Rx,0,8,04,00,00,00,F0,39,96,D4,
379081,00000039,false,Rx,0,8,00,00,00,00,00,00,00,00,
384689,00000475,false,Rx,0,8,12,00,00,00,00,00,00,00,
385180,00000496,false,Rx,0,8,12,00,00,00,00,00,00,00,
385623,00000516,false,Rx,0,8,61,02,00,00,00,00,FF,FF,
387208,0000030B,false,Rx,0,8,9A,43,CB,00,04,00,00,00,
387360,0000030C,false,Rx,0,8,00,00,0C,00,2C,00,A0,0F,
387579,0000030D,false,Rx,0,8,00,00,00,00,3F,00,00,00,
387892,0000030E,false,Rx,0,8,00,00,20,05,21,00,00,00,
389087,00000061,false,Rx,0,8,FE,CA,38,00,00,00,00,00,
389252,00000062,false,Rx,0,8,02,02,00,02,40,FF,00,FF,
389534,00000063,false,Rx,0,8,00,00,05,00,00,08,FD,00,
389818,00000064,false,Rx,0,8,00,00,00,04,FF,FA,00,00,
393477,0000019B,false,Rx,0,8,17,17,EF,00,00,E4,00,00,
393608,0000019C,false,Rx,0,8,40,20,00,00,00,00,0B,09,
394130,0000019D,false,Rx,0,8,00,10,00,01,00,00,00,00,
394265,0000019E,false,Rx,0,8,15,00,00,00,00,32,00,00,
396116,00000236,false,Rx,0,8,E3,82,CB,00,34,6C,34,6C,
396326,000002FB,false,Rx,0,8,8C,D8,CB,04,D2,16,BD,BD,
396491,00000237,false,Rx,0,8,00,05,78,00,00,66,1C,00,
396619,00000151,false,Rx,0,8,97,58,CB,C8,C8,00,28,15,
396999,00000238,false,Rx,0,8,00,00,D2,00,00,00,00,00,
397328,00000152,false,Rx,0,8,14,15,14,00,32,00,00,00,
397657,000001F6,false,Rx,0,8,C9,D1,CB,00,00,00,00,0D,
397913,00000153,false,Rx,0,8,00,00,00,00,00,00,00,00,
398048,000001F7,false,Rx,0,8,22,00,EA,06,00,00,00,00,
398211,00000154,false,Rx,0,8,00,00,00,00,00,00,00,00,
398328,000001E1,false,Rx,0,8,B3,0A,97,02,00,00,00,00,
398579,000001F8,false,Rx,0,8,00,48,03,16,03,00,00,00,
398798,000001E2,false,Rx,0,8,00,00,00,00,00,00,00,00,
398954,000001F9,false,Rx,0,8,B9,00,C8,C8,14,00,B9,00,
399278,000002FC,false,Rx,0,8,04,00,14,15,00,00,86,77,
399509,00000239,false,Rx,0,8,00,00,00,00,01,00,00,00,
399695,000002FD,false,Rx,0,8,00,00,00,00,00,1C,0F,EA,
399937,0000025B,false,Rx,0,8,1C,14,CB,00,40,20,00,00,
400263,000002D6,false,Rx,0,8,8C,7B,64,00,00,00,00,00,
400436,0000025C,false,Rx,0,8,00,00,22,00,3E,52,16,00,
400676,000002D7,false,Rx,0,8,00,00,00,00,03,00,00,00,
400949,0000025D,false,Rx,0,8,00,C8,00,00,00,40,C0,70,
401136,000002D8,false,Rx,0,8,00,00,00,00,00,00,38,44,
401434,0000025E,false,Rx,0,8,B5,02,0A,00,00,00,00,00,
401654,000002D9,false,Rx,0,8,00,00,00,00,00,00,00,00,
401970,000002FE,false,Rx,0,8,00,00,72,01,00,28,00,00,
402118,00000396,false,Rx,0,8,71,FC,64,0F,08,01,00,02,
402374,000002EB,false,Rx,0,8,08,CF,64,07,08,01,00,02,
402699,00000397,false,Rx,0,8,1C,00,00,00,00,00,00,00,
402931,000002EC,false,Rx,0,8,02,00,00,00,00,00,00,00,
403125,00000398,false,Rx,0,8,00,00,00,00,00,00,00,00,
403360,000001AB,false,Rx,0,8,BC,62,C6,50,70,40,00,00,
403677,000002ED,false,Rx,0,8,00,00,00,00,00,00,00,00,
403888,000001AC,false,Rx,0,8,00,28,00,00,00,00,00,00,
404080,000002EE,false,Rx,0,8,00,00,00,00,00,00,00,00,
404387,00000380,false,Rx,0,8,97,8B,03,00,00,00,00,01,
404646,00000326,false,Rx,0,8,11,EF,CB,00,00,00,00,00,
404945,00000327,false,Rx,0,8,00,00,00,00,05,00,00,00,
405601,0000010B,false,Rx,0,8,51,5E,E2,00,00,00,00,05,
406543,00000328,false,Rx,0,8,EA,06,B9,00,00,48,03,00,
407271,0000010C,false,Rx,0,8,FF,F9,E7,1F,46,57,49,49,
407945,00000329,false,Rx,0,8,C8,16,03,00,00,00,00,00,
408639,0000010D,false,Rx,0,8,D6,02,00,00,00,00,01,35,
408877,00000331,false,Rx,0,8,C9,BA,CB,F1,C8,A0,2C,97,
409329,0000010E,false,Rx,0,8,00,00,0A,00,00,C0,AB,57,
409629,00000332,false,Rx,0,8,F8,07,1C,02,00,00,00,00,
410277,00000383,false,Rx,0,8,67,25,02,00,02,00,00,00,
411019,00000333,false,Rx,0,8,00,00,00,1C,0C,40,20,C8,
411492,00000419,false,Rx,0,8,DA,20,3D,D6,C9,79,84,00,
411612,00000334,false,Rx,0,8,C8,00,00,00,F1,8F,F1,8F,
411864,000002AB,false,Rx,0,8,91,7C,CC,0C,0C,00,00,00,
412139,000002AC,false,Rx,0,8,00,FF,FF,00,00,40,00,50,
412326,00000384,false,Rx,0,8,3A,9B,03,00,00,FF,00,21,
412533,000002AD,false,Rx,0,8,00,01,00,40,FF,FF,FF,0F,
412674,000002AE,false,Rx,0,8,01,00,FF,3F,01,01,00,00,
412867,000000A1,false,Rx,0,8,04,D3,3A,21,09,04,00,00,
413116,000002B6,false,Rx,0,8,AA,AA,CC,01,00,00,00,40,
413293,000000A2,false,Rx,0,8,00,00,00,00,00,00,00,00,
413457,000002B7,false,Rx,0,8,22,01,86,00,00,04,00,00,
413573,000000A3,false,Rx,0,8,00,40,01,00,00,00,00,00,
413741,000002B8,false,Rx,0,8,FE,F1,0F,00,00,00,00,00,
413859,000002B9,false,Rx,0,8,0A,00,00,00,00,00,00,00,
413973,000002E1,false,Rx,0,8,B2,59,CC,00,00,00,00,40,
414146,00000091,false,Rx,0,8,10,26,C9,16,00,00,00,00,
414242,000002E2,false,Rx,0,8,FD,00,00,00,00,14,00,04,
414415,00000092,false,Rx,0,8,00,00,00,00,00,00,00,00,
414531,000002E3,false,Rx,0,8,00,00,00,00,00,00,72,01,
414644,00000093,false,Rx,0,8,00,00,00,00,00,00,00,00,
414805,000002E4,false,Rx,0,8,02,00,00,00,00,00,00,00,
414902,00000094,false,Rx,0,8,00,00,00,00,00,00,00,00,
415048,0000042A,false,Rx,0,8,1D,C5,02,01,00,10,00,00,
416222,000003AA,false,Rx,0,8,FF,00,D0,00,54,00,00,00,
416807,00000121,false,Rx,0,8,B4,97,E3,00,00,00,00,05,
417021,00000122,false,Rx,0,8,FF,D9,67,1F,46,45,46,46,
417343,00000123,false,Rx,0,8,D7,02,00,00,00,00,01,35,
417995,0000011B,false,Rx,0,8,2D,D4,F5,05,80,08,A8,02,
418930,00000124,false,Rx,0,8,00,00,0A,00,00,00,20,40,
419243,0000011C,false,Rx,0,8,00,05,20,00,22,00,01,01,
419873,0000012B,false,Rx,0,8,6A,2E,F5,06,00,00,08,00,
420018,0000012C,false,Rx,0,8,00,00,01,00,00,64,00,00,
427843,00000036,false,Rx,0,8,18,17,F7,51,00,00,25,01,
427989,00000037,false,Rx,0,8,00,00,00,10,00,40,00,00,
428406,00000038,false,Rx,0,8,04,00,00,00,F0,39,96,D4,
428851,0000033B,false,Rx,0,8,90,07,CC,00,00,00,00,00,
429329,00000039,false,Rx,0,8,00,00,00,00,00,00,00,00,
429810,0000033C,false,Rx,0,8,00,00,00,00,F0,00,00,00,
430278,00000356,false,Rx,0,8,85,58,66,00,00,00,00,00,
430416,0000033D,false,Rx,0,8,00,00,00,00,00,00,00,00,
430530,00000357,false,Rx,0,8,00,00,00,00,00,4B,4D,48,
430669,0000033E,false,Rx,0,8,00,00,00,00,00,00,00,00,
431016,00000358,false,Rx,0,8,35,41,45,4D,52,37,33,4F,
431229,00000419,false,Rx,0,8,A9,30,3E,D6,C9,79,84,00,
431343,00000359,false,Rx,0,8,51,4F,34,52,4A,35,33,00,
431568,0000036F,false,Rx,0,8,20,41,01,00,00,00,00,00,
431701,0000037F,false,Rx,0,8,CA,B0,92,24,41,02,00,00,
431976,00000495,false,Rx,0,8,49,00,00,00,00,00,00,00,
433413,00000146,false,Rx,0,8,C2,EB,EE,10,04,01,00,00,
433610,00000147,false,Rx,0,8,00,04,7D,00,40,00,00,00,
434028,000001F1,false,Rx,0,8,5E,4D,0C,01,00,00,28,00,
434219,00000148,false,Rx,0,8,00,00,00,00,00,7E,40,05,
434579,000001F2,false,Rx,0,8,00,00,00,00,00,00,00,00,
434833,00000149,false,Rx,0,8,00,00,00,00,00,00,00,00,
434978,000001B1,false,Rx,0,8,0C,8B,EE,00,72,00,00,00,
435140,000001B2,false,Rx,0,8,23,00,04,10,0F,03,51,10,
435371,000001B3,false,Rx,0,8,10,28,00,00,73,7C,78,80,
435663,000001B4,false,Rx,0,8,72,82,17,00,00,40,01,00,
439193,00000061,false,Rx,0,8,81,E6,3D,00,00,00,00,00,
439320,00000062,false,Rx,0,8,02,02,00,02,40,FF,00,FF,
439776,00000063,false,Rx,0,8,00,00,05,00,00,08,FD,00,
440013,00000064,false,Rx,0,8,00,00,00,04,FF,FA,00,00,
442670,000003A1,false,Rx,0,8,24,CA,A4,00,FF,FF,FF,FF,
442859,000003A2,false,Rx,0,8,00,00,00,00,00,00,00,00,
443344,0000019B,false,Rx,0,8,6A,D2,F4,00,00,E4,00,00,
443579,0000019C,false,Rx,0,8,40,20,00,00,00,00,0B,09,
443890,0000019D,false,Rx,0,8,00,10,00,01,00,00,00,00,
444103,0000019E,false,Rx,0,8,15,00,00,00,00,32,00,00,
450075,00000405,false,Rx,0,8,0C,50,00,00,00,01,00,00,
450227,00000410,false,Rx,0,8,64,50,54,3C,5C,6A,FF,FF,
450726,00000413,false,Rx,0,8,FD,60,00,41,00,00,00,00,
451437,00000411,false,Rx,0,8,CA,71,50,51,00,00,44,04,
451684,00000414,false,Rx,0,8,F0,10,00,00,28,00,00,00,
452312,00000412,false,Rx,0,8,A3,C0,00,00,00,00,00,00,
452936,00000416,false,Rx,0,8,55,00,00,00,00,00,00,00,
453166,0000048F,false,Rx,0,8,AD,10,41,00,05,00,00,00,
453321,00000417,false,Rx,0,8,B7,70,00,00,00,01,00,00,
453599,00000487,false,Rx,1,8,00,00,00,00,00,00,00,00,
453881,00000418,false,Rx,0,8,1F,50,00,00,14,0C,00,00,
454081,00000642,false,Rx,1,8,00,00,00,00,00,00,00,00,
454335,00000111,false,Rx,0,8,F7,31,84,01,00,00,00,00,
454470,00000112,false,Rx,0,8,00,00,00,00,00,00,00,00,
454828,00000113,false,Rx,0,8,00,00,00,00,00,00,00,00,
455137,0000010B,false,Rx,0,8,2E,72,E7,00,00,00,00,05,
455409,0000010C,false,Rx,0,8,FF,F9,E7,1F,46,57,49,49,
455620,0000010D,false,Rx,0,8,D6,02,00,00,00,00,01,35,
455820,0000010E,false,Rx,0,8,00,00,0A,00,00,C0,AB,57,
456097,00000114,false,Rx,0,8,00,00,00,00,00,00,00,00,
457668,000000FF,false,Rx,0,8,CB,10,00,00,00,00,02,00,
458373,00000394,false,Rx,0,8,2A,22,1A,49,00,00,00,00,
458533,000003C3,false,Rx,0,8,45,10,31,30,36,00,00,00,
458852,000003E0,false,Rx,0,8,A8,80,01,00,54,03,00,00,
459373,000002E6,false,Rx,0,8,2B,75,C9,01,00,00,00,15,
460065,000002E7,false,Rx,0,8,0A,00,00,00,00,00,00,00,
460616,000000A1,false,Rx,0,8,0B,38,3F,21,09,04,00,00,
461035,00000256,false,Rx,0,8,B1,12,C9,15,00,00,D0,00,
461254,000000A2,false,Rx,0,8,00,00,00,00,00,00,00,00,
461358,00000257,false,Rx,0,8,00,8B,3F,14,84,07,00,8B,
461498,000000A3,false,Rx,0,8,00,40,01,00,00,00,00,00,
461811,00000258,false,Rx,0,8,03,32,1C,00,10,15,00,1C,
462151,000002E8,false,Rx,0,8,00,00,00,00,00,00,00,00,
462338,00000259,false,Rx,0,8,3B,05,8B,3C,28,02,00,00,
462507,000002E9,false,Rx,0,8,00,00,00,00,00,00,00,00,
462638,000003E5,false,Rx,0,8,27,60,01,00,00,00,00,00,
462803,0000041A,false,Rx,0,8,D4,80,12,00,50,01,00,00,
462961,000003B6,false,Rx,0,8,A8,06,64,00,00,00,00,44,
463519,0000041B,false,Rx,0,8,17,80,00,00,00,00,00,00,
463997,000002BF,false,Rx,0,8,FF,FF,FF,00,00,00,00,00,
464542,000003B7,false,Rx,0,8,44,00,00,00,00,00,00,00,
464997,0000041C,false,Rx,0,8,E9,80,E0,00,00,00,00,00,
465658,000003B8,false,Rx,0,8,D2,02,00,00,00,00,69,0E,
466273,00000422,false,Rx,0,8,E2,B0,01,00,00,00,04,00,
467008,000003B9,false,Rx,0,8,00,00,00,00,00,00,00,00,
467473,00000432,false,Rx,0,8,03,20,02,00,00,00,00,00,
467674,000003E6,false,Rx,0,8,6F,E0,00,00,00,00,00,00,
468031,00000435,false,Rx,0,8,3E,50,00,40,00,00,00,00,
468361,0000047F,false,Rx,0,8,F3,FF,FF,FF,FF,3F,FF,FF,
468658,00000442,false,Rx,0,8,CE,20,11,81,00,00,00,00,
469296,00000653,false,Rx,0,8,0A,19,03,01,02,2A,00,00,
469750,00000444,false,Rx,0,8,AA,E0,20,50,55,50,00,00,
470410,00000445,false,Rx,0,8,DE,50,00,00,00,00,00,18,
470828,00000464,false,Rx,0,8,7C,D0,F0,FF,38,7F,05,00,
471347,00000121,false,Rx,0,8,64,20,E8,00,00,00,00,05,
471778,00000122,false,Rx,0,8,FF,D9,67,1F,45,45,46,46,
472211,00000123,false,Rx,0,8,D7,02,00,00,00,00,01,35,
472647,0000011B,false,Rx,0,8,37,AD,FA,05,80,08,A8,02,
473050,00000124,false,Rx,0,8,00,00,0A,00,00,00,20,40,
473538,0000011C,false,Rx,0,8,00,05,20,00,22,00,01,01,
473704,0000012B,false,Rx,0,8,70,57,FA,06,00,00,08,00,
474110,000001FB,false,Rx,0,8,31,6B,CC,00,32,32,00,00,
474437,0000012C,false,Rx,0,8,00,00,01,00,00,64,00,00,
474607,000001FC,false,Rx,0,8,00,00,00,00,00,00,19,00,
474710,00000161,false,Rx,0,8,1A,0F,FD,03,00,00,00,02,
474799,000001FD,false,Rx,0,8,00,1A,03,00,00,00,00,00,
474931,00000162,false,Rx,0,8,FF,FC,01,00,00,00,00,00,
475116,000001FE,false,Rx,0,8,00,00,00,00,00,00,00,00,
475211,000001E6,false,Rx,0,8,81,C6,93,02,00,00,00,00,
475433,000001BB,false,Rx,0,8,60,AC,93,02,00,00,00,0A,
475541,000001BC,false,Rx,0,8,32,00,00,00,02,00,00,00,
475741,000001BD,false,Rx,0,8,00,00,00,00,00,00,00,00,
475844,000001E7,false,Rx,0,8,00,00,22,03,20,01,00,00,
475999,00000419,false,Rx,0,8,A9,30,3E,D6,C9,79,84,00,
477378,000001A1,false,Rx,0,8,19,A4,FD,FE,F7,7F,64,00,
477575,000001A2,false,Rx,0,8,00,00,00,00,00,08,00,00,
477817,00000036,false,Rx,0,8,A0,16,FC,51,00,00,25,01,
478511,000001A3,false,Rx,0,8,FF,F3,3F,00,00,00,00,00,
479173,00000037,false,Rx,0,8,00,00,00,10,00,40,00,00,
479802,000001A4,false,Rx,0,8,FE,07,00,00,00,00,00,00,
479960,00000038,false,Rx,0,8,04,00,00,00,F0,39,96,D4,
480443,00000039,false,Rx,0,8,00,00,00,00,00,00,00,00,
484675,00000448,false,Rx,0,8,7F,00,00,00,00,00,00,00,
486112,00000561,false,Rx,0,8,63,02,00,00,00,00,FF,FF,
489202,00000061,false,Rx,0,8,19,EC,42,00,00,00,00,00,
489349,00000062,false,Rx,0,8,02,02,00,02,40,FF,00,FF,
489714,00000063,false,Rx,0,8,00,00,05,00,00,08,FD,00,
489980,00000064,false,Rx,0,8,00,00,00,04,FF,FA,00,00,
491896,000004A3,false,Rx,1,8,80,00,48,0B,3E,00,00,00,
492173,000004A4,false,Rx,1,8,FF,FF,FF,00,00,00,00,00,
493481,0000019B,false,Rx,0,8,67,14,F9,00,00,E4,00,00,
493618,0000019C,false,Rx,0,8,40,20,00,00,00,00,0B,09,
493854,0000019D,false,Rx,0,8,00,10,00,01,00,00,00,00,
494086,0000019E,false,Rx,0,8,15,00,00,00,00,32,00,00,
495057,00000419,false,Rx,0,8,EF,40,3E,D6,CD,79,84,00,
497561,00000251,false,Rx,0,8,5A,66,CA,00,00,00,00,00,
497712,00000252,false,Rx,0,8,00,00,00,00,03,00,00,00,
497866,00000253,false,Rx,0,8,00,00,00,4E,4E,00,80,51,
502836,000001AB,false,Rx,0,8,CF,5B,CB,50,70,40,00,00,
502982,000001AC,false,Rx,0,8,00,28,00,00,00,00,00,00,
505098,0000010B,false,Rx,0,8,96,73,EC,00,00,00,00,05,
505249,0000010C,false,Rx,0,8,FF,F9,E7,1F,46,57,49,49,
505452,0000010D,false,Rx,0,8,D6,02,00,00,00,00,01,35,
505695,0000010E,false,Rx,0,8,00,00,0A,00,00,C0,AB,57,
508916,000002C1,false,Rx,0,8,47,05,67,21,00,41,00,A5,
509062,000002C2,false,Rx,0,8,1F,00,00,00,00,00,00,00,
509438,000002C3,false,Rx,0,8,00,00,00,00,00,00,00,00,
509728,000002C4,false,Rx,0,8,00,00,00,00,00,00,00,00,
509851,000000A1,false,Rx,0,8,AF,18,44,21,09,04,00,00,
510187,000000A2,false,Rx,0,8,00,00,00,00,00,00,00,00,
510394,000000A3,false,Rx,0,8,00,40,01,00,00,00,00,00,
511982,00000091,false,Rx,0,8,DA,CD,CA,16,00,00,00,00,
512381,00000092,false,Rx,0,8,00,00,00,00,00,00,00,00,
512526,00000093,false,Rx,0,8,00,00,00,00,00,00,00,00,
512911,00000094,false,Rx,0,8,00,00,00,00,00,00,00,00,
516346,00000401,false,Rx,0,8,C6,10,10,00,00,04,00,00,
517082,00000121,false,Rx,0,8,1B,0C,ED,00,00,00,00,05,
517489,00000122,false,Rx,0,8,FF,D9,67,1F,45,45,46,46,
517929,00000123,false,Rx,0,8,D7,02,00,00,00,00,01,35,
518234,0000011B,false,Rx,0,8,C1,85,FF,05,80,08,A8,02,
518461,00000124,false,Rx,0,8,00,00,0A,00,00,00,20,40,
518700,0000011C,false,Rx,0,8,00,05,20,00,22,00,01,01,
518799,0000012B,false,Rx,0,8,86,7F,FF,06,00,00,08,00,
518922,0000012C,false,Rx,0,8,00,00,01,00,00,64,00,00,
521011,0000034B,false,Rx,0,8,2C,E4,E1,31,D8,0D,05,01,
521556,0000034C,false,Rx,0,8,00,00,00,00,00,00,00,00,
521710,0000034D,false,Rx,0,8,00,00,00,00,00,00,00,00,
521947,0000034E,false,Rx,0,8,00,00,00,00,00,00,00,00,
522404,000003B0,false,Rx,0,8,72,37,FF,C7,00,00,03,C0,
524475,00000382,false,Rx,0,8,F8,23,08,00,00,01,08,00,
525011,00000419,false,Rx,0,8,10,50,3F,D6,CD,79,84,00,
526436,000003B1,false,Rx,0,8,9B,3C,FF,40,00,00,20,00,
527815,00000036,false,Rx,0,8,5A,E8,01,51,00,00,25,01,
527962,00000037,false,Rx,0,8,00,00,00,10,00,40,00,00,
528181,00000038,false,Rx,0,8,04,00,00,00,F0,39,96,D4,
528490,00000039,false,Rx,0,8,00,00,00,00,00,00,00,00,
528823,000003B2,false,Rx,0,8,36,15,FF,02,29,2F,34,00,
530015,0000036F,false,Rx,0,8,99,51,01,00,00,00,00,00,
530144,0000037F,false,Rx,0,8,C2,C0,92,24,41,02,00,00,
531482,00000427,false,Rx,0,8,1D,86,FF,00,80,0A,00,00,
533627,00000146,false,Rx,0,8,0A,E9,F3,10,04,01,00,00,
533775,00000147,false,Rx,0,8,00,04,7D,00,40,00,00,00,
534187,00000148,false,Rx,0,8,00,00,00,00,00,7E,40,05,
534547,00000149,false,Rx,0,8,00,00,00,00,00,00,00,00,
535034,000001B1,false,Rx,0,8,C4,89,F3,00,72,00,00,00,
535495,000001B2,false,Rx,0,8,23,00,04,10,0F,03,51,10,
535916,000001B3,false,Rx,0,8,10,28,00,00,73,7C,78,80,
536277,000001B4,false,Rx,0,8,72,82,17,00,00,40,01,00,
539218,00000061,false,Rx,0,8,66,C0,47,00,00,00,00,00,
539370,00000062,false,Rx,0,8,02,02,00,02,40,FF,00,FF,
539780,00000063,false,Rx,0,8,00,00,05,00,00,08,FD,00,
540308,00000064,false,Rx,0,8,00,00,00,04,FF,FA,00,00,
542479,00000226,false,Rx,0,8,07,A9,F5,FF,B4,20,09,42,
542983,000002FF,false,Rx,0,8,E2,01,00,F1,3F,00,00,00,
543455,00000227,false,Rx,0,8,02,77,4F,09,00,F2,6F,03,
543596,00000316,false,Rx,0,8,BF,DC,7A,40,0B,80,0A,00,
543875,00000472,false,Rx,0,8,5C,EC,00,40,08,41,00,45,
544036,0000019B,false,Rx,0,8,94,8A,FE,00,00,E4,00,00,
544180,00000317,false,Rx,0,8,00,00,05,00,00,00,00,00,
544382,0000019C,false,Rx,0,8,40,20,00,00,00,00,0B,09,
544749,00000473,false,Rx,0,8,5F,24,00,25,00,00,00,78,
545434,0000019D,false,Rx,0,8,00,10,00,01,00,00,00,00,
546093,00000474,false,Rx,0,8,51,AE,00,00,00,00,00,0C,
546555,0000019E,false,Rx,0,8,15,00,00,00,00,32,00,00,
548007,000001E1,false,Rx,0,8,C0,33,9A,02,00,00,00,00,
548169,000001E2,false,Rx,0,8,00,00,00,00,00,00,00,00,
555091,0000010B,false,Rx,0,8,5E,71,F1,00,00,00,00,05,
555240,0000010C,false,Rx,0,8,FF,F9,E7,1F,46,57,49,49,
555945,0000010D,false,Rx,0,8,D6,02,00,00,00,00,01,35,
556154,0000010E,false,Rx,0,8,00,00,0A,00,00,C0,AB,57,
559626,000000A1,false,Rx,0,8,99,5B,49,21,09,04,00,00,
559773,000000A2,false,Rx,0,8,00,00,00,00,00,00,00,00,
560208,000000A3,false,Rx,0,8,00,40,01,00,00,00,00,00,
562011,000000C5,false,Rx,1,8,00,00,00,00,00,00,00,00,
562691,00000244,false,Rx,1,8,FF,FF,FF,FF,FF,FF,FF,FF,
563340,000004B4,false,Rx,1,8,00,00,00,00,00,00,00,00,
563990,000004B5,false,Rx,1,8,08,00,F0,07,00,00,00,00,
564153,000004B7,false,Rx,1,8,08,00,F0,07,00,00,00,00,
564447,000004CA,false,Rx,1,8,00,00,00,00,00,00,00,00,
565232,000004CC,false,Rx,1,8,08,00,00,06,00,00,03,00,
566244,000004CE,false,Rx,1,8,14,01,FF,FF,FF,FF,FF,FF,
566695,000004D7,false,Rx,1,8,23,01,00,00,00,00,00,00,
566860,000004D8,false,Rx,1,8,41,10,F0,F0,40,F2,1E,CC,
567127,000004DD,false,Rx,1,8,00,00,FE,00,04,00,00,00,
567321,000004DF,false,Rx,1,8,FF,03,0C,3F,00,00,00,00,
567772,00000419,false,Rx,0,8,10,50,3F,D6,CD,79,84,00,
568048,000004E7,false,Rx,1,8,00,30,00,00,00,00,69,0F,
568235,000004E8,false,Rx,1,8,FF,FF,FF,05,FF,FF,FF,00,
568417,000004E9,false,Rx,1,8,12,00,00,34,00,00,50,00,
568635,000004EA,false,Rx,1,8,67,00,00,89,00,00,00,00,
569019,000004EB,false,Rx,1,8,40,90,38,38,80,00,00,00,
569194,000004EC,false,Rx,1,8,00,00,00,00,00,00,00,00,
569606,000004ED,false,Rx,1,8,00,00,00,00,00,FF,FF,1F,
569929,00000121,false,Rx,0,8,5F,BC,F2,00,00,00,00,05,
570118,000004EE,false,Rx,1,8,FF,FF,00,00,00,00,00,00,
570223,000004EF,false,Rx,1,8,60,00,60,00,29,14,00,00,
570615,00000122,false,Rx,0,8,FF,D9,67,1F,45,45,46,46,
571021,000004F0,false,Rx,1,8,4A,12,38,37,64,1A,07,02,
571256,0000011B,false,Rx,0,8,4E,9D,04,05,80,08,A8,02,
571606,000004F1,false,Rx,1,8,00,C0,00,00,00,00,00,00,
571912,00000123,false,Rx,0,8,D7,02,00,00,00,00,01,35,
572097,000004F2,false,Rx,1,8,02,FF,DD,FF,03,01,00,00,
572533,0000011C,false,Rx,0,8,00,05,20,00,22,00,01,01,
572921,000004F3,false,Rx,1,8,00,00,00,00,F0,00,00,00,
573236,00000124,false,Rx,0,8,00,00,0A,00,00,00,20,40,
573536,000004F9,false,Rx,1,8,E0,FF,FF,FF,FF,FF,FF,FF,
573850,0000012B,false,Rx,0,8,09,67,04,06,00,00,08,00,
574126,0000063D,false,Rx,1,8,00,80,00,00,00,00,00,00,
574413,0000012C,false,Rx,0,8,00,00,01,00,00,64,00,00,
574594,0000063E,false,Rx,1,8,FF,FF,FF,FF,FF,FF,FF,FF,
574957,0000063F,false,Rx,1,8,00,10,00,C4,FF,00,00,00,
575206,00000161,false,Rx,0,8,47,97,02,03,00,00,00,02,
575388,00000640,false,Rx,1,8,FF,FF,FF,00,FF,FF,FF,00,
575687,00000641,false,Rx,1,8,FF,FF,FF,FF,0F,FF,FF,FF,
575944,00000162,false,Rx,0,8,FF,FC,01,00,00,00,00,00,
576121,00000646,false,Rx,1,8,00,00,00,80,01,00,00,00,
576484,00000485,false,Rx,0,8,00,40,11,02,00,00,00,00,
577414,000001A1,false,Rx,0,8,6F,E8,02,FE,F7,7F,64,00,
577576,000001A2,false,Rx,0,8,00,00,00,00,00,08,00,00,
577856,00000036,false,Rx,0,8,A9,76,06,51,00,00,25,01,
578206,000001A3,false,Rx,0,8,FF,F3,3F,00,00,00,00,00,
578323,00000037,false,Rx,0,8,00,00,00,10,00,40,00,00,
578585,000001A4,false,Rx,0,8,FE,07,00,00,00,00,00,00,
578807,00000038,false,Rx,0,8,04,00,00,00,F0,39,96,D4,
579146,00000039,false,Rx,0,8,00,00,00,00,00,00,00,00,
583829,000001F1,false,Rx,0,8,13,A5,0F,01,00,00,28,00,
584035,000001F2,false,Rx,0,8,00,00,00,00,00,00,00,00,
584880,00000475,false,Rx,0,8,12,00,00,00,00,00,00,00,
585354,00000496,false,Rx,0,8,12,00,00,00,00,00,00,00,
586803,00000563,false,Rx,1,8,65,02,00,00,00,00,FF,FF,
587165,0000030B,false,Rx,0,8,7C,7C,CD,00,04,00,00,00,
587608,0000030C,false,Rx,0,8,00,00,0C,00,2C,00,A0,0F,
588043,0000030D,false,Rx,0,8,00,00,00,00,3F,00,00,00,
588180,0000030E,false,Rx,0,8,00,00,20,05,21,00,00,FE,
589062,00000061,false,Rx,0,8,DE,C1,4C,00,00,00,00,00,
589219,00000062,false,Rx,0,8,02,02,00,02,40,FF,00,FF,
589650,00000063,false,Rx,0,8,00,00,05,00,00,08,FD,00,
589827,00000064,false,Rx,0,8,00,00,00,04,FF,FA,00,00,
590107,00000419,false,Rx,0,8,31,60,3F,D6,D1,79,84,00,
593470,0000019B,false,Rx,0,8,6E,74,03,00,00,E4,00,00,
593606,0000019C,false,Rx,0,8,40,20,00,00,00,00,0B,09,
593862,0000019D,false,Rx,0,8,00,10,00,01,00,00,00,00,
594066,0000019E,false,Rx,0,8,15,00,00,00,00,32,00,00,
595952,00000236,false,Rx,0,8,56,45,CD,00,34,6C,34,6C,
596096,000002FB,false,Rx,0,8,39,1F,CD,04,D2,16,BD,BD,
596330,00000237,false,Rx,0,8,00,05,78,00,00,66,1C,00,
596516,00000151,false,Rx,0,8,22,9F,CD,C8,C8,00,28,15,
596845,000001F6,false,Rx,0,8,7C,16,CD,00,00,00,00,0D,
597015,00000152,false,Rx,0,8,14,15,14,00,32,00,00,00,
597311,000001F7,false,Rx,0,8,22,00,EA,06,00,00,00,00,
597514,00000153,false,Rx,0,8,00,00,00,00,00,00,00,00,
597723,000001F8,false,Rx,0,8,00,48,03,16,03,00,00,00,
598069,00000154,false,Rx,0,8,00,00,00,00,00,00,00,00,
598307,000001F9,false,Rx,0,8,B9,00,C8,C8,14,00,B9,00,
598580,000002FC,false,Rx,0,8,04,00,14,15,00,00,86,77,
598721,00000238,false,Rx,0,8,00,00,D2,00,00,00,00,00,
599019,000002FD,false,Rx,0,8,00,00,00,00,00,1C,0F,EA,
599225,00000239,false,Rx,0,8,00,00,00,00,01,00,00,00,
599547,000002FE,false,Rx,0,8,00,00,72,01,00,28,00,00,
599914,0000025B,false,Rx,0,8,A9,D3,CD,00,40,20,00,00,
600015,000002D6,false,Rx,0,8,CA,22,65,00,00,00,00,00,
600222,0000025C,false,Rx,0,8,00,00,22,00,3E,52,16,00,
600460,000002D7,false,Rx,0,8,00,00,00,00,03,00,00,00,
600742,0000025D,false,Rx,0,8,00,C8,00,00,00,40,C0,70,
601011,000002D8,false,Rx,0,8,00,00,00,00,00,00,38,44,
601152,0000025E,false,Rx,0,8,B5,02,0A,00,00,00,00,00,
601437,000002D9,false,Rx,0,8,00,00,00,00,00,00,00,00,
601791,00000326,false,Rx,0,8,A4,28,CD,00,00,00,00,00,
602036,00000396,false,Rx,0,8,81,A4,65,0F,08,02,00,02,
602155,000002EB,false,Rx,0,8,93,0E,65,08,08,01,00,02,
602872,00000397,false,Rx,0,8,10,00,00,00,00,00,00,00,
603199,000002EC,false,Rx,0,8,0A,00,00,00,00,00,00,00,
603564,000001AB,false,Rx,0,8,0D,81,D0,50,70,40,00,00,
603842,000002ED,false,Rx,0,8,00,00,00,00,00,00,00,00,
603979,000001AC,false,Rx,0,8,00,28,00,00,00,00,00,00,
604173,000002EE,false,Rx,0,8,00,00,00,00,00,00,00,00,
604408,00000398,false,Rx,0,8,00,00,00,00,00,00,00,00,
604576,00000327,false,Rx,0,8,00,00,00,00,05,00,00,00,
604784,00000380,false,Rx,0,8,97,8B,03,00,00,00,00,01,
604906,00000328,false,Rx,0,8,EA,06,B9,00,00,48,03,00,
605144,00000329,false,Rx,0,8,C8,16,03,00,00,00,00,00,
605381,0000010B,false,Rx,0,8,AD,EF,F6,00,00,00,00,05,
605542,00000331,false,Rx,0,8,7C,7D,CD,F1,C8,A0,2C,97,
605677,0000010C,false,Rx,0,8,FF,F9,E7,1F,46,57,49,49,
605843,00000332,false,Rx,0,8,F8,07,1C,02,00,00,00,00,
606002,0000010D,false,Rx,0,8,D6,02,00,00,00,00,01,35,
606332,00000333,false,Rx,0,8,00,00,00,1C,0C,40,20,C8,
606508,0000010E,false,Rx,0,8,00,00,0A,00,00,C0,AB,57,
606796,00000334,false,Rx,0,8,C8,00,00,00,F1,8F,F1,8F,
607089,00000383,false,Rx,0,8,67,25,02,00,02,00,00,00,
608272,000002AB,false,Rx,0,8,1D,CE,CE,0C,0C,00,00,00,
608608,000002AC,false,Rx,0,8,00,FF,FF,00,00,40,00,50,
608933,000002AD,false,Rx,0,8,00,01,00,40,FF,FF,FF,0F,
609108,00000384,false,Rx,0,8,3A,9B,03,00,00,FF,00,21,
609552,000002AE,false,Rx,0,8,01,00,FF,3F,01,01,00,00,
609856,000002B6,false,Rx,0,8,26,18,CE,01,00,00,00,40,
610297,000000A1,false,Rx,0,8,90,DE,4E,21,09,04,00,00,
611005,000002B7,false,Rx,0,8,22,01,86,00,00,04,00,00,
611991,000000A2,false,Rx,0,8,00,00,00,00,00,00,00,00,
612324,000002B8,false,Rx,0,8,FE,F1,0F,00,00,00,00,00,
612610,000000A3,false,Rx,0,8,00,40,01,00,00,00,00,00,
612819,000002B9,false,Rx,0,8,0A,00,00,00,00,00,00,00,
612975,000002E1,false,Rx,0,8,3E,EB,CE,00,00,00,00,40,
613195,00000091,false,Rx,0,8,9C,94,CB,16,00,00,00,00,
613337,000002E2,false,Rx,0,8,FD,00,00,00,00,14,00,04,
613477,00000092,false,Rx,0,8,00,00,00,00,00,00,00,00,
613585,000002E3,false,Rx,0,8,00,00,00,00,00,00,72,01,
613704,00000093,false,Rx,0,8,00,00,00,00,00,00,00,00,
613920,000002E4,false,Rx,0,8,02,00,00,00,00,00,00,00,
614076,00000094,false,Rx,0,8,00,00,00,00,00,00,00,00,
614184,0000042A,false,Rx,0,8,1D,C5,02,01,00,10,00,00,
616167,000003AA,false,Rx,0,8,FF,00,D0,00,54,00,00,00,
616816,00000121,false,Rx,0,8,48,26,F7,00,00,00,00,05,
616995,00000122,false,Rx,0,8,FF,D9,67,1F,46,45,46,46,
617312,00000123,false,Rx,0,8,D7,02,00,00,00,00,01,35,
617566,0000011B,false,Rx,0,8,3D,A4,09,05,80,08,A8,02,
617750,00000124,false,Rx,0,8,00,00,0A,00,00,00,20,40,
618072,0000011C,false,Rx,0,8,00,05,20,00,22,00,01,01,
618394,0000012B,false,Rx,0,8,7A,5E,09,06,00,00,08,00,
618523,0000012C,false,Rx,0,8,00,00,01,00,00,64,00,00,
620339,000001E6,false,Rx,0,8,77,EE,96,02,00,00,00,00,
620656,000001BB,false,Rx,0,8,6F,47,96,02,00,00,00,0A,
620826,000001BC,false,Rx,0,8,32,00,00,00,02,00,00,00,
621189,000001BD,false,Rx,0,8,00,00,00,00,00,00,00,00,
621379,000001E7,false,Rx,0,8,00,00,22,03,20,01,00,00,
624294,00000415,false,Rx,0,8,40,13,10,00,08,01,00,00,
624913,00000419,false,Rx,0,8,21,70,40,D6,D1,79,84,00,
627838,00000036,false,Rx,0,8,A4,B0,0B,51,00,00,25,01,
628250,00000037,false,Rx,0,8,00,00,00,10,00,40,00,00,
628432,00000038,false,Rx,0,8,04,00,00,00,F0,39,96,D4,
628860,0000033B,false,Rx,0,8,1C,B5,CE,00,00,00,00,00,
629299,00000039,false,Rx,0,8,00,00,00,00,00,00,00,00,
629649,0000033C,false,Rx,0,8,00,00,00,00,F0,00,00,00,
630086,00000356,false,Rx,0,8,C3,01,67,00,00,00,00,00,
630522,0000033D,false,Rx,0,8,00,00,00,00,00,00,00,00,
630988,00000357,false,Rx,0,8,00,00,00,00,00,4B,4D,48,
631428,0000033E,false,Rx,0,8,00,00,00,00,00,00,00,00,
632164,00000358,false,Rx,0,8,35,41,45,4D,52,37,33,4F,
632458,00000359,false,Rx,0,8,51,4F,34,52,4A,35,33,00,
632556,0000036F,false,Rx,0,8,4F,61,01,00,00,00,00,00,
632674,0000037F,false,Rx,0,8,7B,D0,92,24,41,02,00,00,
632811,00000495,false,Rx,0,8,49,00,00,00,00,00,00,00,
633385,00000146,false,Rx,0,8,B2,E8,F8,10,04,01,00,00,
633682,00000147,false,Rx,0,8,00,04,7D,00,40,00,00,00,
633936,00000148,false,Rx,0,8,00,00,00,00,00,7E,40,05,
634161,00000149,false,Rx,0,8,00,00,00,00,00,00,00,00,
634477,000001B1,false,Rx,0,8,7C,88,F8,00,72,00,00,00,
634629,000001B2,false,Rx,0,8,23,00,04,10,0F,03,51,10,
635082,000001B3,false,Rx,0,8,10,28,00,00,73,7C,78,80,
635304,000001B4,false,Rx,0,8,72,82,17,00,00,40,01,00,
639077,00000061,false,Rx,0,8,16,C3,51,00,00,00,00,00,
639224,00000062,false,Rx,0,8,02,02,00,02,40,FF,00,FF,
639544,00000063,false,Rx,0,8,00,00,05,00,00,08,FD,00,
639812,00000064,false,Rx,0,8,00,00,00,04,FF,FA,00,00,
642438,000003A1,false,Rx,0,8,00,62,A5,00,FF,FF,FF,FF,
642686,000003A2,false,Rx,0,8,00,00,00,00,00,00,00,00,
643415,0000019B,false,Rx,0,8,D6,75,08,00,00,E4,00,00,
643581,0000019C,false,Rx,0,8,40,20,00,00,00,00,0B,09,
643871,0000019D,false,Rx,0,8,00,10,00,01,00,00,00,00,
644148,0000019E,false,Rx,0,8,15,00,00,00,00,32,00,00,
649918,00000405,false,Rx,0,8,0C,50,00,00,00,01,00,00,
650227,00000410,false,Rx,0,8,64,50,54,3C,5C,6A,FF,FF,
650516,00000413,false,Rx,0,8,FD,60,00,41,00,00,00,00,
650638,00000411,false,Rx,0,8,CA,71,50,51,00,00,44,04,
650911,00000414,false,Rx,0,8,F0,10,00,00,28,00,00,00,
651105,00000412,false,Rx,0,8,A3,C0,00,00,00,00,00,00,
651360,00000416,false,Rx,0,8,55,00,00,00,00,00,00,00,
651668,00000417,false,Rx,0,8,B7,70,00,00,00,01,00,00,
651880,00000418,false,Rx,0,8,1F,50,00,00,14,0C,00,00,
652708,00000487,false,Rx,1,8,00,00,00,00,00,00,00,00,
653595,00000642,false,Rx,1,8,00,00,00,00,00,00,00,00,
653979,00000645,false,Rx,1,8,C7,35,06,79,E0,32,56,00,
654245,00000111,false,Rx,0,8,B1,68,85,01,00,00,00,00,
654419,00000112,false,Rx,0,8,00,00,00,00,00,00,00,00,
654891,00000113,false,Rx,0,8,00,00,00,00,00,00,00,00,
655544,0000010B,false,Rx,0,8,A0,29,FB,00,00,00,00,05,
655853,0000010C,false,Rx,0,8,FF,F9,E7,1F,46,57,49,49,
656014,0000010D,false,Rx,0,8,D6,02,00,00,00,00,01,35,
656139,0000010E,false,Rx,0,8,00,00,0A,00,00,C0,AB,57,
656831,00000114,false,Rx,0,8,00,00,00,00,00,00,00,00,
657749,000000FF,false,Rx,0,8,CB,10,00,00,00,00,02,00,
658274,00000394,false,Rx,0,8,2A,22,1A,49,00,00,00,00,
658415,000003C3,false,Rx,0,8,45,10,31,30,36,00,00,00,
658720,000003E0,false,Rx,0,8,A8,80,01,00,54,03,00,00,
659210,000002E6,false,Rx,0,8,A7,C7,CB,01,00,00,00,15,
659727,000002E7,false,Rx,0,8,0A,00,00,00,00,00,00,00,
660371,000000A1,false,Rx,0,8,F5,DD,53,21,09,04,00,00,
660777,000002E8,false,Rx,0,8,00,00,00,00,00,00,00,00,
661077,000000A2,false,Rx,0,8,00,00,00,00,00,00,00,00,
661212,00000256,false,Rx,0,8,18,BC,CB,15,00,00,00,01,
661381,000000A3,false,Rx,0,8,00,40,01,00,00,00,00,00,
661539,00000257,false,Rx,0,8,00,8B,3F,18,84,07,00,8B,
661698,000002E9,false,Rx,0,8,00,00,00,00,00,00,00,00,
661878,00000258,false,Rx,0,8,03,31,1C,00,10,15,00,1C,
661982,000003E5,false,Rx,0,8,27,60,01,00,00,00,00,00,
662193,00000259,false,Rx,0,8,49,05,8B,3C,28,02,00,00,
662378,000003B6,false,Rx,0,8,EE,5F,65,00,00,00,00,44,
662567,0000041A,false,Rx,0,8,D4,80,12,00,50,01,00,00,
662674,000003B7,false,Rx,0,8,44,00,00,00,00,00,00,00,
663094,000002BF,false,Rx,0,8,FF,FF,FF,00,00,00,00,00,
663686,000003B8,false,Rx,0,8,D2,02,00,00,00,00,69,0E,
664392,0000041B,false,Rx,0,8,17,80,00,00,00,00,00,00,
665326,000003B9,false,Rx,0,8,00,00,00,00,00,00,00,00,
665451,0000041C,false,Rx,0,8,E9,80,E0,00,00,00,00,00,
665635,000003E6,false,Rx,0,8,6F,E0,00,00,00,00,00,00,
665802,00000422,false,Rx,0,8,E2,B0,01,00,00,00,04,00,
666330,0000047F,false,Rx,0,8,F3,FF,FF,FF,FF,3F,FF,FF,
666740,00000432,false,Rx,0,8,03,20,02,00,00,00,00,00,
667423,00000653,false,Rx,0,8,0A,19,03,01,02,2A,00,00,
667889,00000435,false,Rx,0,8,3E,50,00,40,00,00,00,00,
668483,00000442,false,Rx,0,8,CE,20,11,81,00,00,00,00,
669195,00000444,false,Rx,0,8,AA,E0,20,50,55,50,00,00,
669676,00000419,false,Rx,0,8,21,70,40,D6,D1,79,84,00,
670462,00000445,false,Rx,0,8,DE,50,00,00,00,00,00,18,
670643,00000464,false,Rx,0,8,7C,D0,F0,FF,38,7F,05,00,
671320,00000121,false,Rx,0,8,98,91,FC,00,00,00,00,05,
671599,00000122,false,Rx,0,8,FF,D9,67,1F,45,45,46,46,
672140,00000123,false,Rx,0,8,D7,02,00,00,00,00,01,35,
672340,0000011B,false,Rx,0,8,A2,CC,0E,05,80,08,A8,02,
672443,00000124,false,Rx,0,8,00,00,0A,00,00,00,20,40,
672533,0000011C,false,Rx,0,8,00,05,20,00,22,00,01,01,
672649,0000012B,false,Rx,0,8,E5,36,0E,06,00,00,08,00,
672832,000001FB,false,Rx,0,8,BD,D9,CE,00,32,32,00,00,
672928,0000012C,false,Rx,0,8,00,00,01,00,00,64,00,00,
673044,000001FC,false,Rx,0,8,00,00,00,00,00,00,19,00,
673246,00000161,false,Rx,0,8,B1,BF,07,03,00,00,00,02,
673367,000001FD,false,Rx,0,8,00,1A,03,00,00,00,00,00,
673584,00000162,false,Rx,0,8,FF,FC,01,00,00,00,00,00,
673682,000001FE,false,Rx,0,8,00,00,00,00,00,00,00,00,
678084,000001A1,false,Rx,0,8,10,C4,07,FE,F7,7F,64,00,
678576,000001A2,false,Rx,0,8,00,00,00,00,00,08,00,00,
679004,00000036,false,Rx,0,8,D9,75,10,51,00,00,25,01,
679343,000001A3,false,Rx,0,8,FF,F3,3F,00,00,00,00,00,
679561,00000037,false,Rx,0,8,00,00,00,10,00,40,00,00,
680046,000001A4,false,Rx,0,8,FE,07,00,00,00,00,00,00,
680776,00000038,false,Rx,0,8,04,00,00,00,F0,39,96,D4,
681176,00000039,false,Rx,0,8,00,00,00,00,00,00,00,00,
684659,00000448,false,Rx,0,8,7F,00,00,00,00,00,00,00,
685081,00000565,false,Rx,0,8,66,02,00,00,00,00,FF,FF,
689204,00000061,false,Rx,0,8,E5,5D,56,00,00,00,00,00,
689354,00000062,false,Rx,0,8,02,02,00,02,40,FF,00,FF,
690055,00000063,false,Rx,0,8,00,00,05,00,00,08,FD,00,
690484,00000064,false,Rx,0,8,00,00,00,04,FF,FA,00,00,
690800,00000419,false,Rx,0,8,C6,80,40,D6,D5,79,84,00,
692092,000004A3,false,Rx,1,8,80,00,48,0B,3E,00,00,00,
692274,000004A4,false,Rx,1,8,FF,FF,FF,00,00,00,00,00,
693655,0000019B,false,Rx,0,8,A9,59,0D,00,00,E4,00,00,
693810,0000019C,false,Rx,0,8,40,20,00,00,00,00,0B,09,
694275,0000019D,false,Rx,0,8,00,10,00,01,00,00,00,00,
694695,0000019E,false,Rx,0,8,15,00,00,00,00,32,00,00,
697580,00000251,false,Rx,0,8,50,D4,CC,00,00,00,00,00,
697729,00000252,false,Rx,0,8,00,00,00,00,03,00,00,00,
698064,00000253,false,Rx,0,8,00,00,00,4E,4E,00,80,51,
698281,000001E1,false,Rx,0,8,5F,5B,9D,02,00,00,00,00,
698389,000001E2,false,Rx,0,8,00,00,00,00,00,00,00,00,
702648,000001AB,false,Rx,0,8,FB,A9,D5,50,70,40,00,00,
702795,000001AC,false,Rx,0,8,00,28,00,00,00,00,00,00,
705039,0000010B,false,Rx,0,8,EF,10,00,00,00,00,00,05,
705163,0000010C,false,Rx,0,8,FF,F9,E7,1F,46,57,49,49,
705462,0000010D,false,Rx,0,8,D6,02,00,00,00,00,01,35,
705753,0000010E,false,Rx,0,8,00,00,0A,00,00,C0,AB,57,
708977,000002C1,false,Rx,0,8,C6,71,68,21,00,41,00,A5,
709368,000002C2,false,Rx,0,8,1F,00,00,00,00,00,00,00,
709645,000002C3,false,Rx,0,8,00,00,00,00,00,00,00,00,
709769,000002C4,false,Rx,0,8,00,00,00,00,00,00,00,00,
710196,000000A1,false,Rx,0,8,C9,2C,58,21,09,04,00,00,
710613,000000A2,false,Rx,0,8,00,00,00,00,00,00,00,00,
710974,000000A3,false,Rx,0,8,00,40,01,00,00,00,00,00,
711630,00000091,false,Rx,0,8,6F,0A,CC,16,00,00,00,00,
712295,00000092,false,Rx,0,8,00,00,00,00,00,00,00,00,
712755,00000093,false,Rx,0,8,00,00,00,00,00,00,00,00,
713181,00000094,false,Rx,0,8,00,00,00,00,00,00,00,00,
716561,00000401,false,Rx,0,8,C6,10,10,00,00,04,00,00,
717204,00000121,false,Rx,0,8,62,6F,01,00,00,00,00,05,
717362,00000122,false,Rx,0,8,FF,D9,67,1F,45,45,46,46,
717713,00000123,false,Rx,0,8,D7,02,00,00,00,00,01,35,
718180,0000011B,false,Rx,0,8,DB,D6,13,05,80,08,A8,02,
718853,00000124,false,Rx,0,8,00,00,0A,00,00,00,20,40,
719280,0000011C,false,Rx,0,8,00,05,20,00,22,00,01,01,
719473,0000012B,false,Rx,0,8,9C,2C,13,06,00,00,08,00,
719858,0000012C,false,Rx,0,8,00,00,01,00,00,64,00,00,
721471,000003B0,false,Rx,0,8,72,37,FF,C7,00,00,03,C0,
725265,00000382,false,Rx,0,8,F8,23,08,00,00,01,08,00,
725404,00000419,false,Rx,0,8,F3,90,42,D6,D5,79,84,00,
726298,000003B1,false,Rx,0,8,9B,3C,FF,40,00,00,20,00,
727830,00000036,false,Rx,0,8,A6,59,15,51,00,00,25,01,
728230,00000037,false,Rx,0,8,00,00,00,10,00,40,00,00,
728497,00000038,false,Rx,0,8,04,00,00,00,F0,39,96,D4,
728642,00000039,false,Rx,0,8,00,00,00,00,00,00,00,00,
729240,000003B2,false,Rx,0,8,36,15,FF,02,29,2F,34,00,
730245,0000036F,false,Rx,0,8,F6,71,01,00,00,00,00,00,
730582,0000037F,false,Rx,0,8,AD,E0,92,24,41,02,00,00,
731345,00000427,false,Rx,0,8,1D,86,FF,00,80,0A,00,00,
733765,00000146,false,Rx,0,8,CD,C4,FD,10,04,01,00,00,
734049,00000147,false,Rx,0,8,00,04,7D,00,40,00,00,00,
734644,000001F1,false,Rx,0,8,6A,BF,12,01,00,00,28,00,
735126,00000148,false,Rx,0,8,00,00,00,00,00,7E,40,05,
735600,000001F2,false,Rx,0,8,00,00,00,00,00,00,00,00,
735785,00000149,false,Rx,0,8,00,00,00,00,00,00,00,00,
736180,000001B1,false,Rx,0,8,03,A4,FD,00,72,00,00,00,
736570,000001B2,false,Rx,0,8,23,00,04,10,0F,03,51,10,
737001,000001B3,false,Rx,0,8,10,28,00,00,73,7C,78,80,
737475,000001B4,false,Rx,0,8,72,82,17,00,00,40,01,00,
739258,00000061,false,Rx,0,8,E8,9B,5B,00,00,00,00,00,
739418,00000062,false,Rx,0,8,02,02,00,02,40,FF,00,FF,
739774,00000063,false,Rx,0,8,00,00,05,00,00,08,FD,00,
740155,00000064,false,Rx,0,8,00,00,00,04,FF,FA,00,00,
742218,00000226,false,Rx,0,8,6E,E9,F7,FF,B4,20,09,42,
742678,000002FF,false,Rx,0,8,E2,01,00,F1,3F,00,00,00,
743101,00000227,false,Rx,0,8,02,77,4F,09,00,F2,6F,03,
743563,00000316,false,Rx,0,8,9B,74,7B,40,0B,80,0A,00,
743990,00000472,false,Rx,0,8,5C,EC,00,40,08,41,00,45,
744504,00000317,false,Rx,0,8,00,00,05,00,00,00,00,00,
744928,00000473,false,Rx,0,8,5F,24,00,25,00,00,00,78,
745095,0000019B,false,Rx,0,8,ED,E9,12,00,00,E4,00,00,
745461,00000474,false,Rx,0,8,51,AE,00,00,00,00,00,0C,
745647,0000019C,false,Rx,0,8,40,20,00,00,00,00,0B,09,
745757,0000019D,false,Rx,0,8,00,10,00,01,00,00,00,00,
745880,0000019E,false,Rx,0,8,15,00,00,00,00,32,00,00,
755233,0000010B,false,Rx,0,8,90,3C,05,00,00,00,00,05,
755365,0000010C,false,Rx,0,8,FF,F9,E7,1F,46,57,49,49,
756143,0000010D,false,Rx,0,8,D6,02,00,00,00,00,01,35,
756639,0000010E,false,Rx,0,8,00,00,0A,00,00,C0,AB,57,
759622,000000A1,false,Rx,0,8,C6,C7,5D,21,09,04,00,00,
759774,000000A2,false,Rx,0,8,00,00,00,00,00,00,00,00,
760233,000000A3,false,Rx,0,8,00,40,01,00,00,00,00,00,
762106,000000C5,false,Rx,1,8,00,00,00,00,00,00,00,00,
762228,00000244,false,Rx,1,8,FF,FF,FF,FF,FF,FF,FF,FF,
762625,000003E4,false,Rx,1,8,FE,00,00,00,00,00,00,00,
763012,000004B4,false,Rx,1,8,00,00,00,00,00,00,00,00,
763276,000004B5,false,Rx,1,8,08,00,F0,07,00,00,00,00,
763536,000004B7,false,Rx,1,8,08,00,F0,07,00,00,00,00,
763802,000004CA,false,Rx,1,8,00,00,00,00,00,00,00,00,
764083,000004CC,false,Rx,1,8,08,00,00,06,00,00,03,00,
764360,000004CE,false,Rx,1,8,14,01,FF,FF,FF,FF,FF,FF,
764633,000004D7,false,Rx,1,8,23,01,00,00,00,00,00,00,
765002,000004D8,false,Rx,1,8,41,10,F0,F0,40,F2,1E,CC,
765179,000004DD,false,Rx,1,8,00,00,FE,00,04,00,00,00,
765735,00000419,false,Rx,0,8,F3,90,42,D6,D5,79,84,00,
766526,000004DF,false,Rx,1,8,FF,03,0C,3F,00,00,00,00,
767300,000004E7,false,Rx,1,8,00,30,00,00,00,00,69,0F,
767832,000004E8,false,Rx,1,8,FF,FF,FF,05,FF,FF,FF,00,
768041,000004E9,false,Rx,1,8,12,00,00,34,00,00,50,00,
768178,000004EA,false,Rx,1,8,67,00,00,89,00,00,00,00,
768725,000004EB,false,Rx,1,8,40,90,38,38,80,00,00,00,
769345,000004EC,false,Rx,1,8,00,00,00,00,00,00,00,00,
769617,00000121,false,Rx,0,8,91,F1,06,00,00,00,00,05,
769796,000004ED,false,Rx,1,8,00,00,00,00,00,FF,FF,1F,
770192,00000122,false,Rx,0,8,FF,D9,67,1F,45,45,46,46,
770491,000004EE,false,Rx,1,8,FF,FF,00,00,00,00,00,00,
770830,0000011B,false,Rx,0,8,13,2F,18,05,80,08,A8,02,
771238,000004EF,false,Rx,1,8,60,00,60,00,29,14,00,00,
771575,00000123,false,Rx,0,8,D7,02,00,00,00,00,01,35,
771748,0000063D,false,Rx,1,8,00,80,00,00,00,00,00,00,
772190,0000011C,false,Rx,0,8,00,05,20,00,22,00,01,01,
772548,0000063E,false,Rx,1,8,FF,FF,FF,FF,FF,FF,FF,FF,
772841,00000124,false,Rx,0,8,00,00,0A,00,00,00,20,40,
773021,0000063F,false,Rx,1,8,00,10,00,C4,FF,00,00,00,
773434,00000640,false,Rx,1,8,FF,FF,FF,00,FF,FF,FF,00,
773718,0000012B,false,Rx,0,8,54,D5,18,06,00,00,08,00,
773910,00000641,false,Rx,1,8,FF,FF,FF,FF,0F,FF,FF,FF,
774366,0000012C,false,Rx,0,8,00,00,01,00,00,64,00,00,
774558,00000646,false,Rx,1,8,00,00,00,80,01,00,00,00,
775006,00000161,false,Rx,0,8,79,46,0C,03,00,00,00,02,
775450,00000162,false,Rx,0,8,FF,FC,01,00,00,00,00,00,
775906,000001E6,false,Rx,0,8,6D,97,99,02,00,00,00,00,
776065,000001BB,false,Rx,0,8,5F,6A,99,02,00,00,00,0A,
776428,000001BC,false,Rx,0,8,32,00,00,00,02,00,00,00,
776839,000001BD,false,Rx,0,8,00,00,00,00,00,00,00,00,
777176,000001E7,false,Rx,0,8,00,00,22,03,20,01,00,00,
778025,000001A1,false,Rx,0,8,A8,C5,0C,FE,F7,7F,64,00,
778515,00000566,false,Rx,0,8,16,02,00,00,00,00,FF,FF,
778701,00000036,false,Rx,0,8,27,2D,1A,51,00,00,25,01,
779385,000001A2,false,Rx,0,8,00,00,00,00,00,08,00,00,
779833,00000037,false,Rx,0,8,00,00,00,10,00,40,00,00,
780075,000001A3,false,Rx,0,8,FF,F3,3F,00,00,00,00,00,
780186,00000038,false,Rx,0,8,04,00,00,00,F0,39,96,D4,
780320,000001A4,false,Rx,0,8,FE,07,00,00,00,00,00,00,
780664,00000039,false,Rx,0,8,00,00,00,00,00,00,00,00,
784555,00000475,false,Rx,0,8,12,00,00,00,00,00,00,00,
784774,00000496,false,Rx,0,8,12,00,00,00,00,00,00,00,
787277,0000030B,false,Rx,0,8,C3,58,CF,00,04,00,00,00,
787442,0000030C,false,Rx,0,8,00,00,0C,00,2C,00,A0,0F,
787872,0000030D,false,Rx,0,8,00,00,00,00,3F,00,00,00,
788268,0000030E,false,Rx,0,8,00,00,20,05,21,00,00,02,
789232,00000061,false,Rx,0,8,3E,C7,60,00,00,00,00,00,
789404,00000062,false,Rx,0,8,02,02,00,02,40,FF,00,FF,
789879,00000063,false,Rx,0,8,00,00,05,00,00,08,FD,00,
789994,00000064,false,Rx,0,8,00,00,00,04,FF,FA,00,00,
793548,0000019B,false,Rx,0,8,92,C5,17,00,00,E4,00,00,
793697,0000019C,false,Rx,0,8,40,20,00,00,00,00,0B,09,
794152,0000019D,false,Rx,0,8,00,10,00,01,00,00,00,00,
794565,0000019E,false,Rx,0,8,15,00,00,00,00,32,00,00,
796072,00000236,false,Rx,0,8,DA,F7,CF,00,34,6C,34,6C,
796272,000002FB,false,Rx,0,8,B5,AD,CF,04,D2,16,BD,BD,
796368,00000237,false,Rx,0,8,00,05,78,00,00,66,1C,00,
796569,00000151,false,Rx,0,8,AE,2D,CF,C8,C8,00,28,15,
796784,000001F6,false,Rx,0,8,F0,A4,CF,00,00,00,00,0D,
797098,00000152,false,Rx,0,8,14,15,14,00,32,00,00,00,
797328,000001F7,false,Rx,0,8,22,00,EA,06,00,00,00,00,
797553,00000153,false,Rx,0,8,00,00,00,00,00,00,00,00,
797756,000001F8,false,Rx,0,8,00,48,03,16,03,00,00,00,
798085,00000154,false,Rx,0,8,00,00,00,00,00,00,00,00,
798315,000001F9,false,Rx,0,8,B9,00,C8,C8,14,00,B9,00,
798504,000002FC,false,Rx,0,8,04,00,14,15,00,00,86,77,
798754,00000238,false,Rx,0,8,00,00,D2,00,00,00,00,00,
799058,000002FD,false,Rx,0,8,00,00,00,00,00,1C,0F,EA,
799270,00000239,false,Rx,0,8,00,00,00,00,01,00,00,00,
799606,000002FE,false,Rx,0,8,00,00,72,01,00,28,00,00,
799719,0000025B,false,Rx,0,8,0D,D2,CF,00,40,20,00,00,
800167,000002D6,false,Rx,0,8,00,C9,66,00,00,00,00,00,
800363,0000025C,false,Rx,0,8,00,00,22,00,3E,52,16,00,
800501,000002D7,false,Rx,0,8,00,00,00,00,03,00,00,00,
800720,0000025D,false,Rx,0,8,00,C8,00,00,00,40,C0,70,
801015,000002D8,false,Rx,0,8,00,00,00,00,00,00,38,44,
801165,0000025E,false,Rx,0,8,55,02,08,08,00,00,00,00,
801460,000002D9,false,Rx,0,8,00,00,00,00,00,00,00,00,
801869,00000326,false,Rx,0,8,28,9A,CF,00,00,00,00,00,
802525,00000396,false,Rx,0,8,E7,91,66,0F,08,01,00,02,
802955,000001AB,false,Rx,0,8,E1,D0,DA,50,70,40,00,00,
803633,000002EB,false,Rx,0,8,F4,D6,66,08,08,01,00,02,
804349,000001AC,false,Rx,0,8,00,28,00,00,00,00,00,00,
805000,000002EC,false,Rx,0,8,02,00,00,00,00,00,00,00,
805947,00000397,false,Rx,0,8,04,00,00,00,00,00,00,00,
806381,000002ED,false,Rx,0,8,00,00,00,00,00,00,00,00,
806597,00000380,false,Rx,0,8,97,8B,03,00,00,00,00,01,
806812,000002EE,false,Rx,0,8,00,00,00,00,00,00,00,00,
807382,00000398,false,Rx,0,8,00,00,00,00,00,00,00,00,
807810,00000327,false,Rx,0,8,00,00,00,00,05,00,00,00,
808277,00000328,false,Rx,0,8,EA,06,B9,00,00,48,03,00,
808510,00000419,false,Rx,0,8,F3,90,42,D6,D5,79,84,00,
808611,0000010B,false,Rx,0,8,11,48,0A,00,00,00,00,05,
809008,00000329,false,Rx,0,8,C8,16,03,00,00,00,00,00,
809292,0000010C,false,Rx,0,8,FF,F9,E7,1F,46,57,49,49,
809421,00000331,false,Rx,0,8,F0,CF,CF,F1,C8,A0,2C,97,
809587,0000010D,false,Rx,0,8,D6,02,00,00,00,00,01,35,
809760,00000332,false,Rx,0,8,F8,07,1C,02,00,00,00,00,
809971,0000010E,false,Rx,0,8,00,00,0A,00,00,C0,AB,57,
810097,00000333,false,Rx,0,8,00,00,00,1C,0C,40,20,C8,
810297,00000383,false,Rx,0,8,67,25,02,00,02,00,00,00,
810416,00000334,false,Rx,0,8,C8,00,00,00,F1,8F,F1,8F,
810608,000002AB,false,Rx,0,8,1F,27,D0,0C,0C,00,00,00,
810822,000002AC,false,Rx,0,8,00,FF,FF,00,00,40,00,50,
810978,000002AD,false,Rx,0,8,00,01,00,40,FF,FF,FF,0F,
811145,00000384,false,Rx,0,8,3A,9B,03,00,00,FF,00,21,
811316,000002AE,false,Rx,0,8,01,00,FF,3F,01,01,00,00,
811492,000000A1,false,Rx,0,8,03,2A,62,21,09,04,00,00,
811625,000002B6,false,Rx,0,8,24,F1,D0,01,00,00,00,40,
811857,000000A2,false,Rx,0,8,00,00,00,00,00,00,00,00,
812011,000002B7,false,Rx,0,8,22,01,86,00,00,04,00,00,
812308,000000A3,false,Rx,0,8,00,40,01,00,00,00,00,00,
812513,000002B8,false,Rx,0,8,FE,F1,0F,00,00,00,00,00,
812628,000002B9,false,Rx,0,8,0A,00,00,00,00,00,00,00,
812834,000002E1,false,Rx,0,8,3C,02,D0,00,00,00,00,40,
812979,00000091,false,Rx,0,8,29,53,CD,16,00,00,00,00,
813116,000002E2,false,Rx,0,8,FD,00,00,00,00,14,00,04,
813306,00000092,false,Rx,0,8,00,00,00,00,00,00,00,00,
813425,000002E3,false,Rx,0,8,00,00,00,00,00,00,72,01,
813555,00000093,false,Rx,0,8,00,00,00,00,00,00,00,00,
813664,000002E4,false,Rx,0,8,02,00,00,00,00,00,00,00,
813782,00000094,false,Rx,0,8,00,00,00,00,00,00,00,00,
813988,0000042A,false,Rx,0,8,1D,C5,02,01,00,10,00,00,
816671,000003AA,false,Rx,0,8,FF,00,D0,00,54,00,00,00,
817352,00000121,false,Rx,0,8,9C,37,0B,00,00,00,00,05,
817963,00000122,false,Rx,0,8,FF,D9,67,1F,45,45,46,46,
818231,00000123,false,Rx,0,8,D7,02,00,00,00,00,01,35,
818677,0000011B,false,Rx,0,8,E5,07,1D,05,80,08,A8,02,
819143,00000124,false,Rx,0,8,00,00,0A,00,00,00,20,40,
819784,0000011C,false,Rx,0,8,00,05,20,00,22,00,01,01,
820346,0000012B,false,Rx,0,8,A2,FD,1D,06,00,00,08,00,
820485,0000012C,false,Rx,0,8,00,00,01,00,00,64,00,00,
827809,00000036,false,Rx,0,8,58,01,1F,51,00,00,25,01,
827964,00000037,false,Rx,0,8,00,00,00,10,00,40,00,00,
828188,00000038,false,Rx,0,8,04,00,00,00,F0,39,96,D4,
828429,0000033B,false,Rx,0,8,1E,5C,D0,00,00,00,00,00,
828743,00000039,false,Rx,0,8,00,00,00,00,00,00,00,00,
829073,0000033C,false,Rx,0,8,00,00,00,00,F0,00,00,00,
829190,00000356,false,Rx,0,8,42,75,68,00,00,00,00,00,
829502,0000033D,false,Rx,0,8,00,00,00,00,00,00,00,00,
829650,00000357,false,Rx,0,8,00,00,00,00,00,4B,4D,48,
829970,0000033E,false,Rx,0,8,00,00,00,00,00,00,00,00,
830173,00000358,false,Rx,0,8,35,41,45,4D,52,37,33,4F,
830404,00000419,false,Rx,0,8,63,A0,43,D6,D5,79,84,00,
830630,00000359,false,Rx,0,8,51,4F,34,52,4A,35,33,00,
830850,0000036F,false,Rx,0,8,5F,81,01,00,00,00,00,00,
831177,0000037F,false,Rx,0,8,BD,00,92,24,41,02,00,00,
831934,00000495,false,Rx,0,8,49,00,00,00,00,00,00,00,
833455,00000146,false,Rx,0,8,BB,88,02,10,04,01,00,00,
833613,00000147,false,Rx,0,8,00,04,7D,00,40,00,00,00,
833893,00000148,false,Rx,0,8,00,00,00,00,00,7E,40,05,
834177,00000149,false,Rx,0,8,00,00,00,00,00,00,00,00,
834415,000001B1,false,Rx,0,8,75,E8,02,00,72,00,00,00,
834615,000001B2,false,Rx,0,8,23,00,04,10,0F,03,51,10,
834904,000001B3,false,Rx,0,8,10,28,00,00,73,7C,78,80,
835183,000001B4,false,Rx,0,8,72,82,17,00,00,40,01,00,
839131,00000061,false,Rx,0,8,41,EB,65,00,00,00,00,00,
839269,00000062,false,Rx,0,8,02,02,00,02,40,FF,00,FF,
839595,00000063,false,Rx,0,8,00,00,05,00,00,08,FD,00,
839840,00000064,false,Rx,0,8,00,00,00,04,FF,FA,00,00,
842293,000003A1,false,Rx,0,8,4D,8A,A6,00,FF,FF,FF,FF,
842460,000003A2,false,Rx,0,8,00,00,00,00,00,00,00,00,
843430,0000019B,false,Rx,0,8,2A,C4,1C,00,00,E4,00,00,
843575,0000019C,false,Rx,0,8,40,20,00,00,00,00,0B,09,
843876,0000019D,false,Rx,0,8,00,10,00,01,00,00,00,00,
844134,0000019E,false,Rx,0,8,15,00,00,00,00,32,00,00,
847814,000001E1,false,Rx,0,8,32,07,A0,02,00,00,00,00,
848025,000001E2,false,Rx,0,8,00,00,00,00,00,00,00,00,
849933,00000405,false,Rx,0,8,0C,50,00,00,00,01,00,00,
850184,00000410,false,Rx,0,8,64,50,54,3C,5C,6A,FF,FF,
850474,00000413,false,Rx,0,8,FD,60,00,41,00,00,00,00,
850629,00000411,false,Rx,0,8,CA,71,50,51,00,00,44,04,
850907,00000414,false,Rx,0,8,F0,10,00,00,28,00,00,00,
851207,00000412,false,Rx,0,8,A3,C0,00,00,00,00,00,00,
851480,00000416,false,Rx,0,8,55,00,00,00,00,00,00,00,
851756,00000417,false,Rx,0,8,B7,70,00,00,00,01,00,00,
851974,00000487,false,Rx,1,8,00,00,00,00,00,00,00,00,
852082,00000418,false,Rx,0,8,1F,50,00,00,14,0C,00,00,
852424,00000642,false,Rx,1,8,00,00,00,00,00,00,00,00,
853966,00000111,false,Rx,0,8,7B,83,86,01,00,00,00,00,
854134,00000112,false,Rx,0,8,00,00,00,00,00,00,00,00,
854415,00000113,false,Rx,0,8,00,00,00,00,00,00,00,00,
854654,00000114,false,Rx,0,8,00,00,00,00,00,00,00,00,
854973,0000010B,false,Rx,0,8,6E,64,0F,00,00,00,00,05,
855259,0000010C,false,Rx,0,8,FF,F9,E7,1F,46,57,49,49,
855552,0000010D,false,Rx,0,8,D6,02,00,00,00,00,01,35,
855787,0000010E,false,Rx,0,8,00,00,0A,00,00,C0,AB,57,
857364,000000FF,false,Rx,0,8,CB,10,00,00,00,00,02,00,
858063,00000394,false,Rx,0,8,2A,22,1A,49,00,00,00,00,
858224,000003C3,false,Rx,0,8,45,10,31,30,36,00,00,00,
858544,000003E0,false,Rx,0,8,A8,80,01,00,54,03,00,00,
858942,00000256,false,Rx,0,8,90,CB,CD,15,00,00,30,01,
859229,00000257,false,Rx,0,8,00,8B,3F,1D,84,07,00,8B,
859456,000003E5,false,Rx,0,8,27,60,01,00,00,00,00,00,
859678,000000A1,false,Rx,0,8,0C,C1,67,21,09,04,00,00,
859881,00000258,false,Rx,0,8,03,32,1C,00,10,15,00,1C,
860173,000000A2,false,Rx,0,8,00,00,00,00,00,00,00,00,
860530,00000259,false,Rx,0,8,60,05,8C,3C,28,02,00,00,
861221,000000A3,false,Rx,0,8,00,40,01,00,00,00,00,00,
861819,000002E6,false,Rx,0,8,12,00,CD,01,00,00,00,15,
862583,000003E6,false,Rx,0,8,6F,E0,00,00,00,00,00,00,
863104,000002E7,false,Rx,0,8,0A,00,00,00,00,00,00,00,
863549,000003B6,false,Rx,0,8,24,B4,66,00,00,00,00,44,
864037,000002E8,false,Rx,0,8,00,00,00,00,00,00,00,00,
864345,000003B7,false,Rx,0,8,44,00,00,00,00,00,00,00,
864521,000002E9,false,Rx,0,8,00,00,00,00,00,00,00,00,
864994,00000643,false,Rx,1,8,00,FC,FF,FF,FF,FF,03,00,
865346,000003B8,false,Rx,0,8,D2,02,00,00,00,00,69,0E,
865473,000002BF,false,Rx,0,8,FF,FF,FF,00,00,00,00,00,
865706,000003B9,false,Rx,0,8,00,00,00,00,00,00,00,00,
865834,0000041A,false,Rx,0,8,D4,80,12,00,50,01,00,00,
865997,0000047F,false,Rx,0,8,F3,FF,FF,FF,FF,3F,FF,FF,
866104,0000041B,false,Rx,0,8,17,80,00,00,00,00,00,00,
866262,00000653,false,Rx,0,8,0A,19,03,01,02,2A,00,00,
866409,0000041C,false,Rx,0,8,E9,80,E0,00,00,00,00,00,
866508,00000422,false,Rx,0,8,E2,B0,01,00,00,00,04,00,
866629,00000432,false,Rx,0,8,03,20,02,00,00,00,00,00,
866821,00000435,false,Rx,0,8,3E,50,00,40,00,00,00,00,
867023,00000442,false,Rx,0,8,CE,20,11,81,00,00,00,00,
867150,00000444,false,Rx,0,8,AA,E0,20,50,55,50,00,00,
867411,00000445,false,Rx,0,8,DE,50,00,00,00,00,00,18,
867569,00000464,false,Rx,0,8,7C,D0,F0,FF,38,7F,05,00,
867769,00000121,false,Rx,0,8,E1,F2,10,00,00,00,00,05,
868257,00000122,false,Rx,0,8,FF,D9,67,1F,45,45,46,46,
868559,00000123,false,Rx,0,8,D7,02,00,00,00,00,01,35,
868692,0000011B,false,Rx,0,8,E1,1B,22,05,80,08,A8,02,
868866,00000124,false,Rx,0,8,00,00,0A,00,00,00,20,40,
869093,0000011C,false,Rx,0,8,00,05,20,00,22,00,01,01,
869270,0000012B,false,Rx,0,8,A6,E1,22,06,00,00,08,00,
869487,000001FB,false,Rx,0,8,BF,30,D0,00,32,32,00,00,
869614,0000012C,false,Rx,0,8,00,00,01,00,00,64,00,00,
869794,000001FC,false,Rx,0,8,00,00,00,00,00,00,19,00,
869961,00000161,false,Rx,0,8,00,5C,11,03,00,00,00,02,
870335,000001FD,false,Rx,0,8,00,1A,03,00,00,00,00,00,
871157,00000162,false,Rx,0,8,FF,FC,01,00,00,00,00,00,
871308,000001FE,false,Rx,0,8,00,00,00,00,00,00,00,00,
872110,00000419,false,Rx,0,8,63,A0,43,D6,D5,79,84,00,
875705,00000516,false,Rx,0,8,61,02,00,00,00,00,FF,FF,
877557,000001A1,false,Rx,0,8,60,C7,11,FE,F7,7F,64,00,
877711,000001A2,false,Rx,0,8,00,00,00,00,00,08,00,00,
878072,00000036,false,Rx,0,8,8E,5D,24,51,00,00,25,01,
878386,000001A3,false,Rx,0,8,FF,F3,3F,00,00,00,00,00,
878587,00000037,false,Rx,0,8,00,00,00,10,00,40,00,00,
878785,000001A4,false,Rx,0,8,FE,07,00,00,00,00,00,00,
878918,00000038,false,Rx,0,8,04,00,00,00,F0,39,96,D4,
879180,00000039,false,Rx,0,8,00,00,00,00,00,00,00,00,
883963,000001F1,false,Rx,0,8,F5,D7,15,01,00,00,28,00,
884114,000001F2,false,Rx,0,8,00,00,00,00,00,00,00,00,
884879,00000448,false,Rx,0,8,7F,00,00,00,00,00,00,00,
889834,00000061,false,Rx,0,8,C0,9F,6A,00,00,00,00,00,
890340,00000062,false,Rx,0,8,02,02,00,02,40,FF,00,FF,
890523,00000063,false,Rx,0,8,00,00,05,00,00,08,FD,00,
890782,00000064,false,Rx,0,8,00,00,00,04,FF,FA,00,00,
892308,000004A3,false,Rx,1,8,80,00,48,0B,3E,00,00,00,
892465,000004A4,false,Rx,1,8,FF,FF,FF,00,00,00,00,00,
893613,0000019B,false,Rx,0,8,49,5F,21,00,00,E4,00,00,
893916,0000019C,false,Rx,0,8,40,20,00,00,00,00,0B,09,
894087,0000019D,false,Rx,0,8,00,10,00,01,00,00,00,00,
894297,0000019E,false,Rx,0,8,15,00,00,00,00,32,00,00,
894796,00000419,false,Rx,0,8,08,B0,43,D6,D9,79,84,00,
897643,00000251,false,Rx,0,8,56,BA,CE,00,00,00,00,00,
897797,00000252,false,Rx,0,8,00,00,00,00,03,00,00,00,
898229,00000253,false,Rx,0,8,00,00,00,4E,4E,00,80,51,
902206,000001AB,false,Rx,0,8,17,F8,DF,50,70,40,00,00,
902579,000004F0,false,Rx,1,8,4A,12,38,38,64,1A,07,02,
902834,000001AC,false,Rx,0,8,00,28,00,00,00,00,00,00,
905135,0000010B,false,Rx,0,8,13,A1,14,00,00,00,00,05,
905281,0000010C,false,Rx,0,8,FF,F9,E7,1F,46,57,49,49,
905660,0000010D,false,Rx,0,8,D6,02,00,00,00,00,01,35,
905903,0000010E,false,Rx,0,8,00,00,0A,00,00,C0,AB,57,
908771,000002C1,false,Rx,0,8,87,C7,69,21,00,41,00,A5,
908941,000002C2,false,Rx,0,8,20,00,00,00,00,00,00,00,
909252,000002C3,false,Rx,0,8,00,00,00,00,00,00,00,00,
909568,000002C4,false,Rx,0,8,00,00,00,00,00,00,00,00,
909753,000000A1,false,Rx,0,8,30,30,6C,21,09,04,00,00,
910090,000000A2,false,Rx,0,8,00,00,00,00,00,00,00,00,
910341,000000A3,false,Rx,0,8,00,40,01,00,00,00,00,00,
911311,00000091,false,Rx,0,8,E3,B8,CE,16,00,00,00,00,
911610,00000092,false,Rx,0,8,00,00,00,00,00,00,00,00,
911791,00000093,false,Rx,0,8,00,00,00,00,00,00,00,00,
912101,00000094,false,Rx,0,8,00,00,00,00,00,00,00,00,
912494,000004E8,false,Rx,1,8,FF,FF,FF,05,FF,FF,FF,00,
916942,00000401,false,Rx,0,8,C6,10,10,00,00,04,00,00,
917395,00000121,false,Rx,0,8,9E,DE,15,00,00,00,00,05,
917824,00000122,false,Rx,0,8,FF,D9,67,1F,45,45,46,46,
918340,00000123,false,Rx,0,8,D7,02,00,00,00,00,01,35,
918510,0000011B,false,Rx,0,8,17,33,27,05,80,08,A8,02,
918927,00000124,false,Rx,0,8,00,00,0A,00,00,00,20,40,
919257,0000011C,false,Rx,0,8,00,05,20,00,22,00,01,01,
919461,0000012B,false,Rx,0,8,50,C9,27,06,00,00,08,00,
919580,0000012C,false,Rx,0,8,00,00,01,00,00,64,00,00,
920359,000001E6,false,Rx,0,8,9B,BF,9C,02,00,00,00,00,
921130,000001BB,false,Rx,0,8,50,81,9C,02,00,00,00,0A,
921590,000001BC,false,Rx,0,8,32,00,00,00,02,00,00,00,
921770,000001BD,false,Rx,0,8,00,00,00,00,00,00,00,00,
922078,000003B0,false,Rx,0,8,72,37,FF,C7,00,00,03,C0,
922419,000001E7,false,Rx,0,8,00,00,22,03,20,01,00,00,
924569,00000382,false,Rx,0,8,F8,23,08,00,00,01,08,00,
925210,00000419,false,Rx,0,8,CF,C0,44,D6,D9,79,84,00,
926320,000003B1,false,Rx,0,8,9B,3C,FF,40,00,00,20,00,
928159,00000036,false,Rx,0,8,83,9B,29,51,00,00,25,01,
928655,00000037,false,Rx,0,8,00,00,00,10,00,40,00,00,
928950,00000038,false,Rx,0,8,04,00,00,00,F0,39,96,D4,
929075,00000039,false,Rx,0,8,00,00,00,00,00,00,00,00,
929182,000003B2,false,Rx,0,8,36,15,FF,02,29,2F,34,00,
929969,0000036F,false,Rx,0,8,E6,91,01,00,00,00,00,00,
930101,0000037F,false,Rx,0,8,04,10,92,24,41,02,00,00,
931471,00000427,false,Rx,0,8,1D,86,FF,00,80,0A,00,00,
933717,00000146,false,Rx,0,8,C4,A4,07,10,04,01,00,00,
934212,00000147,false,Rx,0,8,00,04,7D,00,40,00,00,00,
934398,00000148,false,Rx,0,8,00,00,00,00,00,7E,40,05,
934816,00000149,false,Rx,0,8,00,00,00,00,00,00,00,00,
935154,000001B1,false,Rx,0,8,0A,C4,07,00,72,00,00,00,
935456,000001B2,false,Rx,0,8,23,00,04,10,0F,03,51,10,
935607,000001B3,false,Rx,0,8,10,28,00,00,73,7C,78,80,
935787,000001B4,false,Rx,0,8,72,82,17,00,00,40,01,00,
939216,00000061,false,Rx,0,8,BF,B3,6F,00,00,00,00,00,
939343,00000062,false,Rx,0,8,02,02,00,02,40,FF,00,FF,
940070,00000063,false,Rx,0,8,00,00,05,00,00,08,FD,00,
940526,00000064,false,Rx,0,8,00,00,00,04,FF,FA,00,00,
941858,00000226,false,Rx,0,8,50,38,F9,FF,B4,20,09,42,
941987,000002FF,false,Rx,0,8,E2,01,00,F1,3F,00,00,00,
942159,00000227,false,Rx,0,8,02,77,4F,09,00,F2,6F,03,
942435,00000316,false,Rx,0,8,04,1C,7C,40,0B,80,0A,00,
942726,00000472,false,Rx,0,8,5C,EC,00,40,08,41,00,45,
942965,00000317,false,Rx,0,8,00,00,05,00,00,00,00,00,
943837,00000473,false,Rx,0,8,5F,24,00,25,00,00,00,78,
944500,000004F0,false,Rx,1,8,4A,12,38,38,64,1A,07,02,
944825,0000019B,false,Rx,0,8,BA,C1,26,00,00,E4,00,00,
944957,00000474,false,Rx,0,8,51,AE,00,00,00,00,00,0C,
945386,0000019C,false,Rx,0,8,40,20,00,00,00,00,0B,09,
946076,0000019D,false,Rx,0,8,00,10,00,01,00,00,00,00,
946269,0000019E,false,Rx,0,8,15,00,00,00,00,32,00,00,
953259,000004E8,false,Rx,1,8,FF,FF,FF,05,FF,FF,FF,00,
955186,0000010B,false,Rx,0,8,1E,67,19,00,00,00,00,05,
955350,0000010C,false,Rx,0,8,FF,F9,E7,1F,46,57,49,49,
956050,0000010D,false,Rx,0,8,D6,02,00,00,00,00,01,35,
956211,0000010E,false,Rx,0,8,00,00,0A,00,00,C0,AB,57,
959616,000000A1,false,Rx,0,8,55,33,71,21,09,04,00,00,
959766,000000A2,false,Rx,0,8,00,00,00,00,00,00,00,00,
960194,000000A3,false,Rx,0,8,00,40,01,00,00,00,00,00,
963311,000000C5,false,Rx,1,8,00,00,00,00,00,00,00,00,
964122,00000244,false,Rx,1,8,FF,FF,FF,FF,FF,FF,FF,FF,
964923,0000041F,false,Rx,1,8,00,0C,00,00,00,00,00,00,
965736,000004B4,false,Rx,1,8,00,00,00,00,00,00,00,00,
966709,000004B5,false,Rx,1,8,08,00,F0,07,00,00,00,00,
967615,000004B7,false,Rx,1,8,08,00,F0,07,00,00,00,00,
968121,000004CA,false,Rx,1,8,00,00,00,00,00,00,00,00,
968481,000004CC,false,Rx,1,8,08,00,00,06,00,00,03,00,
968866,00000419,false,Rx,0,8,CF,C0,44,D6,D9,79,84,00,
969059,000004CE,false,Rx,1,8,14,01,FF,FF,FF,FF,FF,FF,
969150,000004D7,false,Rx,1,8,23,01,00,00,00,00,00,00,
969563,000004D8,false,Rx,1,8,41,10,F0,F0,40,F2,1E,CC,
969862,000004DD,false,Rx,1,8,00,00,FE,00,04,00,00,00,
970204,000004DF,false,Rx,1,8,FF,03,0C,3F,00,00,00,00,
970379,000004E7,false,Rx,1,8,00,30,00,00,00,00,69,0F,
970510,000004E9,false,Rx,1,8,12,00,00,34,00,00,50,00,
970657,000004EA,false,Rx,1,8,67,00,00,89,00,00,00,00,
970882,00000121,false,Rx,0,8,1F,AA,1A,00,00,00,00,05,
971044,000004EB,false,Rx,1,8,40,90,38,38,80,00,00,00,
971434,00000122,false,Rx,0,8,FF,D9,67,1F,45,45,46,46,
971835,000004EC,false,Rx,1,8,00,00,00,00,00,00,00,00,
972122,0000011B,false,Rx,0,8,DF,CA,2C,05,80,08,A8,02,
972309,000004ED,false,Rx,1,8,00,00,00,00,00,FF,FF,1F,
972872,00000123,false,Rx,0,8,D7,02,00,00,00,00,01,35,
973035,000004EE,false,Rx,1,8,FF,FF,00,00,00,00,00,00,
973521,0000011C,false,Rx,0,8,00,05,20,00,22,00,01,01,
973909,000004EF,false,Rx,1,8,60,00,60,00,29,14,00,00,
974197,00000124,false,Rx,0,8,00,00,0A,00,00,00,20,40,
974390,0000063D,false,Rx,1,8,00,80,00,00,00,00,00,00,
974746,0000063E,false,Rx,1,8,FF,FF,FF,FF,FF,FF,FF,FF,
975054,0000012B,false,Rx,0,8,98,30,2C,06,00,00,08,00,
975252,0000063F,false,Rx,1,8,00,10,00,C4,FF,00,00,00,
975427,00000640,false,Rx,1,8,FF,FF,FF,00,FF,FF,FF,00,
975673,0000012C,false,Rx,0,8,00,00,01,00,00,64,00,00,
975841,00000641,false,Rx,1,8,FF,FF,FF,FF,0F,FF,FF,FF,
976171,00000161,false,Rx,0,8,9F,34,16,03,00,00,00,02,
976351,00000646,false,Rx,1,8,00,00,00,80,01,00,00,00,
976728,00000162,false,Rx,0,8,FF,FC,01,00,00,00,00,00,
976879,00000561,false,Rx,0,8,63,02,00,00,00,00,FF,FF,
977410,000001A1,false,Rx,0,8,93,59,16,FE,F7,7F,64,00,
977646,000001A2,false,Rx,0,8,00,00,00,00,00,08,00,00,
977929,00000036,false,Rx,0,8,70,05,2E,51,00,00,25,01,
978140,000001A3,false,Rx,0,8,FF,F3,3F,00,00,00,00,00,
978358,00000037,false,Rx,0,8,00,00,00,10,00,40,00,00,
978686,000001A4,false,Rx,0,8,FE,07,00,00,00,00,00,00,
978934,00000038,false,Rx,0,8,04,00,00,00,F0,39,96,D4,
979443,00000039,false,Rx,0,8,00,00,00,00,00,00,00,00,
983177,000004F0,false,Rx,1,8,4A,12,38,38,64,1A,07,02,
984433,00000475,false,Rx,0,8,12,00,00,00,00,00,00,00,
984998,00000496,false,Rx,0,8,12,00,00,00,00,00,00,00,
987334,0000030B,false,Rx,0,8,C1,B1,D1,00,04,00,00,00,
