Time Stamp,ID,Extended,Dir,Bus,LEN,D1,D2,D3,D4,D5,D6,D7,D8
32800145,00000475,false,Rx,0,8,12,00,00,00,00,00,00,00,
32800290,00000496,false,Rx,0,8,12,00,00,00,00,00,00,00,
32803742,00000161,false,Rx,0,8,CA,BE,74,03,00,00,00,02,
32803868,0000011B,false,Rx,0,8,54,CE,E8,05,80,08,A8,02,
32804575,00000162,false,Rx,0,8,FF,FC,01,00,00,00,00,00,
32805050,0000011C,false,Rx,0,8,00,05,20,00,22,00,01,01,
32805385,0000012B,false,Rx,0,8,13,34,E8,06,00,00,08,00,
32805983,00000061,false,Rx,0,8,8C,20,30,00,00,00,00,00,
32806172,0000012C,false,Rx,0,8,00,00,01,00,00,64,00,00,
32806489,00000062,false,Rx,0,8,02,02,00,02,40,FF,00,FF,
32806734,00000063,false,Rx,0,8,00,00,05,00,00,08,FD,00,
32806845,0000030B,false,Rx,0,8,2C,6F,17,00,04,00,00,00,
32806948,00000064,false,Rx,0,8,00,00,00,04,FF,FA,00,00,
32807137,0000030C,false,Rx,0,8,00,00,0C,00,2C,00,A0,0F,
32807253,0000030D,false,Rx,0,8,00,00,00,00,FF,00,00,00,
32807366,0000030E,false,Rx,0,8,00,00,20,05,21,00,00,02,
32810454,00000226,false,Rx,0,8,BA,44,41,FF,B4,20,09,42,
32810752,0000019B,false,Rx,0,8,65,FD,E7,00,00,E4,00,00,
32811076,00000227,false,Rx,0,8,02,77,4F,09,00,F2,6F,03,
32811251,0000019C,false,Rx,0,8,40,20,00,00,00,00,0B,09,
32811689,00000316,false,Rx,0,8,71,22,20,40,0B,80,0A,00,
32811827,0000019D,false,Rx,0,8,00,10,00,01,00,00,00,00,
32811971,00000317,false,Rx,0,8,00,00,05,00,00,00,00,00,
32812156,0000019E,false,Rx,0,8,15,00,00,00,00,32,00,00,
32812576,00000380,false,Rx,0,8,97,8B,03,00,00,00,00,01,
32812936,000003CB,false,Rx,0,8,36,14,00,F4,00,00,00,00,
32813257,00000472,false,Rx,0,8,5C,EC,00,40,08,41,00,45,
32813503,000003CC,false,Rx,0,8,36,31,34,30,33,34,31,00,
32813663,00000473,false,Rx,0,8,5F,24,00,25,00,00,00,78,
32813806,000002FF,false,Rx,0,8,E2,01,00,F1,3F,00,00,00,
32813904,00000474,false,Rx,0,8,51,AE,00,00,00,00,00,0C,
32814107,000001A1,false,Rx,0,8,C3,51,74,FE,F7,7F,64,00,
32814261,000001A2,false,Rx,0,8,00,00,00,00,00,08,00,00,
32814601,000001A3,false,Rx,0,8,FF,F3,3F,00,00,00,00,00,
32815042,000001A4,false,Rx,0,8,FE,07,00,00,00,00,00,00,
32816421,00000383,false,Rx,0,8,67,25,02,00,02,00,00,00,
32816530,00000151,false,Rx,0,8,80,66,17,C8,C8,00,28,15,
32816692,000001F6,false,Rx,0,8,DE,EF,17,00,00,00,00,0D,
32816966,00000152,false,Rx,0,8,14,15,14,00,32,00,00,00,
32817255,000001F7,false,Rx,0,8,22,00,EA,06,00,00,00,00,
32817700,00000153,false,Rx,0,8,00,00,00,00,00,00,00,00,
32818384,000001F8,false,Rx,0,8,00,48,03,16,03,00,00,00,
32819018,00000154,false,Rx,0,8,00,00,00,00,00,00,00,00,
32819443,000001F9,false,Rx,0,8,B9,00,C8,C8,14,00,B9,00,
32820346,000002D6,false,Rx,0,8,97,EC,0A,00,00,00,00,00,
32820833,00000236,false,Rx,0,8,F4,BC,17,00,34,6C,34,6C,
32821285,000002D7,false,Rx,0,8,00,00,00,00,03,00,00,00,
32821887,00000237,false,Rx,0,8,00,05,78,00,00,66,1C,00,
32822363,000002D8,false,Rx,0,8,00,00,00,00,00,00,38,44,
32822520,00000238,false,Rx,0,8,00,00,D2,00,00,00,00,00,
32822939,000002D9,false,Rx,0,8,00,00,00,00,00,00,00,00,
32823379,00000239,false,Rx,0,8,00,00,00,00,01,00,00,00,
32823845,000002FB,false,Rx,0,8,DF,93,17,04,D2,16,BD,BD,
32824059,0000025B,false,Rx,0,8,3A,5B,17,40,40,20,00,00,
32824558,000002EB,false,Rx,0,8,BE,6B,0A,07,08,01,00,02,
32825325,0000025C,false,Rx,0,8,00,00,22,00,3E,52,16,00,
32825757,00000091,false,Rx,0,8,07,18,15,16,00,00,00,00,
32826212,0000025D,false,Rx,0,8,00,C8,00,00,00,80,C0,70,
32826684,00000092,false,Rx,0,8,00,00,00,00,00,00,00,00,
32826858,0000025E,false,Rx,0,8,B5,02,0A,00,00,00,00,00,
32827565,00000093,false,Rx,0,8,00,00,00,00,00,00,00,00,
32827771,000002EC,false,Rx,0,8,0A,00,00,00,00,00,00,00,
32828547,00000094,false,Rx,0,8,00,00,00,00,00,00,00,00,
32828841,000002ED,false,Rx,0,8,00,00,00,00,00,00,00,00,
32829133,0000010B,false,Rx,0,8,D3,8A,DA,00,00,00,00,05,
32829279,000002EE,false,Rx,0,8,00,00,00,00,00,00,00,00,
32829579,0000010C,false,Rx,0,8,FF,F9,E7,1F,45,56,49,49,
32829845,000002FC,false,Rx,0,8,03,00,14,15,00,00,86,77,
32829991,0000010D,false,Rx,0,8,D6,02,00,00,00,00,01,35,
32830408,00000563,false,Rx,1,8,65,02,00,00,00,00,FF,FF,
32831051,000002FD,false,Rx,0,8,00,00,00,00,00,1C,0F,EA,
32831527,0000010E,false,Rx,0,8,00,00,0A,00,00,C0,AB,57,
32832331,000002FE,false,Rx,0,8,00,00,72,01,00,28,00,00,
32832493,000000A1,false,Rx,0,8,34,2F,32,2F,0E,0A,00,00,
32832692,000002AB,false,Rx,0,8,B5,60,18,0C,0C,00,00,00,
32832801,000000A2,false,Rx,0,8,00,00,00,00,00,00,00,00,
32832988,000002AC,false,Rx,0,8,00,FF,FF,00,00,40,00,50,
32833091,000000A3,false,Rx,0,8,00,40,01,00,00,00,00,00,
32833231,000002AD,false,Rx,0,8,00,01,00,40,FF,FF,FF,0F,
32833435,00000326,false,Rx,0,8,06,D1,17,00,00,00,00,00,
32833698,000002AE,false,Rx,0,8,01,00,FF,3F,06,01,00,00,
32833816,00000327,false,Rx,0,8,00,00,00,00,05,00,00,00,
32833938,000002B6,false,Rx,0,8,E6,F0,18,00,00,00,00,40,
32834147,00000328,false,Rx,0,8,EA,06,B9,00,00,48,03,00,
32834421,000002B7,false,Rx,0,8,22,01,86,00,00,04,00,00,
32834572,00000329,false,Rx,0,8,C8,16,03,00,00,00,00,00,
32834772,000002B8,false,Rx,0,8,FE,F1,0F,00,00,00,00,00,
32834897,00000331,false,Rx,0,8,DE,84,17,F1,C8,A0,2C,97,
32835101,000002B9,false,Rx,0,8,0A,00,00,00,00,00,00,00,
32835218,00000332,false,Rx,0,8,F8,07,1C,02,00,00,00,00,
32835496,000002E1,false,Rx,0,8,A1,EF,18,00,00,00,00,40,
32835731,00000333,false,Rx,0,8,00,00,00,1C,0C,40,20,C8,
32835978,000002E2,false,Rx,0,8,FD,00,00,00,00,7E,00,04,
32836125,00000334,false,Rx,0,8,C8,00,00,00,F1,8F,F1,8F,
32836225,000002E3,false,Rx,0,8,00,00,00,00,00,00,72,01,
32836451,00000384,false,Rx,0,8,3A,9B,03,00,00,FF,00,21,
32836589,000002E4,false,Rx,0,8,02,00,00,00,00,00,00,00,
32837167,00000396,false,Rx,0,8,F7,71,0A,0F,08,01,00,02,
32837818,0000042A,false,Rx,0,8,1D,C5,02,01,00,10,00,00,
32838353,00000397,false,Rx,0,8,25,00,00,00,00,00,00,00,
32838489,00000398,false,Rx,0,8,00,00,00,00,00,00,00,00,
32838651,000003AA,false,Rx,0,8,FF,00,D0,00,54,00,00,00,
32838764,000001E1,false,Rx,0,8,59,76,2F,02,00,00,00,00,
32839039,000001E2,false,Rx,0,8,00,00,00,00,00,00,00,00,
32839184,00000121,false,Rx,0,8,15,BA,DB,00,00,00,00,05,
32839547,00000122,false,Rx,0,8,FF,D9,67,1F,45,45,45,45,
32839770,00000123,false,Rx,0,8,D7,02,00,00,00,00,01,35,
32839898,00000124,false,Rx,0,8,00,00,0A,00,00,00,20,40,
32844042,00000036,false,Rx,0,8,AF,39,EF,51,00,00,25,01,
32844342,00000037,false,Rx,0,8,00,00,00,10,00,40,00,00,
32844594,00000038,false,Rx,0,8,04,00,00,00,F0,39,96,D4,
32844820,00000039,false,Rx,0,8,00,00,00,00,00,00,00,00,
32846204,0000033B,false,Rx,0,8,F5,D3,18,00,00,00,00,00,
32846355,00000146,false,Rx,0,8,76,9D,6A,10,04,01,00,00,
32846807,0000033C,false,Rx,0,8,00,00,00,00,F0,00,00,00,
32847531,00000147,false,Rx,0,8,00,04,7D,00,40,00,00,00,
32847900,0000033D,false,Rx,0,8,00,00,00,00,00,00,00,00,
32848504,00000148,false,Rx,0,8,00,00,00,00,00,7F,40,05,
32848686,0000033E,false,Rx,0,8,00,00,00,00,00,00,00,00,
32849018,00000149,false,Rx,0,8,00,00,00,00,00,00,00,00,
32849261,00000356,false,Rx,0,8,A7,BA,0C,00,00,00,00,00,
32849419,000001B1,false,Rx,0,8,E1,EF,6A,00,72,00,00,00,
32849550,00000357,false,Rx,0,8,00,00,00,00,00,4B,4D,48,
32849802,000001B2,false,Rx,0,8,23,00,04,10,0F,03,51,10,
32850020,00000358,false,Rx,0,8,35,41,45,4D,52,37,33,4F,
32850178,000001B3,false,Rx,0,8,10,20,00,00,73,7F,79,80,
32850350,00000359,false,Rx,0,8,51,4F,34,52,4A,35,33,00,
32850529,000001B4,false,Rx,0,8,75,82,17,00,00,40,01,00,
32850663,00000495,false,Rx,0,8,49,00,00,00,00,00,00,00,
32850776,000001F1,false,Rx,0,8,BE,12,A4,01,00,00,28,00,
32850874,000001F2,false,Rx,0,8,00,00,00,00,00,00,00,00,
32854092,0000011B,false,Rx,0,8,A2,E6,ED,05,80,08,A8,02,
32854567,0000012B,false,Rx,0,8,E5,1C,ED,06,00,00,08,00,
32855027,0000011C,false,Rx,0,8,00,05,20,00,22,00,01,01,
32855201,0000012C,false,Rx,0,8,00,00,01,00,00,64,00,00,
32855431,00000061,false,Rx,0,8,F3,0C,35,00,00,00,00,00,
32855582,00000062,false,Rx,0,8,02,02,00,02,40,FF,00,FF,
32855869,00000063,false,Rx,0,8,00,00,05,00,00,08,FD,00,
32856082,00000064,false,Rx,0,8,00,00,00,04,FF,FA,00,00,
32860536,0000019B,false,Rx,0,8,DD,FC,EC,00,00,E4,00,00,
32860705,0000019C,false,Rx,0,8,40,20,00,00,00,00,0B,09,
32861134,0000019D,false,Rx,0,8,00,10,00,01,00,00,00,00,
32861440,0000019E,false,Rx,0,8,15,00,00,00,00,32,00,00,
32865774,0000036F,false,Rx,0,8,E6,91,01,00,00,00,00,00,
32866141,0000037F,false,Rx,0,8,D2,20,92,24,41,02,00,00,
32869182,00000487,false,Rx,1,8,00,00,00,00,00,00,00,00,
32869338,00000642,false,Rx,1,8,00,00,00,00,00,00,00,00,
32869976,00000111,false,Rx,0,8,75,C3,2A,01,00,00,00,00,
32870457,000001AB,false,Rx,0,8,21,3B,4C,50,70,40,00,00,
32870868,00000112,false,Rx,0,8,00,00,00,00,00,00,00,00,
32871183,000001AC,false,Rx,0,8,00,28,00,00,00,00,00,00,
32871331,00000113,false,Rx,0,8,00,00,00,00,00,00,00,00,
32871760,00000114,false,Rx,0,8,00,00,00,00,00,00,00,00,
32872076,0000010B,false,Rx,0,8,AC,A6,DF,00,00,00,00,05,
32872399,0000010C,false,Rx,0,8,FF,F9,E7,1F,45,56,49,49,
32873005,0000010D,false,Rx,0,8,D6,02,00,00,00,00,01,35,
32873689,0000010E,false,Rx,0,8,00,00,0A,00,00,C0,AB,57,
32875367,000000A1,false,Rx,0,8,3B,C4,37,2F,0E,0A,00,00,
32875517,000000A2,false,Rx,0,8,00,00,00,00,00,00,00,00,
32875714,000000A3,false,Rx,0,8,00,40,01,00,00,00,00,00,
32875949,00000256,false,Rx,0,8,14,3E,15,15,00,00,F0,00,
32876205,000002E6,false,Rx,0,8,3C,4B,15,01,00,00,00,15,
32876480,00000257,false,Rx,0,8,00,8B,40,17,84,07,00,8C,
32876684,000001E6,false,Rx,0,8,6B,BA,2B,02,00,00,00,00,
32876867,00000258,false,Rx,0,8,04,31,1C,00,10,15,00,1C,
32877161,000001BB,false,Rx,0,8,76,E6,2B,02,00,00,00,0A,
32877351,00000259,false,Rx,0,8,48,05,8B,3C,2C,02,00,00,
32877597,000001BC,false,Rx,0,8,32,00,00,00,02,00,00,00,
62871,000002E7,false,Rx,0,8,0A,00,00,00,00,00,00,00,
63134,000001BD,false,Rx,0,8,00,00,00,00,00,00,00,00,
63663,000002E8,false,Rx,0,8,00,00,00,00,00,00,00,00,
64700,000001E7,false,Rx,0,8,00,00,22,03,20,01,00,00,
65502,000002E9,false,Rx,0,8,00,00,00,00,00,00,00,00,
65929,000003B6,false,Rx,0,8,B4,28,0A,00,00,00,00,45,
66111,000003B7,false,Rx,0,8,45,00,00,00,00,00,00,00,
66262,00000643,false,Rx,1,8,00,FC,FF,FF,FF,FF,03,00,
66462,000003B8,false,Rx,0,8,D2,02,00,00,00,00,69,0E,
66638,000003B9,false,Rx,0,8,00,00,00,00,00,00,00,00,
68473,000002BF,false,Rx,0,8,FF,FF,FF,00,00,00,00,00,
68631,0000047F,false,Rx,0,8,F3,FF,FF,FF,FF,3F,FF,FF,
68965,00000653,false,Rx,0,8,0A,19,03,01,02,2A,00,00,
70661,00000121,false,Rx,0,8,C3,E6,E0,00,00,00,00,05,
70987,00000122,false,Rx,0,8,FF,D9,67,1F,45,45,45,45,
71312,00000123,false,Rx,0,8,D7,02,00,00,00,00,01,35,
71430,00000124,false,Rx,0,8,00,00,0A,00,00,00,20,40,
71640,00000405,false,Rx,0,8,0C,50,00,00,00,01,00,00,
71798,00000413,false,Rx,0,8,FD,60,00,41,00,00,00,00,
71958,00000410,false,Rx,0,8,64,50,54,3C,5C,6A,FF,FF,
72114,00000414,false,Rx,0,8,F0,10,00,00,28,00,00,00,
72394,00000411,false,Rx,0,8,CA,71,50,51,00,00,44,04,
72807,00000416,false,Rx,0,8,55,00,00,00,00,00,00,00,
72939,00000412,false,Rx,0,8,A3,C0,00,00,00,00,00,00,
73190,00000417,false,Rx,0,8,B7,70,00,00,00,01,00,00,
73453,00000418,false,Rx,0,8,1F,50,00,00,14,0C,00,00,
73717,00000419,false,Rx,0,8,44,B0,FD,D5,81,7A,85,00,
74535,000004F0,false,Rx,1,8,4A,12,3B,0C,64,1A,07,02,
77826,00000401,false,Rx,0,8,C6,10,10,00,00,04,00,00,
79076,00000036,false,Rx,0,8,D2,FC,F4,51,00,00,25,01,
79218,00000037,false,Rx,0,8,00,00,00,10,00,40,00,00,
79541,00000038,false,Rx,0,8,04,00,00,00,F0,39,96,D4,
79773,00000039,false,Rx,0,8,00,00,00,00,00,00,00,00,
82607,00000448,false,Rx,0,8,7F,00,00,00,00,00,00,00,
88748,00000161,false,Rx,0,8,B9,87,79,03,00,00,00,02,
88890,0000011B,false,Rx,0,8,B2,BC,F2,05,80,08,A8,02,
89124,00000162,false,Rx,0,8,FF,FC,01,00,00,00,00,00,
89357,0000011C,false,Rx,0,8,00,05,20,00,22,00,01,01,
89655,0000012B,false,Rx,0,8,F5,46,F2,06,00,00,08,00,
89978,00000061,false,Rx,0,8,72,78,3A,00,00,00,00,00,
90100,0000012C,false,Rx,0,8,00,00,01,00,00,64,00,00,
90330,00000062,false,Rx,0,8,02,02,00,02,40,FF,00,FF,
90570,000001FB,false,Rx,0,8,54,BF,18,00,32,32,00,00,
90867,00000063,false,Rx,0,8,00,00,05,00,00,08,FD,00,
91142,000001FC,false,Rx,0,8,00,00,00,00,00,00,19,00,
91336,00000064,false,Rx,0,8,00,00,00,04,FF,FA,00,00,
91553,000001FD,false,Rx,0,8,00,1A,03,00,00,00,00,00,
91881,000001FE,false,Rx,0,8,00,00,00,00,00,00,00,00,
94081,000004A3,false,Rx,1,8,80,00,48,0B,3E,00,00,00,
94326,000004A4,false,Rx,1,8,FF,FF,FF,00,00,00,00,00,
95232,0000019B,false,Rx,0,8,15,FE,F1,00,00,E4,00,00,
95395,0000019C,false,Rx,0,8,40,20,00,00,00,00,0B,09,
95695,0000019D,false,Rx,0,8,00,10,00,01,00,00,00,00,
96006,0000019E,false,Rx,0,8,15,00,00,00,00,32,00,00,
98820,000001A1,false,Rx,0,8,CE,97,79,FE,F7,7F,64,00,
98988,000001A2,false,Rx,0,8,00,00,00,00,00,08,00,00,
99433,000001A3,false,Rx,0,8,FF,F3,3F,00,00,00,00,00,
100090,000001A4,false,Rx,0,8,FE,07,00,00,00,00,00,00,
101046,00000251,false,Rx,0,8,6F,C9,16,00,00,00,00,00,
101206,00000252,false,Rx,0,8,00,00,00,00,03,00,00,00,
101649,00000253,false,Rx,0,8,00,00,00,50,50,00,80,50,
106434,00000091,false,Rx,0,8,CD,F3,16,16,00,00,00,00,
106582,00000092,false,Rx,0,8,00,00,00,00,00,00,00,00,
106787,00000093,false,Rx,0,8,00,00,00,00,00,00,00,00,
107278,00000094,false,Rx,0,8,00,00,00,00,00,00,00,00,
107383,0000010B,false,Rx,0,8,7A,FA,E4,00,00,00,00,05,
107992,0000010C,false,Rx,0,8,FF,F9,E7,1F,45,56,49,49,
108149,0000010D,false,Rx,0,8,D6,02,00,00,00,00,01,35,
108310,0000010E,false,Rx,0,8,00,00,0A,00,00,C0,AB,57,
110262,000000A1,false,Rx,0,8,07,35,3C,2F,0E,0A,00,00,
110402,000000A2,false,Rx,0,8,00,00,00,00,00,00,00,00,
110673,000000A3,false,Rx,0,8,00,40,01,00,00,00,00,00,
111466,000002C1,false,Rx,0,8,07,1E,0D,21,00,41,00,A1,
111689,000002C2,false,Rx,0,8,40,00,00,00,00,00,00,00,
111843,000002C3,false,Rx,0,8,00,00,00,00,00,00,00,00,
111932,000002C4,false,Rx,0,8,00,00,00,00,00,00,00,00,
114439,000004F0,false,Rx,1,8,4A,12,3B,0C,64,1A,07,02,
115124,00000565,false,Rx,0,8,66,02,00,00,00,00,FF,FF,
120798,00000121,false,Rx,0,8,BC,CA,E5,00,00,00,00,05,
120944,00000122,false,Rx,0,8,FF,D9,67,1F,45,45,45,45,
121188,00000382,false,Rx,0,8,F8,23,08,00,00,01,08,00,
121394,00000123,false,Rx,0,8,D7,02,00,00,00,00,01,35,
121578,00000124,false,Rx,0,8,00,00,0A,00,00,00,20,40,
122104,000003B0,false,Rx,0,8,72,37,FF,C7,00,00,03,C0,
123175,000003B1,false,Rx,0,8,9B,3C,FF,40,00,00,20,00,
124162,000003B2,false,Rx,0,8,36,15,FF,02,29,2F,34,00,
129237,00000036,false,Rx,0,8,DF,3A,F9,51,00,00,25,01,
129367,00000037,false,Rx,0,8,00,00,00,10,00,40,00,00,
129591,00000038,false,Rx,0,8,04,00,00,00,F0,39,96,D4,
129820,00000039,false,Rx,0,8,00,00,00,00,00,00,00,00,
131502,00000146,false,Rx,0,8,09,B1,6F,10,04,01,00,00,
131654,00000147,false,Rx,0,8,00,04,7D,00,40,00,00,00,
132205,00000148,false,Rx,0,8,00,00,00,00,00,7F,40,05,
132351,00000149,false,Rx,0,8,00,00,00,00,00,00,00,00,
133366,000001B1,false,Rx,0,8,9E,C3,6F,00,72,00,00,00,
133529,000001B2,false,Rx,0,8,23,00,04,10,0F,03,51,10,
133692,000001B3,false,Rx,0,8,10,20,00,00,73,7F,79,80,
134032,000001B4,false,Rx,0,8,75,82,17,00,00,40,01,00,
134178,00000427,false,Rx,0,8,1D,86,FF,00,80,0A,00,00,
136005,000003A1,false,Rx,0,8,73,71,4B,00,FF,FF,FF,FF,
136172,000003A2,false,Rx,0,8,00,00,00,00,00,00,00,00,
139036,0000011B,false,Rx,0,8,44,94,F7,05,80,08,A8,02,
139172,0000012B,false,Rx,0,8,03,6E,F7,06,00,00,08,00,
139372,0000011C,false,Rx,0,8,00,05,20,00,22,00,01,01,
139644,0000012C,false,Rx,0,8,00,00,01,00,00,64,00,00,
139940,00000061,false,Rx,0,8,0D,54,3F,00,00,00,00,00,
140191,00000062,false,Rx,0,8,02,02,00,02,40,FF,00,FF,
140632,00000063,false,Rx,0,8,00,00,05,00,00,08,FD,00,
141279,00000064,false,Rx,0,8,00,00,00,04,FF,FA,00,00,
145434,0000019B,false,Rx,0,8,E6,60,F6,00,00,E4,00,00,
145891,0000019C,false,Rx,0,8,40,20,00,00,00,00,0B,09,
146300,0000019D,false,Rx,0,8,00,10,00,01,00,00,00,00,
146716,0000019E,false,Rx,0,8,15,00,00,00,00,32,00,00,
150776,0000036F,false,Rx,0,8,30,A1,01,00,00,00,00,00,
150950,000000FF,false,Rx,0,8,CB,10,00,00,00,00,02,00,
151377,0000037F,false,Rx,0,8,6B,30,92,24,41,02,00,00,
151976,00000394,false,Rx,0,8,2A,22,1A,49,00,00,00,00,
152224,000003C3,false,Rx,0,8,45,10,31,30,36,00,00,00,
152637,000003E0,false,Rx,0,8,A8,80,01,00,54,03,00,00,
153363,000003E5,false,Rx,0,8,27,60,01,00,00,00,00,00,
153537,000003E6,false,Rx,0,8,6F,E0,00,00,00,00,00,00,
154465,0000041A,false,Rx,0,8,D4,80,12,00,50,01,00,00,
154845,0000048B,false,Rx,0,8,92,07,69,1E,01,00,00,00,
155099,0000041B,false,Rx,0,8,17,80,00,00,00,00,00,00,
155251,0000048C,false,Rx,0,8,00,00,00,00,00,00,00,00,
155522,000004F0,false,Rx,1,8,4A,12,3B,0C,64,1A,07,02,
155673,0000041C,false,Rx,0,8,E9,80,E0,00,00,00,00,00,
155815,00000422,false,Rx,0,8,E2,B0,01,00,00,00,04,00,
155922,000001AB,false,Rx,0,8,58,21,51,50,70,40,00,00,
156336,00000432,false,Rx,0,8,03,20,02,00,00,00,00,00,
157032,000001AC,false,Rx,0,8,00,28,00,00,00,00,00,00,
157728,00000435,false,Rx,0,8,3E,50,00,40,00,00,00,00,
158133,00000442,false,Rx,0,8,CE,20,11,81,00,00,00,00,
158297,00000444,false,Rx,0,8,AA,E0,20,50,55,50,00,00,
158383,00000445,false,Rx,0,8,18,80,00,00,00,00,00,18,
158493,0000010B,false,Rx,0,8,77,3C,E9,00,00,00,00,05,
158734,00000464,false,Rx,0,8,7C,D0,F0,FF,38,7F,05,00,
158858,0000010C,false,Rx,0,8,FF,F9,E7,1F,45,56,49,49,
159062,0000010D,false,Rx,0,8,D6,02,00,00,00,00,01,35,
159193,0000010E,false,Rx,0,8,00,00,0A,00,00,C0,AB,57,
160780,000000A1,false,Rx,0,8,A9,A7,41,2F,0E,0A,00,00,
161206,000000A2,false,Rx,0,8,00,00,00,00,00,00,00,00,
161500,000000A3,false,Rx,0,8,00,40,01,00,00,00,00,00,
164378,000000C5,false,Rx,1,8,00,00,00,00,00,00,00,00,
164866,00000244,false,Rx,1,8,FF,FF,FF,FF,FF,FF,FF,FF,
165264,000004B4,false,Rx,1,8,00,00,00,00,00,00,00,00,
165887,000004B5,false,Rx,1,8,08,00,F0,07,00,00,00,00,
166303,000004B7,false,Rx,1,8,08,00,F0,07,00,00,00,00,
166974,000004CA,false,Rx,1,8,00,00,00,00,00,00,00,00,
167138,000004CC,false,Rx,1,8,08,00,00,06,00,00,03,00,
167408,000004CE,false,Rx,1,8,14,01,FF,FF,FF,FF,FF,FF,
167609,000004D7,false,Rx,1,8,23,01,00,00,00,00,00,00,
168193,000004D8,false,Rx,1,8,41,10,F0,F0,40,F2,1E,CC,
168565,000004DD,false,Rx,1,8,00,00,FE,00,04,00,00,00,
168701,000004DF,false,Rx,1,8,FF,03,0C,3F,00,00,00,00,
168903,000004E7,false,Rx,1,8,00,30,00,00,00,00,69,0F,
169041,000004E8,false,Rx,1,8,FF,FF,FF,05,FF,FF,FF,00,
169321,000004E9,false,Rx,1,8,12,00,00,34,00,00,50,00,
169471,000004EA,false,Rx,1,8,67,00,00,89,00,00,00,00,
169665,000004EB,false,Rx,1,8,40,90,3B,0B,80,00,00,00,
169928,000004EC,false,Rx,1,8,00,00,00,00,00,00,00,00,
170213,000004ED,false,Rx,1,8,00,00,00,00,00,FF,FF,1F,
170484,000004EE,false,Rx,1,8,FF,FF,00,00,00,00,00,00,
170926,000001E1,false,Rx,0,8,20,6C,32,02,00,00,00,00,
171130,000004EF,false,Rx,1,8,60,00,60,00,29,14,00,00,
171339,0000063D,false,Rx,1,8,00,80,00,00,00,00,00,00,
171578,000001E2,false,Rx,0,8,00,00,00,00,00,00,00,00,
171744,0000063E,false,Rx,1,8,FF,FF,FF,FF,FF,FF,FF,FF,
171885,0000063F,false,Rx,1,8,00,10,00,C4,FF,00,00,00,
172070,00000640,false,Rx,1,8,FF,FF,FF,00,FF,FF,FF,00,
172234,00000641,false,Rx,1,8,FF,FF,FF,FF,0F,FF,FF,FF,
172484,00000121,false,Rx,0,8,3D,BE,EA,00,00,00,00,05,
172679,00000646,false,Rx,1,8,00,00,00,80,01,00,00,00,
173154,00000122,false,Rx,0,8,FF,D9,67,1F,45,45,45,45,
173563,00000123,false,Rx,0,8,D7,02,00,00,00,00,01,35,
173997,00000124,false,Rx,0,8,00,00,0A,00,00,00,20,40,
179360,00000036,false,Rx,0,8,2C,A4,FE,51,00,00,25,01,
179999,00000037,false,Rx,0,8,00,00,00,10,00,40,00,00,
180434,00000038,false,Rx,0,8,04,00,00,00,F0,39,96,D4,
180847,00000039,false,Rx,0,8,00,00,00,00,00,00,00,00,
184674,000001F1,false,Rx,0,8,F3,FA,A7,01,00,00,28,00,
184821,000001F2,false,Rx,0,8,00,00,00,00,00,00,00,00,
185150,00000475,false,Rx,0,8,12,00,00,00,00,00,00,00,
185523,00000496,false,Rx,0,8,12,00,00,00,00,00,00,00,
188889,00000161,false,Rx,0,8,26,EF,7E,03,00,00,00,02,
189402,0000011B,false,Rx,0,8,8C,6D,FC,05,80,08,A8,02,
189811,00000162,false,Rx,0,8,FF,FC,01,00,00,00,00,00,
190177,0000011C,false,Rx,0,8,00,05,20,00,22,00,01,01,
190405,0000012B,false,Rx,0,8,CB,97,FC,06,00,00,08,00,
190807,00000061,false,Rx,0,8,AC,2B,44,00,00,00,00,00,
191154,0000012C,false,Rx,0,8,00,00,01,00,00,64,00,00,
191376,00000062,false,Rx,0,8,02,02,00,02,40,FF,00,FF,
191522,00000063,false,Rx,0,8,00,00,05,00,00,08,FD,00,
191668,0000030B,false,Rx,0,8,4B,F0,19,00,04,00,00,00,
191960,00000064,false,Rx,0,8,00,00,00,04,FF,FA,00,00,
192302,0000030C,false,Rx,0,8,00,00,0C,00,2C,00,A0,0F,
192725,0000030D,false,Rx,0,8,00,00,00,00,FF,00,00,00,
193385,0000030E,false,Rx,0,8,00,00,20,05,21,00,00,04,
195389,00000226,false,Rx,0,8,D3,04,43,FF,B4,20,09,42,
195704,0000019B,false,Rx,0,8,EB,A6,FB,00,00,E4,00,00,
195898,00000227,false,Rx,0,8,02,77,4F,09,00,F2,6F,03,
196243,0000019C,false,Rx,0,8,40,20,00,00,00,00,0B,09,
196706,000002FF,false,Rx,0,8,E2,01,00,F1,3F,00,00,00,
196945,0000019D,false,Rx,0,8,00,10,00,01,00,00,00,00,
197047,00000316,false,Rx,0,8,55,8A,21,40,0B,80,0A,00,
197200,0000019E,false,Rx,0,8,15,00,00,00,00,32,00,00,
197500,00000317,false,Rx,0,8,00,00,05,00,00,00,00,00,
197764,00000380,false,Rx,0,8,97,8B,03,00,00,00,00,01,
197909,00000472,false,Rx,0,8,5C,EC,00,40,08,41,00,45,
198088,00000473,false,Rx,0,8,5F,24,00,25,00,00,00,78,
198206,00000474,false,Rx,0,8,51,AE,00,00,00,00,00,0C,
198770,000001A1,false,Rx,0,8,3D,09,7E,FE,F7,7F,64,00,
199064,000001A2,false,Rx,0,8,00,00,00,00,00,08,00,00,
199276,000001A3,false,Rx,0,8,FF,F3,3F,00,00,00,00,00,
199776,000001A4,false,Rx,0,8,FE,07,00,00,00,00,00,00,
201537,00000383,false,Rx,0,8,67,25,02,00,02,00,00,00,
201971,00000236,false,Rx,0,8,33,91,19,00,34,6C,34,6C,
202265,00000151,false,Rx,0,8,47,4B,19,C8,C8,00,28,15,
202795,00000237,false,Rx,0,8,00,05,78,00,00,66,1C,00,
203108,00000152,false,Rx,0,8,14,15,14,00,32,00,00,00,
203218,000001F6,false,Rx,0,8,19,C2,19,00,00,00,00,0D,
203383,00000153,false,Rx,0,8,00,00,00,00,00,00,00,00,
203634,000001F7,false,Rx,0,8,22,00,EA,06,00,00,00,00,
203759,00000154,false,Rx,0,8,00,00,00,00,00,00,00,00,
204027,000001F8,false,Rx,0,8,00,48,03,16,03,00,00,00,
204220,000002D6,false,Rx,0,8,D1,B5,0B,00,00,00,00,00,
204373,000001F9,false,Rx,0,8,B9,00,C8,C8,14,00,B9,00,
204524,000002D7,false,Rx,0,8,00,00,00,00,03,00,00,00,
204690,00000238,false,Rx,0,8,00,00,D2,00,00,00,00,00,
204857,000002D8,false,Rx,0,8,00,00,00,00,00,00,38,44,
205048,00000239,false,Rx,0,8,00,00,00,00,01,00,00,00,
205188,000002D9,false,Rx,0,8,00,00,00,00,00,00,00,00,
205375,0000025B,false,Rx,0,8,32,C7,19,40,40,20,00,00,
205571,000002FB,false,Rx,0,8,18,BE,19,04,D2,16,BD,BD,
205899,0000025C,false,Rx,0,8,00,00,22,00,3E,52,16,00,
206057,000002EB,false,Rx,0,8,F2,3C,0B,07,08,01,00,02,
206329,00000091,false,Rx,0,8,8B,AA,17,16,00,00,00,00,
206580,0000025D,false,Rx,0,8,00,C8,00,00,00,80,C0,70,
206794,00000092,false,Rx,0,8,00,00,00,00,00,00,00,00,
207063,0000025E,false,Rx,0,8,B6,02,0A,00,00,00,00,00,
207254,00000093,false,Rx,0,8,00,00,00,00,00,00,00,00,
207707,000002EC,false,Rx,0,8,07,00,00,00,00,00,00,00,
208043,00000094,false,Rx,0,8,00,00,00,00,00,00,00,00,
208223,000002ED,false,Rx,0,8,00,00,00,00,00,00,00,00,
208473,0000010B,false,Rx,0,8,84,A2,EE,00,00,00,00,05,
208677,000002EE,false,Rx,0,8,00,00,00,00,00,00,00,00,
208798,0000010C,false,Rx,0,8,FF,F9,E7,1F,45,56,49,49,
209085,000002FC,false,Rx,0,8,03,00,14,15,00,00,86,77,
209337,0000010D,false,Rx,0,8,D6,02,00,00,00,00,01,35,
209502,000002FD,false,Rx,0,8,00,00,00,00,00,1C,0F,EA,
209760,0000010E,false,Rx,0,8,00,00,0A,00,00,C0,AB,57,
210055,000002FE,false,Rx,0,8,00,00,72,01,00,28,00,00,
210229,000000A1,false,Rx,0,8,A0,22,46,2F,0E,0A,00,00,
210511,000002AB,false,Rx,0,8,39,D2,1A,0C,0C,00,00,00,
210766,000000A2,false,Rx,0,8,00,00,00,00,00,00,00,00,
210978,000002AC,false,Rx,0,8,00,FF,FF,00,00,40,00,50,
211180,000000A3,false,Rx,0,8,00,40,01,00,00,00,00,00,
211520,000002AD,false,Rx,0,8,00,01,00,40,FF,FF,FF,0F,
211748,000001E6,false,Rx,0,8,9D,92,2E,02,00,00,00,00,
211905,000002AE,false,Rx,0,8,01,00,FF,3F,06,01,00,00,
212198,000001E7,false,Rx,0,8,00,00,22,03,20,01,00,00,
212368,000002B6,false,Rx,0,8,6A,42,1A,00,00,00,00,40,
212694,000001BB,false,Rx,0,8,79,0D,2E,02,00,00,00,0A,
212870,000002B7,false,Rx,0,8,22,01,86,00,00,04,00,00,
213165,000001BC,false,Rx,0,8,32,00,00,00,02,00,00,00,
213355,000002B8,false,Rx,0,8,FE,F1,0F,00,00,00,00,00,
213658,000001BD,false,Rx,0,8,00,00,00,00,00,00,00,00,
213956,000002B9,false,Rx,0,8,0A,00,00,00,00,00,00,00,
214203,00000326,false,Rx,0,8,C1,FC,19,00,00,00,00,00,
214386,000002E1,false,Rx,0,8,2D,5D,1A,00,00,00,00,40,
214606,00000327,false,Rx,0,8,00,00,00,00,05,00,00,00,
215388,000002E2,false,Rx,0,8,FD,00,00,00,00,7E,00,04,
216103,00000328,false,Rx,0,8,EA,06,B9,00,00,48,03,00,
216777,000002E3,false,Rx,0,8,00,00,00,00,00,00,72,01,
217061,00000329,false,Rx,0,8,C8,16,03,00,00,00,00,00,
217367,000002E4,false,Rx,0,8,02,00,00,00,00,00,00,00,
217535,00000331,false,Rx,0,8,19,A9,19,F1,C8,A0,2C,97,
217704,00000384,false,Rx,0,8,3A,9B,03,00,00,FF,00,21,
217811,00000332,false,Rx,0,8,F8,07,1C,02,00,00,00,00,
218063,00000396,false,Rx,0,8,0B,B4,0B,0F,08,01,00,02,
218290,00000333,false,Rx,0,8,00,00,00,1C,0C,40,20,C8,
218421,00000397,false,Rx,0,8,35,00,00,00,00,00,00,00,
218668,00000334,false,Rx,0,8,C8,00,00,00,F1,8F,F1,8F,
218775,00000398,false,Rx,0,8,00,00,00,00,00,00,00,00,
218891,0000042A,false,Rx,0,8,1D,C5,02,01,00,10,00,00,
219057,00000566,false,Rx,0,8,16,02,00,00,00,00,FF,FF,
219175,000003AA,false,Rx,0,8,FF,00,D0,00,54,00,00,00,
220463,00000121,false,Rx,0,8,42,92,EF,00,00,00,00,05,
220763,00000122,false,Rx,0,8,FF,D9,67,1F,45,45,45,45,
221070,00000123,false,Rx,0,8,D7,02,00,00,00,00,01,35,
221209,00000124,false,Rx,0,8,00,00,0A,00,00,00,20,40,
229150,00000036,false,Rx,0,8,D6,5A,03,51,00,00,25,01,
229297,00000037,false,Rx,0,8,00,00,00,10,00,40,00,00,
229712,00000038,false,Rx,0,8,04,00,00,00,F0,39,96,D4,
229932,00000039,false,Rx,0,8,00,00,00,00,00,00,00,00,
231225,0000033B,false,Rx,0,8,79,61,1A,00,00,00,00,00,
231356,00000146,false,Rx,0,8,74,74,74,10,04,01,00,00,
231662,0000033C,false,Rx,0,8,00,00,00,00,F0,00,00,00,
232182,00000147,false,Rx,0,8,00,04,7D,00,40,00,00,00,
232669,0000033D,false,Rx,0,8,00,00,00,00,00,00,00,00,
233345,00000148,false,Rx,0,8,00,00,00,00,00,7F,40,05,
233544,0000033E,false,Rx,0,8,00,00,00,00,00,00,00,00,
234296,00000149,false,Rx,0,8,00,00,00,00,00,00,00,00,
234498,00000356,false,Rx,0,8,E1,E3,0D,00,00,00,00,00,
234699,000001B1,false,Rx,0,8,E3,06,74,00,72,00,00,00,
234830,00000357,false,Rx,0,8,00,00,00,00,00,4B,4D,48,
234999,000001B2,false,Rx,0,8,23,00,04,10,0F,03,51,10,
235103,00000358,false,Rx,0,8,35,41,45,4D,52,37,33,4F,
235227,000001B3,false,Rx,0,8,10,20,00,00,73,7F,79,80,
235359,00000359,false,Rx,0,8,51,4F,34,52,4A,35,33,00,
235464,000001B4,false,Rx,0,8,75,82,17,00,00,40,01,00,
235603,00000495,false,Rx,0,8,49,00,00,00,00,00,00,00,
239108,0000011B,false,Rx,0,8,B8,B5,01,05,80,08,A8,02,
239272,0000012B,false,Rx,0,8,FF,4F,01,06,00,00,08,00,
239671,0000011C,false,Rx,0,8,00,05,20,00,22,00,01,01,
240026,0000012C,false,Rx,0,8,00,00,01,00,00,64,00,00,
240225,00000061,false,Rx,0,8,A1,ED,49,00,00,00,00,00,
240379,00000062,false,Rx,0,8,02,02,00,02,40,FF,00,FF,
240528,00000063,false,Rx,0,8,00,00,05,00,00,08,FD,00,
240693,00000064,false,Rx,0,8,00,00,00,04,FF,FA,00,00,
245360,0000019B,false,Rx,0,8,A4,9F,00,00,00,E4,00,00,
245518,0000019C,false,Rx,0,8,40,20,00,00,00,00,0B,09,
245946,0000019D,false,Rx,0,8,00,10,00,01,00,00,00,00,
246360,0000019E,false,Rx,0,8,15,00,00,00,00,32,00,00,
251203,0000036F,false,Rx,0,8,89,B1,01,00,00,00,00,00,
251333,0000037F,false,Rx,0,8,63,40,92,24,41,02,00,00,
254567,00000487,false,Rx,1,8,00,00,00,00,00,00,00,00,
254742,00000642,false,Rx,1,8,00,00,00,00,00,00,00,00,
255018,000001AB,false,Rx,0,8,C7,49,56,50,70,40,00,00,
255192,00000111,false,Rx,0,8,33,9A,2B,01,00,00,00,00,
255452,000001AC,false,Rx,0,8,00,28,00,00,00,00,00,00,
255603,00000112,false,Rx,0,8,00,00,00,00,00,00,00,00,
256086,00000113,false,Rx,0,8,00,00,00,00,00,00,00,00,
256751,00000114,false,Rx,0,8,00,00,00,00,00,00,00,00,
257587,0000010B,false,Rx,0,8,4C,A0,F3,00,00,00,00,05,
257792,0000010C,false,Rx,0,8,FF,F9,E7,1F,45,56,49,49,
257892,0000010D,false,Rx,0,8,D6,02,00,00,00,00,01,35,
257984,0000010E,false,Rx,0,8,00,00,0A,00,00,C0,AB,57,
261291,000000A1,false,Rx,0,8,96,61,4B,2F,0E,0A,00,00,
261456,000000A2,false,Rx,0,8,00,00,00,00,00,00,00,00,
261674,000000A3,false,Rx,0,8,00,40,01,00,00,00,00,00,
261834,00000256,false,Rx,0,8,53,68,17,15,00,00,D0,00,
262229,000002E6,false,Rx,0,8,B0,F9,17,01,00,00,00,15,
262811,00000257,false,Rx,0,8,00,8B,40,14,84,07,00,8C,
263477,000002E7,false,Rx,0,8,0A,00,00,00,00,00,00,00,
263873,00000258,false,Rx,0,8,04,30,1C,00,10,15,00,1C,
264391,000002E8,false,Rx,0,8,00,00,00,00,00,00,00,00,
264554,00000259,false,Rx,0,8,37,05,8B,3C,2C,02,00,00,
264739,000002E9,false,Rx,0,8,00,00,00,00,00,00,00,00,
264920,000003B6,false,Rx,0,8,F2,71,0B,00,00,00,00,45,
265313,000003B7,false,Rx,0,8,45,00,00,00,00,00,00,00,
265978,000003B8,false,Rx,0,8,D2,02,00,00,00,00,69,0E,
266377,000003B9,false,Rx,0,8,00,00,00,00,00,00,00,00,
268525,000002BF,false,Rx,0,8,FF,FF,FF,00,00,00,00,00,
268677,0000047F,false,Rx,0,8,F3,FF,FF,FF,FF,3F,FF,FF,
268964,00000653,false,Rx,0,8,0A,19,03,01,02,2A,00,00,
270551,00000121,false,Rx,0,8,3F,57,F4,00,00,00,00,05,
270706,00000122,false,Rx,0,8,FF,D9,67,1F,45,45,45,45,
271407,00000123,false,Rx,0,8,D7,02,00,00,00,00,01,35,
271882,00000405,false,Rx,0,8,0C,50,00,00,00,01,00,00,
272122,00000124,false,Rx,0,8,00,00,0A,00,00,00,20,40,
272256,00000410,false,Rx,0,8,64,50,54,3C,5C,6A,FF,FF,
272369,00000413,false,Rx,0,8,FD,60,00,41,00,00,00,00,
272670,00000411,false,Rx,0,8,CA,71,50,51,00,00,44,04,
273184,00000414,false,Rx,0,8,F0,10,00,00,28,00,00,00,
273330,00000412,false,Rx,0,8,A3,C0,00,00,00,00,00,00,
273476,00000416,false,Rx,0,8,55,00,00,00,00,00,00,00,
273680,00000417,false,Rx,0,8,B7,70,00,00,00,01,00,00,
273811,00000418,false,Rx,0,8,1F,50,00,00,14,0C,00,00,
274027,00000419,false,Rx,0,8,44,B0,FD,D5,81,7A,85,00,
277967,00000401,false,Rx,0,8,C6,10,10,00,00,04,00,00,
279234,00000036,false,Rx,0,8,6E,5B,08,51,00,00,25,01,
279560,00000037,false,Rx,0,8,00,00,00,10,00,40,00,00,
280159,00000038,false,Rx,0,8,04,00,00,00,F0,39,96,D4,
280330,00000039,false,Rx,0,8,00,00,00,00,00,00,00,00,
282475,00000448,false,Rx,0,8,7F,00,00,00,00,00,00,00,
288854,00000161,false,Rx,0,8,12,37,83,03,00,00,00,02,
289004,0000011B,false,Rx,0,8,27,DD,06,05,80,08,A8,02,
289400,00000162,false,Rx,0,8,FF,FC,01,00,00,00,00,00,
289716,0000011C,false,Rx,0,8,00,05,20,00,22,00,01,01,
290157,0000012B,false,Rx,0,8,60,27,06,06,00,00,08,00,
290298,00000061,false,Rx,0,8,52,73,4E,00,00,00,00,00,
290435,0000012C,false,Rx,0,8,00,00,01,00,00,64,00,00,
290582,00000062,false,Rx,0,8,02,02,00,02,40,FF,00,FF,
290781,000001FB,false,Rx,0,8,D8,0D,1A,00,32,32,00,00,
290901,00000063,false,Rx,0,8,00,00,05,00,00,08,FD,00,
291185,000001FC,false,Rx,0,8,00,00,00,00,00,00,19,00,
291425,00000064,false,Rx,0,8,00,00,00,04,FF,FA,00,00,
291585,000001FD,false,Rx,0,8,00,1A,03,00,00,00,00,00,
291872,000001FE,false,Rx,0,8,00,00,00,00,00,00,00,00,
294224,000004A3,false,Rx,1,8,80,00,48,0B,3E,00,00,00,
294466,000004A4,false,Rx,1,8,FF,FF,FF,00,00,00,00,00,
295250,0000019B,false,Rx,0,8,DB,B3,05,00,00,E4,00,00,
295412,0000019C,false,Rx,0,8,40,20,00,00,00,00,0B,09,
295682,0000019D,false,Rx,0,8,00,10,00,01,00,00,00,00,
296044,0000019E,false,Rx,0,8,15,00,00,00,00,32,00,00,
298863,000001A1,false,Rx,0,8,C7,F7,83,FE,F7,7F,64,00,
299019,000001A2,false,Rx,0,8,00,00,00,00,00,08,00,00,
299447,000001A3,false,Rx,0,8,FF,F3,3F,00,00,00,00,00,
300141,000001A4,false,Rx,0,8,FE,07,00,00,00,00,00,00,
301024,00000251,false,Rx,0,8,5C,D3,18,00,00,00,00,00,
301155,00000252,false,Rx,0,8,00,00,00,00,03,00,00,00,
301301,00000253,false,Rx,0,8,00,00,00,50,50,00,80,50,
306419,00000091,false,Rx,0,8,0A,DE,18,16,00,00,00,00,
306563,00000092,false,Rx,0,8,00,00,00,00,00,00,00,00,
306903,00000093,false,Rx,0,8,00,00,00,00,00,00,00,00,
307238,00000094,false,Rx,0,8,00,00,00,00,00,00,00,00,
307362,0000010B,false,Rx,0,8,F4,A1,F8,00,00,00,00,05,
307608,0000010C,false,Rx,0,8,FF,F9,E7,1F,45,56,49,49,
307840,0000010D,false,Rx,0,8,D6,02,00,00,00,00,01,35,
308144,0000010E,false,Rx,0,8,00,00,0A,00,00,C0,AB,57,
310265,000000A1,false,Rx,0,8,F9,D0,50,2F,0E,0A,00,00,
310449,000000A2,false,Rx,0,8,00,00,00,00,00,00,00,00,
310736,000000A3,false,Rx,0,8,00,40,01,00,00,00,00,00,
311064,000002C1,false,Rx,0,8,CD,F5,0E,21,00,41,00,A1,
311317,000002C2,false,Rx,0,8,40,00,00,00,00,00,00,00,
311640,000002C3,false,Rx,0,8,00,00,00,00,00,00,00,00,
311839,000002C4,false,Rx,0,8,00,00,00,00,00,00,00,00,
316122,00000516,false,Rx,0,8,61,02,00,00,00,00,FF,FF,
320844,00000121,false,Rx,0,8,32,91,F9,00,00,00,00,05,
321261,000001E1,false,Rx,0,8,BF,04,35,02,00,00,00,00,
321513,00000122,false,Rx,0,8,FF,D9,67,1F,45,45,45,45,
321639,000001E2,false,Rx,0,8,00,00,00,00,00,00,00,00,
321847,00000123,false,Rx,0,8,D7,02,00,00,00,00,01,35,
322000,00000382,false,Rx,0,8,F8,23,08,00,00,01,08,00,
322136,00000124,false,Rx,0,8,00,00,0A,00,00,00,20,40,
322341,000003B0,false,Rx,0,8,72,37,FF,C7,00,00,03,C0,
323086,000003B1,false,Rx,0,8,9B,3C,FF,40,00,00,20,00,
324072,000003B2,false,Rx,0,8,36,15,FF,02,29,2F,34,00,
329069,00000036,false,Rx,0,8,11,77,0D,51,00,00,25,01,
329248,00000037,false,Rx,0,8,00,00,00,10,00,40,00,00,
329590,00000038,false,Rx,0,8,04,00,00,00,F0,39,96,D4,
329885,00000039,false,Rx,0,8,00,00,00,00,00,00,00,00,
331324,00000146,false,Rx,0,8,79,B2,79,10,04,01,00,00,
331471,00000147,false,Rx,0,8,00,04,7D,00,40,00,00,00,
331776,00000148,false,Rx,0,8,00,00,00,00,00,7F,40,05,
332056,00000149,false,Rx,0,8,00,00,00,00,00,00,00,00,
333279,000001B1,false,Rx,0,8,EE,C0,79,00,72,00,00,00,
333414,000001B2,false,Rx,0,8,23,00,04,10,0F,03,51,10,
333789,00000415,false,Rx,0,8,40,13,10,00,08,01,00,00,
334102,000001B3,false,Rx,0,8,10,20,00,00,73,7F,79,80,
334246,00000427,false,Rx,0,8,1D,86,FF,00,80,0A,00,00,
334426,000001B4,false,Rx,0,8,75,82,17,00,00,40,01,00,
334628,000001F1,false,Rx,0,8,80,C3,AA,01,00,00,28,00,
334954,000001F2,false,Rx,0,8,00,00,00,00,00,00,00,00,
335599,000003A1,false,Rx,0,8,EC,19,4C,00,FF,FF,FF,FF,
335924,000003A2,false,Rx,0,8,00,00,00,00,00,00,00,00,
339056,0000011B,false,Rx,0,8,54,E4,0B,05,80,08,A8,02,
339234,0000012B,false,Rx,0,8,13,1E,0B,06,00,00,08,00,
339925,0000011C,false,Rx,0,8,00,05,20,00,22,00,01,01,
340349,0000012C,false,Rx,0,8,00,00,01,00,00,64,00,00,
340516,00000061,false,Rx,0,8,9A,71,53,00,00,00,00,00,
341256,00000062,false,Rx,0,8,02,02,00,02,40,FF,00,FF,
341676,00000063,false,Rx,0,8,00,00,05,00,00,08,FD,00,
341863,00000064,false,Rx,0,8,00,00,00,04,FF,FA,00,00,
345299,0000019B,false,Rx,0,8,5A,C7,0A,00,00,E4,00,00,
345441,0000019C,false,Rx,0,8,40,20,00,00,00,00,0B,09,
345653,0000019D,false,Rx,0,8,00,10,00,01,00,00,00,00,
346114,0000019E,false,Rx,0,8,15,00,00,00,00,32,00,00,
350685,000000FF,false,Rx,0,8,CB,10,00,00,00,00,02,00,
350808,0000036F,false,Rx,0,8,81,C1,01,00,00,00,00,00,
351094,0000037F,false,Rx,0,8,DA,50,92,24,41,02,00,00,
351298,00000394,false,Rx,0,8,2A,22,1A,49,00,00,00,00,
351632,000003C3,false,Rx,0,8,45,10,31,30,36,00,00,00,
351848,000003E0,false,Rx,0,8,A8,80,01,00,54,03,00,00,
352527,000003E5,false,Rx,0,8,27,60,01,00,00,00,00,00,
352821,000003E6,false,Rx,0,8,6F,E0,00,00,00,00,00,00,
353289,0000041A,false,Rx,0,8,D4,80,12,00,50,01,00,00,
353746,0000041B,false,Rx,0,8,17,80,00,00,00,00,00,00,
354031,0000041C,false,Rx,0,8,E9,80,E0,00,00,00,00,00,
354351,00000422,false,Rx,0,8,E2,B0,01,00,00,00,04,00,
354768,00000432,false,Rx,0,8,03,20,02,00,00,00,00,00,
355075,000001AB,false,Rx,0,8,B4,70,5B,50,70,40,00,00,
355347,000001AC,false,Rx,0,8,00,28,00,00,00,00,00,00,
355837,00000435,false,Rx,0,8,3E,50,00,40,00,00,00,00,
356128,00000442,false,Rx,0,8,CE,20,11,81,00,00,00,00,
356332,00000444,false,Rx,0,8,AA,E0,20,50,55,50,00,00,
356670,00000445,false,Rx,0,8,18,80,00,00,00,00,00,18,
357024,0000010B,false,Rx,0,8,8B,8D,FD,00,00,00,00,05,
357192,00000464,false,Rx,0,8,7C,D0,F0,FF,38,7F,05,00,
357517,0000010C,false,Rx,0,8,FF,F9,E7,1F,45,56,49,49,
357800,0000010D,false,Rx,0,8,D6,02,00,00,00,00,01,35,
357971,0000010E,false,Rx,0,8,00,00,0A,00,00,C0,AB,57,
360290,000000A1,false,Rx,0,8,F6,3B,55,2F,0E,0A,00,00,
360529,000000A2,false,Rx,0,8,00,00,00,00,00,00,00,00,
360759,000000A3,false,Rx,0,8,00,40,01,00,00,00,00,00,
361594,000001E6,false,Rx,0,8,8D,C8,31,02,00,00,00,00,
361728,000001BB,false,Rx,0,8,1A,60,31,02,00,00,00,0A,
362045,000001BC,false,Rx,0,8,32,00,00,00,02,00,00,00,
362327,000001BD,false,Rx,0,8,00,00,00,00,00,00,00,00,
362596,000001E7,false,Rx,0,8,00,00,22,03,20,01,00,00,
364011,000000C5,false,Rx,1,8,00,00,00,00,00,00,00,00,
364259,00000244,false,Rx,1,8,FF,FF,FF,FF,FF,FF,FF,FF,
364601,000004B4,false,Rx,1,8,00,00,00,00,00,00,00,00,
364855,000004B5,false,Rx,1,8,08,00,F0,07,00,00,00,00,
365179,000004B7,false,Rx,1,8,08,00,F0,07,00,00,00,00,
365427,000004CA,false,Rx,1,8,00,00,00,00,00,00,00,00,
365708,000004CC,false,Rx,1,8,08,00,00,06,00,00,03,00,
366023,000004CE,false,Rx,1,8,14,01,FF,FF,FF,FF,FF,FF,
366307,000004D7,false,Rx,1,8,23,01,00,00,00,00,00,00,
366605,000004D8,false,Rx,1,8,41,10,F0,F0,40,F2,1E,CC,
366746,000004DD,false,Rx,1,8,00,00,FE,00,04,00,00,00,
366919,000004DF,false,Rx,1,8,FF,03,0C,3F,00,00,00,00,
367240,000004E7,false,Rx,1,8,00,30,00,00,00,00,69,0F,
367496,000004E8,false,Rx,1,8,FF,FF,FF,05,FF,FF,FF,00,
367873,000004E9,false,Rx,1,8,12,00,00,34,00,00,50,00,
368141,000004EA,false,Rx,1,8,67,00,00,89,00,00,00,00,
368647,000004EB,false,Rx,1,8,40,90,3B,0B,80,00,00,00,
368899,000004EC,false,Rx,1,8,00,00,00,00,00,00,00,00,
369039,000004ED,false,Rx,1,8,00,00,00,00,00,FF,FF,1F,
369389,000004EE,false,Rx,1,8,FF,FF,00,00,00,00,00,00,
369586,000004EF,false,Rx,1,8,60,00,60,00,29,14,00,00,
369814,0000063D,false,Rx,1,8,00,80,00,00,00,00,00,00,
370081,0000063E,false,Rx,1,8,FF,FF,FF,FF,FF,FF,FF,FF,
370357,0000063F,false,Rx,1,8,00,10,00,C4,FF,00,00,00,
370651,00000640,false,Rx,1,8,FF,FF,FF,00,FF,FF,FF,00,
371039,00000121,false,Rx,0,8,C1,0F,FE,00,00,00,00,05,
371203,00000641,false,Rx,1,8,FF,FF,FF,FF,0F,FF,FF,FF,
371375,00000646,false,Rx,1,8,00,00,00,80,01,00,00,00,
371704,00000122,false,Rx,0,8,FF,D9,67,1F,45,45,45,45,
371861,00000123,false,Rx,0,8,D7,02,00,00,00,00,01,35,
372316,00000124,false,Rx,0,8,00,00,0A,00,00,00,20,40,
379195,00000036,false,Rx,0,8,55,C7,12,51,00,00,25,01,
379343,00000037,false,Rx,0,8,00,00,00,10,00,40,00,00,
379730,00000038,false,Rx,0,8,04,00,00,00,F0,39,96,D4,
379962,00000039,false,Rx,0,8,00,00,00,00,00,00,00,00,
385019,00000475,false,Rx,0,8,12,00,00,00,00,00,00,00,
385295,00000496,false,Rx,0,8,12,00,00,00,00,00,00,00,
388759,00000161,false,Rx,0,8,DA,CE,88,03,00,00,00,02,
388911,0000011B,false,Rx,0,8,96,3E,10,05,80,08,A8,02,
389215,00000162,false,Rx,0,8,FF,FC,01,00,00,00,00,00,
389472,0000011C,false,Rx,0,8,00,05,20,00,22,00,01,01,
389624,0000012B,false,Rx,0,8,D1,C4,10,06,00,00,08,00,
389969,00000061,false,Rx,0,8,22,70,58,00,00,00,00,00,
390196,0000012C,false,Rx,0,8,00,00,01,00,00,64,00,00,
390376,00000062,false,Rx,0,8,02,02,00,02,40,FF,00,FF,
390662,00000063,false,Rx,0,8,00,00,05,00,00,08,FD,00,
390984,0000030B,false,Rx,0,8,07,25,1B,00,04,00,00,00,
391206,00000064,false,Rx,0,8,00,00,00,04,FF,FA,00,00,
391408,0000030C,false,Rx,0,8,00,00,0C,00,2C,00,A0,0F,
391686,0000030D,false,Rx,0,8,00,00,00,00,3F,00,00,00,
391977,0000030E,false,Rx,0,8,00,00,20,05,21,00,00,0A,
395114,00000226,false,Rx,0,8,68,C4,45,FF,B4,20,09,42,
395263,0000019B,false,Rx,0,8,25,EB,0F,00,00,E4,00,00,
395508,00000227,false,Rx,0,8,02,77,4F,09,00,F2,6F,03,
395876,0000019C,false,Rx,0,8,40,20,00,00,00,00,0B,09,
396030,000002FF,false,Rx,0,8,E2,01,00,F1,3F,00,00,00,
396225,0000019D,false,Rx,0,8,00,10,00,01,00,00,00,00,
396531,00000316,false,Rx,0,8,18,62,22,40,0B,80,0A,00,
396765,0000019E,false,Rx,0,8,15,00,00,00,00,32,00,00,
396942,00000317,false,Rx,0,8,00,00,05,00,00,00,00,00,
397236,00000380,false,Rx,0,8,97,8B,03,00,00,00,00,01,
397486,00000472,false,Rx,0,8,5C,EC,00,40,08,41,00,45,
397730,00000473,false,Rx,0,8,5F,24,00,25,00,00,00,78,
398017,00000474,false,Rx,0,8,51,AE,00,00,00,00,00,0C,
398806,000001A1,false,Rx,0,8,7F,F6,88,FE,F7,7F,64,00,
399052,000001A2,false,Rx,0,8,00,00,00,00,00,08,00,00,
399336,000001A3,false,Rx,0,8,FF,F3,3F,00,00,00,00,00,
399643,000001A4,false,Rx,0,8,FE,07,00,00,00,00,00,00,
401265,00000383,false,Rx,0,8,67,25,02,00,02,00,00,00,
401760,00000236,false,Rx,0,8,BF,23,1B,00,34,6C,34,6C,
401884,00000237,false,Rx,0,8,00,05,78,00,00,66,1C,00,
402143,00000151,false,Rx,0,8,CB,F9,1B,C8,C8,00,28,15,
402255,00000238,false,Rx,0,8,00,00,D2,00,00,00,00,00,
402521,00000152,false,Rx,0,8,14,15,14,00,32,00,00,00,
402767,000001F6,false,Rx,0,8,95,70,1B,00,00,00,00,0D,
402958,00000153,false,Rx,0,8,00,00,00,00,00,00,00,00,
403210,000001F7,false,Rx,0,8,22,00,EA,06,00,00,00,00,
403532,00000154,false,Rx,0,8,00,00,00,00,00,00,00,00,
403759,000001F8,false,Rx,0,8,00,48,03,16,03,00,00,00,
403901,000002D6,false,Rx,0,8,22,2B,0C,00,00,00,00,00,
404220,000001F9,false,Rx,0,8,B9,00,C8,C8,14,00,B9,00,
404505,000002D7,false,Rx,0,8,00,00,00,00,03,00,00,00,
404686,00000239,false,Rx,0,8,00,00,00,00,01,00,00,00,
404900,000002D8,false,Rx,0,8,00,00,00,00,00,00,38,44,
405209,0000025B,false,Rx,0,8,FF,F8,1B,40,40,20,00,00,
405468,000002D9,false,Rx,0,8,00,00,00,00,00,00,00,00,
405629,0000025C,false,Rx,0,8,00,00,22,00,3E,52,16,00,
405918,000002EB,false,Rx,0,8,FC,F8,0C,07,08,01,00,02,
406090,0000025D,false,Rx,0,8,00,C8,00,00,00,80,C0,70,
406405,00000091,false,Rx,0,8,4C,87,19,16,00,00,00,00,
406600,0000025E,false,Rx,0,8,55,02,0A,08,00,00,00,00,
406838,00000092,false,Rx,0,8,00,00,00,00,00,00,00,00,
407166,000002EC,false,Rx,0,8,12,00,00,00,00,00,00,00,
407347,00000093,false,Rx,0,8,00,00,00,00,00,00,00,00,
407665,000002ED,false,Rx,0,8,00,00,00,00,00,00,00,00,
407936,00000094,false,Rx,0,8,00,00,00,00,00,00,00,00,
408092,000002EE,false,Rx,0,8,00,00,00,00,00,00,00,00,
408370,0000010B,false,Rx,0,8,FD,C1,02,00,00,00,00,05,
408800,000002FB,false,Rx,0,8,D0,79,1B,04,D2,16,BD,BD,
409137,0000010C,false,Rx,0,8,FF,F9,E7,1F,45,56,49,49,
409311,000002FC,false,Rx,0,8,04,00,14,15,00,00,86,77,
409439,0000010D,false,Rx,0,8,D6,02,00,00,00,00,01,35,
409719,000002FD,false,Rx,0,8,00,00,00,00,00,1C,0F,EA,
409867,0000010E,false,Rx,0,8,00,00,0A,00,00,C0,AB,57,
410468,000002FE,false,Rx,0,8,00,00,72,01,00,28,00,00,
411141,000000A1,false,Rx,0,8,C6,16,5A,2F,0E,0A,00,00,
411470,000002AB,false,Rx,0,8,8C,15,1C,0C,0C,00,00,00,
411734,000000A2,false,Rx,0,8,00,00,00,00,00,00,00,00,
412176,000002AC,false,Rx,0,8,00,FF,FF,00,00,40,00,50,
412898,000000A3,false,Rx,0,8,00,40,01,00,00,00,00,00,
414041,000002AD,false,Rx,0,8,00,01,00,40,FF,FF,FF,0F,
414211,00000326,false,Rx,0,8,4D,4E,1B,00,00,00,00,00,
414372,000002AE,false,Rx,0,8,01,00,FF,3F,06,01,00,00,
414522,00000327,false,Rx,0,8,00,00,00,00,05,00,00,00,
414707,000002B6,false,Rx,0,8,DF,85,1C,00,00,00,00,40,
414894,00000328,false,Rx,0,8,EA,06,B9,00,00,48,03,00,
415073,000002B7,false,Rx,0,8,22,01,86,00,00,04,00,00,
415176,00000329,false,Rx,0,8,C8,16,03,00,00,00,00,00,
415466,000002B8,false,Rx,0,8,FE,F1,0F,00,00,00,00,00,
415649,00000331,false,Rx,0,8,95,1B,1B,F1,C8,A0,2C,97,
415801,000002B9,false,Rx,0,8,0A,00,00,00,00,00,00,00,
415941,00000332,false,Rx,0,8,F8,07,1C,02,00,00,00,00,
416120,000002E1,false,Rx,0,8,98,9A,1C,00,00,00,00,40,
416339,00000333,false,Rx,0,8,00,00,00,1C,0C,40,20,C8,
416493,000002E2,false,Rx,0,8,FD,00,00,00,00,7E,00,04,
416630,00000334,false,Rx,0,8,C8,00,00,00,F1,8F,F1,8F,
416761,000002E3,false,Rx,0,8,00,00,00,00,00,00,72,01,
416962,00000384,false,Rx,0,8,3A,9B,03,00,00,FF,00,21,
417099,000002E4,false,Rx,0,8,02,00,00,00,00,00,00,00,
417239,00000396,false,Rx,0,8,A5,C1,0C,0F,08,01,00,02,
417429,0000042A,false,Rx,0,8,1D,C5,02,01,00,10,00,00,
417536,00000397,false,Rx,0,8,31,00,00,00,00,00,00,00,
417761,00000398,false,Rx,0,8,00,00,00,00,00,00,00,00,
417872,00000561,false,Rx,0,8,63,02,00,00,00,00,FF,FF,
418645,000003AA,false,Rx,0,8,FF,00,D0,00,54,00,00,00,
420438,00000121,false,Rx,0,8,3B,F1,03,00,00,00,00,05,
420734,00000122,false,Rx,0,8,FF,D9,67,1F,45,45,45,45,
420994,00000123,false,Rx,0,8,D7,02,00,00,00,00,01,35,
421183,00000124,false,Rx,0,8,00,00,0A,00,00,00,20,40,
429029,00000036,false,Rx,0,8,2A,EB,17,51,00,00,25,01,
429275,00000037,false,Rx,0,8,00,00,00,10,00,40,00,00,
429559,00000038,false,Rx,0,8,04,00,00,00,F0,39,96,D4,
429755,00000039,false,Rx,0,8,00,00,00,00,00,00,00,00,
431188,0000033B,false,Rx,0,8,CC,A6,1C,00,00,00,00,00,
431352,00000146,false,Rx,0,8,8A,2C,7E,10,04,01,00,00,
431634,0000033C,false,Rx,0,8,00,00,00,00,F0,00,00,00,
431900,00000147,false,Rx,0,8,00,04,7D,00,40,00,00,00,
432089,0000033D,false,Rx,0,8,00,00,00,00,00,00,00,00,
432423,00000148,false,Rx,0,8,00,00,00,00,00,7F,40,05,
432665,0000033E,false,Rx,0,8,00,00,00,00,00,00,00,00,
432882,00000149,false,Rx,0,8,00,00,00,00,00,00,00,00,
433080,00000356,false,Rx,0,8,2B,08,0E,00,00,00,00,00,
433409,000001B1,false,Rx,0,8,1D,5E,7E,00,72,00,00,00,
433627,00000357,false,Rx,0,8,00,00,00,00,00,4B,4D,48,
433833,000001B2,false,Rx,0,8,23,00,04,10,0F,03,51,10,
434086,00000358,false,Rx,0,8,35,41,45,4D,52,37,33,4F,
434257,000001B3,false,Rx,0,8,10,20,00,00,73,7F,79,80,
434582,00000359,false,Rx,0,8,51,4F,34,52,4A,35,33,00,
434750,000001B4,false,Rx,0,8,75,82,17,00,00,40,01,00,
435054,00000495,false,Rx,0,8,49,00,00,00,00,00,00,00,
439021,0000011B,false,Rx,0,8,60,16,15,05,80,08,A8,02,
439166,0000012B,false,Rx,0,8,27,EC,15,06,00,00,08,00,
439461,0000011C,false,Rx,0,8,00,05,20,00,22,00,01,01,
439800,0000012C,false,Rx,0,8,00,00,01,00,00,64,00,00,
439904,00000061,false,Rx,0,8,5D,5C,5D,00,00,00,00,00,
440258,00000062,false,Rx,0,8,02,02,00,02,40,FF,00,FF,
440533,00000063,false,Rx,0,8,00,00,05,00,00,08,FD,00,
440707,00000064,false,Rx,0,8,00,00,00,04,FF,FA,00,00,
445235,0000019B,false,Rx,0,8,58,2E,14,00,00,E4,00,00,
445492,000004E8,false,Rx,1,8,FF,FF,FF,05,FF,FF,FF,00,
445823,0000019C,false,Rx,0,8,40,20,00,00,00,00,0B,09,
445971,0000019D,false,Rx,0,8,00,10,00,01,00,00,00,00,
446138,0000019E,false,Rx,0,8,15,00,00,00,00,32,00,00,
450687,0000036F,false,Rx,0,8,38,D1,01,00,00,00,00,00,
450876,0000037F,false,Rx,0,8,0C,60,92,24,41,02,00,00,
454490,000001AB,false,Rx,0,8,62,EC,60,50,70,40,00,00,
454629,00000111,false,Rx,0,8,C0,04,2C,01,00,00,00,00,
454867,000001AC,false,Rx,0,8,00,28,00,00,00,00,00,00,
455106,00000112,false,Rx,0,8,00,00,00,00,00,00,00,00,
455377,00000487,false,Rx,1,8,00,00,00,00,00,00,00,00,
455579,00000113,false,Rx,0,8,00,00,00,00,00,00,00,00,
455953,00000114,false,Rx,0,8,00,00,00,00,00,00,00,00,
456560,00000642,false,Rx,1,8,00,00,00,00,00,00,00,00,
457223,0000010B,false,Rx,0,8,82,ED,07,00,00,00,00,05,
457377,0000010C,false,Rx,0,8,FF,F9,E7,1F,45,56,49,49,
457511,0000010D,false,Rx,0,8,D6,02,00,00,00,00,01,35,
457758,0000010E,false,Rx,0,8,00,00,0A,00,00,C0,AB,57,
460418,000000A1,false,Rx,0,8,C9,FD,5F,2F,0E,0A,00,00,
460567,000000A2,false,Rx,0,8,00,00,00,00,00,00,00,00,
460946,000000A3,false,Rx,0,8,00,40,01,00,00,00,00,00,
461141,00000256,false,Rx,0,8,0A,1C,19,15,00,00,F0,00,
461242,000002E6,false,Rx,0,8,77,D4,19,01,00,00,00,15,
461424,00000257,false,Rx,0,8,00,8C,40,18,84,07,00,8C,
461755,000002E7,false,Rx,0,8,0A,00,00,00,00,00,00,00,
462003,00000258,false,Rx,0,8,04,30,1C,00,10,15,00,1C,
462236,000002E8,false,Rx,0,8,00,00,00,00,00,00,00,00,
462438,00000259,false,Rx,0,8,47,05,8B,3C,2C,02,00,00,
462655,000002E9,false,Rx,0,8,00,00,00,00,00,00,00,00,
462953,000003B6,false,Rx,0,8,01,EF,0C,00,00,00,00,45,
463214,000003B7,false,Rx,0,8,45,00,00,00,00,00,00,00,
463462,000003B8,false,Rx,0,8,D2,02,00,00,00,00,69,0E,
463795,000003B9,false,Rx,0,8,00,00,00,00,00,00,00,00,
468455,000002BF,false,Rx,0,8,FF,FF,FF,00,00,00,00,00,
468630,0000047F,false,Rx,0,8,F3,FF,FF,FF,FF,3F,FF,FF,
468917,00000653,false,Rx,0,8,0A,19,03,01,02,2A,00,00,
469179,000001E1,false,Rx,0,8,CC,3D,38,02,00,00,00,00,
469449,000001E2,false,Rx,0,8,00,00,00,00,00,00,00,00,
470526,00000121,false,Rx,0,8,83,F0,08,00,00,00,00,05,
470665,00000122,false,Rx,0,8,FF,D9,67,1F,45,45,45,45,
470957,00000123,false,Rx,0,8,D7,02,00,00,00,00,01,35,
471231,00000405,false,Rx,0,8,0C,50,00,00,00,01,00,00,
471467,00000124,false,Rx,0,8,00,00,0A,00,00,00,20,40,
471649,00000410,false,Rx,0,8,64,50,54,3C,5C,6A,FF,FF,
471948,00000413,false,Rx,0,8,FD,60,00,41,00,00,00,00,
472146,00000411,false,Rx,0,8,CA,71,50,51,00,00,44,04,
472389,00000414,false,Rx,0,8,F0,10,00,00,28,00,00,00,
472679,00000412,false,Rx,0,8,A3,C0,00,00,00,00,00,00,
472830,00000416,false,Rx,0,8,55,00,00,00,00,00,00,00,
473165,0000048F,false,Rx,0,8,AD,10,41,00,05,00,00,00,
473353,00000417,false,Rx,0,8,B7,70,00,00,00,01,00,00,
473644,00000418,false,Rx,0,8,1F,50,00,00,14,0C,00,00,
473857,00000419,false,Rx,0,8,44,B0,FD,D5,81,7A,85,00,
478273,00000401,false,Rx,0,8,C6,10,10,00,00,04,00,00,
479075,00000036,false,Rx,0,8,92,EA,1C,51,00,00,25,01,
479223,00000037,false,Rx,0,8,00,00,00,10,00,40,00,00,
479590,00000038,false,Rx,0,8,04,00,00,00,F0,39,96,D4,
479790,00000039,false,Rx,0,8,00,00,00,00,00,00,00,00,
482355,00000448,false,Rx,0,8,7F,00,00,00,00,00,00,00,
484571,000001F1,false,Rx,0,8,1F,AB,AD,01,00,00,28,00,
484723,000001F2,false,Rx,0,8,00,00,00,00,00,00,00,00,
485351,000004E8,false,Rx,1,8,FF,FF,FF,05,FF,FF,FF,00,
488797,00000161,false,Rx,0,8,2C,E6,8D,03,00,00,00,02,
489151,0000011B,false,Rx,0,8,7A,6F,1A,05,80,08,A8,02,
489479,00000162,false,Rx,0,8,FF,FC,01,00,00,00,00,00,
489692,0000011C,false,Rx,0,8,00,05,20,00,22,00,01,01,
489944,0000012B,false,Rx,0,8,3D,95,1A,06,00,00,08,00,
490113,00000061,false,Rx,0,8,B2,75,62,00,00,00,00,00,
490383,0000012C,false,Rx,0,8,00,00,01,00,00,64,00,00,
490597,00000062,false,Rx,0,8,02,02,00,02,40,FF,00,FF,
490705,000001FB,false,Rx,0,8,6D,CA,1C,00,32,32,00,00,
490894,00000063,false,Rx,0,8,00,00,05,00,00,08,FD,00,
491106,000001FC,false,Rx,0,8,00,00,00,00,00,00,19,00,
491416,00000064,false,Rx,0,8,00,00,00,04,FF,FA,00,00,
491667,000001FD,false,Rx,0,8,00,1A,03,00,00,00,00,00,
491964,000001FE,false,Rx,0,8,00,00,00,00,00,00,00,00,
495071,000004A3,false,Rx,1,8,80,00,48,0B,3E,00,00,00,
495375,0000019B,false,Rx,0,8,55,E8,19,00,00,E4,00,00,
495625,000004A4,false,Rx,1,8,FF,FF,FF,00,00,00,00,00,
495907,0000019C,false,Rx,0,8,40,20,00,00,00,00,0B,09,
496228,0000019D,false,Rx,0,8,00,10,00,01,00,00,00,00,
496549,0000019E,false,Rx,0,8,15,00,00,00,00,32,00,00,
498869,000001A1,false,Rx,0,8,00,DA,8D,FE,F7,7F,64,00,
499114,000001A2,false,Rx,0,8,00,00,00,00,00,08,00,00,
499315,000001A3,false,Rx,0,8,FF,F3,3F,00,00,00,00,00,
499620,000001A4,false,Rx,0,8,FE,07,00,00,00,00,00,00,
500839,00000251,false,Rx,0,8,5A,BD,1A,00,00,00,00,00,
501269,00000252,false,Rx,0,8,00,00,00,00,03,00,00,00,
501409,00000253,false,Rx,0,8,00,00,00,50,50,00,80,50,
506409,00000091,false,Rx,0,8,86,6C,1A,16,00,00,00,00,
506557,00000092,false,Rx,0,8,00,00,00,00,00,00,00,00,
506899,00000093,false,Rx,0,8,00,00,00,00,00,00,00,00,
507367,00000094,false,Rx,0,8,00,00,00,00,00,00,00,00,
507871,0000010B,false,Rx,0,8,3A,EC,0C,00,00,00,00,05,
508378,0000010C,false,Rx,0,8,FF,F9,E7,1F,45,56,49,49,
508639,0000010D,false,Rx,0,8,D6,02,00,00,00,00,01,35,
508762,0000010E,false,Rx,0,8,00,00,0A,00,00,C0,AB,57,
510197,00000563,false,Rx,1,8,65,02,00,00,00,00,FF,FF,
510495,000000A1,false,Rx,0,8,00,CC,64,2F,0E,0A,00,00,
510652,000000A2,false,Rx,0,8,00,00,00,00,00,00,00,00,
510996,000000A3,false,Rx,0,8,00,40,01,00,00,00,00,00,
511271,000002C1,false,Rx,0,8,8B,AC,0F,21,00,41,00,A1,
511507,000002C2,false,Rx,0,8,40,00,00,00,00,00,00,00,
511690,000001E6,false,Rx,0,8,7B,E0,34,02,00,00,00,00,
512088,000002C3,false,Rx,0,8,00,00,00,00,00,00,00,00,
512264,000001E7,false,Rx,0,8,00,00,22,03,20,01,00,00,
512546,000002C4,false,Rx,0,8,00,00,00,00,00,00,00,00,
513459,000001BB,false,Rx,0,8,15,8B,34,02,00,00,00,0A,
513884,000001BC,false,Rx,0,8,32,00,00,00,02,00,00,00,
514351,000001BD,false,Rx,0,8,00,00,00,00,00,00,00,00,
518383,0000034B,false,Rx,0,8,B0,48,69,31,D8,0D,05,01,
518542,0000034C,false,Rx,0,8,00,00,00,00,00,00,00,00,
519012,0000034D,false,Rx,0,8,00,00,00,00,00,00,00,00,
519426,0000034E,false,Rx,0,8,00,00,00,00,00,00,00,00,
520877,00000121,false,Rx,0,8,FC,DC,0D,00,00,00,00,05,
521142,00000122,false,Rx,0,8,FF,D9,67,1F,45,45,45,45,
521358,00000382,false,Rx,0,8,F8,23,08,00,00,01,08,00,
521751,00000123,false,Rx,0,8,D7,02,00,00,00,00,01,35,
522011,00000124,false,Rx,0,8,00,00,0A,00,00,00,20,40,
522115,000003B0,false,Rx,0,8,72,37,FF,C7,00,00,03,C0,
523085,000003B1,false,Rx,0,8,9B,3C,FF,40,00,00,20,00,
524132,000003B2,false,Rx,0,8,36,15,FF,02,29,2F,34,00,
525471,000004E8,false,Rx,1,8,FF,FF,FF,05,FF,FF,FF,00,
529403,00000036,false,Rx,0,8,F1,71,21,51,00,00,25,01,
529843,00000037,false,Rx,0,8,00,00,00,10,00,40,00,00,
530132,00000038,false,Rx,0,8,04,00,00,00,F0,39,96,D4,
530237,00000039,false,Rx,0,8,00,00,00,00,00,00,00,00,
531338,00000146,false,Rx,0,8,70,D2,83,10,04,01,00,00,
531898,00000147,false,Rx,0,8,00,04,7D,00,40,00,00,00,
532044,00000148,false,Rx,0,8,00,00,00,00,00,7F,40,05,
532265,00000149,false,Rx,0,8,00,00,00,00,00,00,00,00,
533263,000001B1,false,Rx,0,8,E7,A0,83,00,72,00,00,00,
533429,000001B2,false,Rx,0,8,23,00,04,10,0F,03,51,10,
533699,000001B3,false,Rx,0,8,10,20,00,00,73,7F,79,80,
534002,000001B4,false,Rx,0,8,75,82,17,00,00,40,01,00,
534175,00000427,false,Rx,0,8,1D,86,FF,00,80,0A,00,00,
535496,000003A1,false,Rx,0,8,C8,B1,4D,00,FF,FF,FF,FF,
535938,000003A2,false,Rx,0,8,00,00,00,00,00,00,00,00,
539177,0000011B,false,Rx,0,8,8C,47,1F,05,80,08,A8,02,
539742,0000012B,false,Rx,0,8,CB,BD,1F,06,00,00,08,00,
540226,0000011C,false,Rx,0,8,00,05,20,00,22,00,01,01,
540603,0000012C,false,Rx,0,8,00,00,01,00,00,64,00,00,
540849,00000061,false,Rx,0,8,CD,59,67,00,00,00,00,00,
541038,00000062,false,Rx,0,8,02,02,00,02,40,FF,00,FF,
541203,00000063,false,Rx,0,8,00,00,05,00,00,08,FD,00,
541306,00000064,false,Rx,0,8,00,00,00,04,FF,FA,00,00,
545426,0000019B,false,Rx,0,8,A6,76,1E,00,00,E4,00,00,
545855,0000019C,false,Rx,0,8,40,20,00,00,00,00,0B,09,
546272,0000019D,false,Rx,0,8,00,10,00,01,00,00,00,00,
546708,0000019E,false,Rx,0,8,15,00,00,00,00,32,00,00,
550848,000000FF,false,Rx,0,8,CB,10,00,00,00,00,02,00,
551020,0000036F,false,Rx,0,8,EE,E1,01,00,00,00,00,00,
551461,0000037F,false,Rx,0,8,B5,70,92,24,41,02,00,00,
551822,00000394,false,Rx,0,8,2A,22,1A,49,00,00,00,00,
551989,000003C3,false,Rx,0,8,45,10,31,30,36,00,00,00,
552081,000003E0,false,Rx,0,8,A8,80,01,00,54,03,00,00,
552418,000003E5,false,Rx,0,8,27,60,01,00,00,00,00,00,
552594,000003E6,false,Rx,0,8,6F,E0,00,00,00,00,00,00,
552945,0000041A,false,Rx,0,8,D4,80,12,00,50,01,00,00,
553359,0000041B,false,Rx,0,8,17,80,00,00,00,00,00,00,
554250,0000041C,false,Rx,0,8,E9,80,E0,00,00,00,00,00,
554751,00000422,false,Rx,0,8,E2,B0,01,00,00,00,04,00,
555066,000001AB,false,Rx,0,8,94,C4,65,50,70,40,00,00,
555217,00000432,false,Rx,0,8,03,20,02,00,00,00,00,00,
555892,000001AC,false,Rx,0,8,00,28,00,00,00,00,00,00,
556232,00000435,false,Rx,0,8,3E,50,00,40,00,00,00,00,
556373,00000442,false,Rx,0,8,CE,20,11,81,00,00,00,00,
557065,00000444,false,Rx,0,8,AA,E0,20,50,55,50,00,00,
557457,00000445,false,Rx,0,8,18,80,00,00,00,00,00,18,
557934,00000464,false,Rx,0,8,7C,D0,F0,FF,38,7F,05,00,
558335,0000010B,false,Rx,0,8,F2,EE,11,00,00,00,00,05,
558540,0000010C,false,Rx,0,8,FF,F9,E7,1F,45,56,49,49,
558661,0000010D,false,Rx,0,8,D6,02,00,00,00,00,01,35,
558816,0000010E,false,Rx,0,8,00,00,0A,00,00,C0,AB,57,
560409,000000A1,false,Rx,0,8,36,8F,69,2F,0E,0A,00,00,
560616,000000A2,false,Rx,0,8,00,00,00,00,00,00,00,00,
561266,000000A3,false,Rx,0,8,00,40,01,00,00,00,00,00,
565097,000000C5,false,Rx,1,8,00,00,00,00,00,00,00,00,
565414,00000244,false,Rx,1,8,FF,FF,FF,FF,FF,FF,FF,FF,
565980,0000041F,false,Rx,1,8,00,0C,00,00,00,00,00,00,
566840,000004B4,false,Rx,1,8,00,00,00,00,00,00,00,00,
567701,000004B5,false,Rx,1,8,08,00,F0,07,00,00,00,00,
568021,000004B7,false,Rx,1,8,08,00,F0,07,00,00,00,00,
568314,000004CA,false,Rx,1,8,00,00,00,00,00,00,00,00,
568621,000004CC,false,Rx,1,8,08,00,00,06,00,00,03,00,
568913,000004CE,false,Rx,1,8,14,01,FF,FF,FF,FF,FF,FF,
569043,000004D7,false,Rx,1,8,23,01,00,00,00,00,00,00,
569377,000004D8,false,Rx,1,8,41,10,F0,F0,40,F2,1E,CC,
569745,000004DD,false,Rx,1,8,00,00,FE,00,04,00,00,00,
570512,000004DF,false,Rx,1,8,FF,03,0C,3F,00,00,00,00,
571332,000004E7,false,Rx,1,8,00,30,00,00,00,00,69,0F,
572193,000004E8,false,Rx,1,8,FF,FF,FF,05,FF,FF,FF,00,
572406,000004E9,false,Rx,1,8,12,00,00,34,00,00,50,00,
572527,000004EA,false,Rx,1,8,67,00,00,89,00,00,00,00,
572703,000004EB,false,Rx,1,8,40,90,3B,0B,80,00,00,00,
572829,000004EC,false,Rx,1,8,00,00,00,00,00,00,00,00,
572992,000004ED,false,Rx,1,8,00,00,00,00,00,FF,FF,1F,
573129,000004EE,false,Rx,1,8,FF,FF,00,00,00,00,00,00,
573412,00000121,false,Rx,0,8,B8,6C,12,00,00,00,00,05,
573584,000004EF,false,Rx,1,8,60,00,60,00,29,14,00,00,
573724,0000063D,false,Rx,1,8,00,80,00,00,00,00,00,00,
573989,00000122,false,Rx,0,8,FF,D9,67,1F,45,45,45,45,
574198,0000063E,false,Rx,1,8,FF,FF,FF,FF,FF,FF,FF,FF,
574456,00000123,false,Rx,0,8,D7,02,00,00,00,00,01,35,
574615,0000063F,false,Rx,1,8,00,10,00,C4,FF,00,00,00,
574848,00000640,false,Rx,1,8,FF,FF,FF,00,FF,FF,FF,00,
575159,00000124,false,Rx,0,8,00,00,0A,00,00,00,20,40,
575329,00000641,false,Rx,1,8,FF,FF,FF,FF,0F,FF,FF,FF,
575611,00000646,false,Rx,1,8,00,00,00,80,01,00,00,00,
575825,00000485,false,Rx,0,8,00,40,11,02,00,00,00,00,
579194,00000036,false,Rx,0,8,02,EF,26,51,00,00,25,01,
579342,00000037,false,Rx,0,8,00,00,00,10,00,40,00,00,
579522,00000038,false,Rx,0,8,04,00,00,00,F0,39,96,D4,
579870,00000039,false,Rx,0,8,00,00,00,00,00,00,00,00,
585056,00000475,false,Rx,0,8,12,00,00,00,00,00,00,00,
585600,00000496,false,Rx,0,8,12,00,00,00,00,00,00,00,
588805,00000161,false,Rx,0,8,3C,BC,92,03,00,00,00,02,
588941,0000011B,false,Rx,0,8,5A,DB,24,05,80,08,A8,02,
589241,00000162,false,Rx,0,8,FF,FC,01,00,00,00,00,00,
589464,0000011C,false,Rx,0,8,00,05,20,00,22,00,01,01,
589653,0000012B,false,Rx,0,8,1D,21,24,06,00,00,08,00,
589931,00000061,false,Rx,0,8,75,58,6C,00,00,00,00,00,
590164,0000012C,false,Rx,0,8,00,00,01,00,00,64,00,00,
590477,00000062,false,Rx,0,8,02,02,00,02,40,FF,00,FF,
590728,0000030B,false,Rx,0,8,B2,E2,1D,00,04,00,00,00,
590954,00000063,false,Rx,0,8,00,00,05,00,00,08,FD,00,
591127,0000030C,false,Rx,0,8,00,00,0C,00,2C,00,A0,0F,
591411,00000064,false,Rx,0,8,00,00,00,04,FF,FA,00,00,
591716,0000030D,false,Rx,0,8,00,00,00,00,3F,00,00,00,
591951,0000030E,false,Rx,0,8,00,00,20,05,21,00,00,0A,
595149,00000226,false,Rx,0,8,01,84,47,FF,B4,20,09,42,
595283,0000019B,false,Rx,0,8,C5,ED,23,00,00,E4,00,00,
595534,00000227,false,Rx,0,8,02,77,4F,09,00,F2,6F,03,
595741,0000019C,false,Rx,0,8,40,20,00,00,00,00,0B,09,
596046,000002FF,false,Rx,0,8,E2,01,00,F1,3F,00,00,00,
596253,0000019D,false,Rx,0,8,00,10,00,01,00,00,00,00,
596652,00000316,false,Rx,0,8,3C,CA,23,40,0B,80,0A,00,
596888,0000019E,false,Rx,0,8,15,00,00,00,00,32,00,00,
597032,00000317,false,Rx,0,8,00,00,05,00,00,00,00,00,
597231,00000380,false,Rx,0,8,97,8B,03,00,00,00,00,01,
597523,00000472,false,Rx,0,8,5C,EC,00,40,08,41,00,45,
597778,00000473,false,Rx,0,8,5F,24,00,25,00,00,00,78,
597970,00000474,false,Rx,0,8,51,AE,00,00,00,00,00,0C,
598819,000001A1,false,Rx,0,8,44,6A,92,FE,F7,7F,64,00,
599121,000001A2,false,Rx,0,8,00,00,00,00,00,08,00,00,
599303,000001A3,false,Rx,0,8,FF,F3,3F,00,00,00,00,00,
599587,000001A4,false,Rx,0,8,FE,07,00,00,00,00,00,00,
601200,00000383,false,Rx,0,8,67,25,02,00,02,00,00,00,
601492,00000236,false,Rx,0,8,0A,E4,1D,00,34,6C,34,6C,
601715,00000151,false,Rx,0,8,7E,3E,1D,C8,C8,00,28,15,
601916,00000237,false,Rx,0,8,00,05,78,00,00,66,1C,00,
602210,00000152,false,Rx,0,8,14,15,14,00,32,00,00,00,
602561,000001F6,false,Rx,0,8,20,B7,1D,00,00,00,00,0D,
602668,00000153,false,Rx,0,8,00,00,00,00,00,00,00,00,
602959,000001F7,false,Rx,0,8,22,00,EA,06,00,00,00,00,
603126,00000154,false,Rx,0,8,00,00,00,00,00,00,00,00,
603420,000001F8,false,Rx,0,8,00,48,03,16,03,00,00,00,
603759,000002D6,false,Rx,0,8,64,72,0D,00,00,00,00,00,
603913,000001F9,false,Rx,0,8,B9,00,C8,C8,14,00,B9,00,
604137,000002D7,false,Rx,0,8,00,00,00,00,03,00,00,00,
604430,00000238,false,Rx,0,8,00,00,D2,00,00,00,00,00,
604710,000002D8,false,Rx,0,8,00,00,00,00,00,00,38,44,
604886,00000239,false,Rx,0,8,00,00,00,00,01,00,00,00,
605108,000002D9,false,Rx,0,8,00,00,00,00,00,00,00,00,
605479,0000025B,false,Rx,0,8,C4,03,1D,40,40,20,00,00,
605723,000002FB,false,Rx,0,8,21,CB,1D,04,D2,16,BD,BD,
605855,0000025C,false,Rx,0,8,00,00,22,00,3E,52,16,00,
606108,000002EB,false,Rx,0,8,36,5F,0D,08,08,02,00,02,
606372,00000091,false,Rx,0,8,C0,35,1B,16,00,00,00,00,
606550,0000025D,false,Rx,0,8,00,C8,00,00,00,80,C0,70,
606814,00000092,false,Rx,0,8,00,00,00,00,00,00,00,00,
607093,0000025E,false,Rx,0,8,B5,02,0A,00,00,00,00,00,
607305,00000093,false,Rx,0,8,00,00,00,00,00,00,00,00,
607529,000002EC,false,Rx,0,8,0A,00,00,00,00,00,00,00,
607819,00000094,false,Rx,0,8,00,00,00,00,00,00,00,00,
608088,000002ED,false,Rx,0,8,00,00,00,00,00,00,00,00,
608289,0000010B,false,Rx,0,8,01,70,16,00,00,00,00,05,
608534,000002EE,false,Rx,0,8,00,00,00,00,00,00,00,00,
608787,0000010C,false,Rx,0,8,FF,F9,E7,1F,45,56,49,49,
609069,000002FC,false,Rx,0,8,03,00,14,15,00,00,86,77,
609266,0000010D,false,Rx,0,8,D6,02,00,00,00,00,01,35,
609568,000002FD,false,Rx,0,8,00,00,00,00,00,1C,0F,EA,
609923,0000010E,false,Rx,0,8,00,00,0A,00,00,C0,AB,57,
610335,000002FE,false,Rx,0,8,00,00,72,01,00,28,00,00,
611189,000000A1,false,Rx,0,8,3F,0A,6E,2F,0E,0A,00,00,
611493,000002AB,false,Rx,0,8,00,A7,1E,0C,0C,00,00,00,
611962,000000A2,false,Rx,0,8,00,00,00,00,00,00,00,00,
612299,000002AC,false,Rx,0,8,00,FF,FF,00,00,40,00,50,
612724,000000A3,false,Rx,0,8,00,40,01,00,00,00,00,00,
613411,000002AD,false,Rx,0,8,00,01,00,40,FF,FF,FF,0F,
614033,00000326,false,Rx,0,8,F8,89,1D,00,00,00,00,00,
614745,000002AE,false,Rx,0,8,01,00,FF,3F,06,01,00,00,
615038,00000327,false,Rx,0,8,00,00,00,00,05,00,00,00,
615152,000002B6,false,Rx,0,8,53,37,1E,00,00,00,00,40,
615331,00000328,false,Rx,0,8,EA,06,B9,00,00,48,03,00,
615519,000002B7,false,Rx,0,8,22,01,86,00,00,04,00,00,
615771,00000329,false,Rx,0,8,C8,16,03,00,00,00,00,00,
615971,000002B8,false,Rx,0,8,FE,F1,0F,00,00,00,00,00,
616092,00000331,false,Rx,0,8,20,DC,1D,F1,C8,A0,2C,97,
616338,000002B9,false,Rx,0,8,0A,00,00,00,00,00,00,00,
616526,00000332,false,Rx,0,8,F8,07,1C,02,00,00,00,00,
616696,000002E1,false,Rx,0,8,14,28,1E,00,00,00,00,40,
616801,00000333,false,Rx,0,8,00,00,00,1C,0C,40,20,C8,
616990,000002E2,false,Rx,0,8,FD,00,00,00,00,7E,00,04,
617097,00000334,false,Rx,0,8,C8,00,00,00,F1,8F,F1,8F,
617213,000002E3,false,Rx,0,8,00,00,00,00,00,00,72,01,
617353,00000384,false,Rx,0,8,3A,9B,03,00,00,FF,00,21,
617461,000002E4,false,Rx,0,8,02,00,00,00,00,00,00,00,
617671,00000396,false,Rx,0,8,2B,9F,0D,0F,08,02,00,02,
617778,0000042A,false,Rx,0,8,1D,C5,02,01,00,10,00,00,
617964,00000397,false,Rx,0,8,04,00,00,00,00,00,00,00,
618068,00000565,false,Rx,0,8,66,02,00,00,00,00,FF,FF,
618186,00000398,false,Rx,0,8,00,00,00,00,00,00,00,00,
618634,000003AA,false,Rx,0,8,FF,00,D0,00,54,00,00,00,
620429,00000121,false,Rx,0,8,C7,40,17,00,00,00,00,05,
620718,00000122,false,Rx,0,8,FF,D9,67,1F,45,45,45,45,
620967,00000123,false,Rx,0,8,D7,02,00,00,00,00,01,35,
621130,000001E1,false,Rx,0,8,81,D5,3B,02,00,00,00,00,
621396,00000124,false,Rx,0,8,00,00,0A,00,00,00,20,40,
621672,000001E2,false,Rx,0,8,00,00,00,00,00,00,00,00,
629046,00000036,false,Rx,0,8,0F,29,2B,51,00,00,25,01,
629224,00000037,false,Rx,0,8,00,00,00,10,00,40,00,00,
629533,00000038,false,Rx,0,8,04,00,00,00,F0,39,96,D4,
629832,00000039,false,Rx,0,8,00,00,00,00,00,00,00,00,
631208,0000033B,false,Rx,0,8,40,14,1E,00,00,00,00,00,
631351,00000146,false,Rx,0,8,C8,D3,88,10,04,01,00,00,
631632,0000033C,false,Rx,0,8,00,00,00,00,F0,00,00,00,
631899,00000147,false,Rx,0,8,00,04,7D,00,40,00,00,00,
632163,0000033D,false,Rx,0,8,00,00,00,00,00,00,00,00,
632507,00000148,false,Rx,0,8,00,00,00,00,00,7F,40,05,
632625,0000033E,false,Rx,0,8,00,00,00,00,00,00,00,00,
632918,00000149,false,Rx,0,8,00,00,00,00,00,00,00,00,
633092,00000356,false,Rx,0,8,6D,51,0F,00,00,00,00,00,
633390,000001B1,false,Rx,0,8,5F,A1,88,00,72,00,00,00,
633639,00000357,false,Rx,0,8,00,00,00,00,00,4B,4D,48,
633811,000001B2,false,Rx,0,8,23,00,04,10,0F,03,51,10,
634062,00000358,false,Rx,0,8,35,41,45,4D,52,37,33,4F,
634409,000001B3,false,Rx,0,8,10,20,00,00,73,7F,79,80,
634527,00000359,false,Rx,0,8,51,4F,34,52,4A,35,33,00,
634772,000001B4,false,Rx,0,8,75,82,17,00,00,40,01,00,
635086,00000495,false,Rx,0,8,49,00,00,00,00,00,00,00,
635282,000001F1,false,Rx,0,8,66,B1,B0,01,00,00,28,00,
635569,000001F2,false,Rx,0,8,00,00,00,00,00,00,00,00,
639051,0000011B,false,Rx,0,8,29,E2,29,05,80,08,A8,02,
639200,0000012B,false,Rx,0,8,6E,18,29,06,00,00,08,00,
639490,0000011C,false,Rx,0,8,00,05,20,00,22,00,01,01,
639765,0000012C,false,Rx,0,8,00,00,01,00,00,64,00,00,
639942,00000061,false,Rx,0,8,BD,5A,71,00,00,00,00,00,
640292,00000062,false,Rx,0,8,02,02,00,02,40,FF,00,FF,
640583,00000445,false,Rx,0,8,A7,90,00,00,00,04,00,18,
640740,00000063,false,Rx,0,8,00,00,05,00,00,08,FD,00,
641034,00000064,false,Rx,0,8,00,00,00,04,FF,FA,00,00,
645311,0000019B,false,Rx,0,8,7D,EC,28,00,00,E4,00,00,
645484,0000019C,false,Rx,0,8,40,20,00,00,00,00,0B,09,
645771,0000019D,false,Rx,0,8,00,10,00,01,00,00,00,00,
646062,0000019E,false,Rx,0,8,15,00,00,00,00,32,00,00,
650662,0000036F,false,Rx,0,8,FE,01,01,00,00,00,00,00,
650821,0000037F,false,Rx,0,8,1C,80,92,24,41,02,00,00,
654244,000001AB,false,Rx,0,8,8E,BD,6A,50,70,40,00,00,
654691,000001AC,false,Rx,0,8,00,28,00,00,00,00,00,00,
655094,00000111,false,Rx,0,8,86,5D,2D,01,00,00,00,00,
655348,00000112,false,Rx,0,8,00,00,00,00,00,00,00,00,
655921,00000113,false,Rx,0,8,00,00,00,00,00,00,00,00,
656047,00000114,false,Rx,0,8,00,00,00,00,00,00,00,00,
657600,0000010B,false,Rx,0,8,0C,B6,1B,00,00,00,00,05,
657927,00000487,false,Rx,1,8,00,00,00,00,00,00,00,00,
658226,0000010C,false,Rx,0,8,FF,F9,E7,1F,45,56,49,49,
658615,00000642,false,Rx,1,8,00,00,00,00,00,00,00,00,
658854,0000010D,false,Rx,0,8,D6,02,00,00,00,00,01,35,
659001,0000010E,false,Rx,0,8,00,00,0A,00,00,C0,AB,57,
660331,000000A1,false,Rx,0,8,5A,09,73,2F,0E,0A,00,00,
660769,000000A2,false,Rx,0,8,00,00,00,00,00,00,00,00,
660939,000000A3,false,Rx,0,8,00,40,01,00,00,00,00,00,
661210,00000256,false,Rx,0,8,2D,11,1B,15,00,00,20,01,
661374,000002E6,false,Rx,0,8,FB,66,1B,01,00,00,00,15,
661664,00000257,false,Rx,0,8,00,8B,40,1C,84,07,00,8C,
661816,000001E6,false,Rx,0,8,36,08,37,02,00,00,00,00,
662108,00000258,false,Rx,0,8,04,2F,1C,00,10,15,00,1C,
662367,000001BB,false,Rx,0,8,10,D2,37,02,00,00,00,0A,
662503,00000259,false,Rx,0,8,5C,05,8C,3C,2C,02,00,00,
662693,000001BC,false,Rx,0,8,32,00,00,00,02,00,00,00,
663011,000002E7,false,Rx,0,8,0A,00,00,00,00,00,00,00,
663250,000001BD,false,Rx,0,8,00,00,00,00,00,00,00,00,
663431,000002E8,false,Rx,0,8,00,00,00,00,00,00,00,00,
663686,000001E7,false,Rx,0,8,00,00,22,03,20,01,00,00,
663997,000002E9,false,Rx,0,8,00,00,00,00,00,00,00,00,
664179,000003B6,false,Rx,0,8,47,B6,0D,00,00,00,00,45,
664449,000003B7,false,Rx,0,8,45,00,00,00,00,00,00,00,
664686,000003B8,false,Rx,0,8,D2,02,00,00,00,00,69,0E,
665005,000003B9,false,Rx,0,8,00,00,00,00,00,00,00,00,
668443,000002BF,false,Rx,0,8,FF,FF,FF,00,00,00,00,00,
668644,0000047F,false,Rx,0,8,F3,FF,FF,FF,FF,3F,FF,FF,
668947,00000653,false,Rx,0,8,0A,19,03,01,02,2A,00,00,
670511,00000121,false,Rx,0,8,7F,41,1C,00,00,00,00,05,
670666,00000122,false,Rx,0,8,FF,D9,67,1F,45,45,45,45,
670949,00000123,false,Rx,0,8,D7,02,00,00,00,00,01,35,
671249,00000124,false,Rx,0,8,00,00,0A,00,00,00,20,40,
671499,00000405,false,Rx,0,8,0C,50,00,00,00,01,00,00,
671679,00000413,false,Rx,0,8,FD,60,00,41,00,00,00,00,
671954,00000410,false,Rx,0,8,64,50,54,3C,5C,6A,FF,FF,
672132,00000414,false,Rx,0,8,F0,10,00,00,28,00,00,00,
672463,00000411,false,Rx,0,8,CA,71,50,51,00,00,44,04,
672728,00000416,false,Rx,0,8,55,00,00,00,00,00,00,00,
672959,00000412,false,Rx,0,8,A3,C0,00,00,00,00,00,00,
673122,00000417,false,Rx,0,8,B7,70,00,00,00,01,00,00,
673553,00000418,false,Rx,0,8,1F,50,00,00,14,0C,00,00,
673744,00000419,false,Rx,0,8,44,B0,FD,D5,81,7A,85,00,
678411,00000401,false,Rx,0,8,C6,10,10,00,00,04,00,00,
679026,00000036,false,Rx,0,8,72,EC,30,51,00,00,25,01,
679224,00000037,false,Rx,0,8,00,00,00,10,00,40,00,00,
679587,00000038,false,Rx,0,8,04,00,00,00,F0,39,96,D4,
679857,00000039,false,Rx,0,8,00,00,00,00,00,00,00,00,
680752,00000445,false,Rx,0,8,A7,90,00,00,00,04,00,18,
682490,00000448,false,Rx,0,8,7F,00,00,00,00,00,00,00,
688844,00000161,false,Rx,0,8,CA,94,97,03,00,00,00,02,
688980,0000011B,false,Rx,0,8,B6,8A,2E,05,80,08,A8,02,
689203,00000162,false,Rx,0,8,FF,FC,01,00,00,00,00,00,
689427,0000011C,false,Rx,0,8,00,05,20,00,22,00,01,01,
689747,0000012B,false,Rx,0,8,F1,70,2E,06,00,00,08,00,
690189,00000061,false,Rx,0,8,4E,C4,76,00,00,00,00,00,
690377,0000012C,false,Rx,0,8,00,00,01,00,00,64,00,00,
690615,00000062,false,Rx,0,8,02,02,00,02,40,FF,00,FF,
690751,000001FB,false,Rx,0,8,E1,78,1E,00,32,32,00,00,
690948,00000063,false,Rx,0,8,00,00,05,00,00,08,FD,00,
691210,000001FC,false,Rx,0,8,00,00,00,00,00,00,19,00,
691417,00000064,false,Rx,0,8,00,00,00,04,FF,FA,00,00,
691639,000001FD,false,Rx,0,8,00,1A,03,00,00,00,00,00,
691963,000001FE,false,Rx,0,8,00,00,00,00,00,00,00,00,
695304,0000019B,false,Rx,0,8,02,C0,2D,00,00,E4,00,00,
695454,0000019C,false,Rx,0,8,40,20,00,00,00,00,0B,09,
695749,0000019D,false,Rx,0,8,00,10,00,01,00,00,00,00,
696065,0000019E,false,Rx,0,8,15,00,00,00,00,32,00,00,
697228,000004A3,false,Rx,1,8,80,00,48,0B,3E,00,00,00,
697478,000004A4,false,Rx,1,8,FF,FF,FF,00,00,00,00,00,
698901,000001A1,false,Rx,0,8,3B,46,97,FE,F7,7F,64,00,
699098,000001A2,false,Rx,0,8,00,00,00,00,00,08,00,00,
699499,000001A3,false,Rx,0,8,FF,F3,3F,00,00,00,00,00,
699859,000001A4,false,Rx,0,8,FE,07,00,00,00,00,00,00,
701162,00000251,false,Rx,0,8,D7,D0,1C,00,00,00,00,00,
701685,00000252,false,Rx,0,8,00,00,00,00,03,00,00,00,
701823,00000253,false,Rx,0,8,00,00,00,50,4F,00,80,50,
706367,00000091,false,Rx,0,8,33,AB,1C,16,00,00,00,00,
706518,00000092,false,Rx,0,8,00,00,00,00,00,00,00,00,
706699,00000093,false,Rx,0,8,00,00,00,00,00,00,00,00,
706991,00000094,false,Rx,0,8,00,00,00,00,00,00,00,00,
707214,0000010B,false,Rx,0,8,DA,EA,20,00,00,00,00,05,
707600,0000010C,false,Rx,0,8,FF,F9,E7,1F,45,56,49,49,
707785,0000010D,false,Rx,0,8,D6,02,00,00,00,00,01,35,
707955,0000010E,false,Rx,0,8,00,00,0A,00,00,C0,AB,57,
710281,000000A1,false,Rx,0,8,66,F8,78,2F,0E,0A,00,00,
710434,000000A2,false,Rx,0,8,00,00,00,00,00,00,00,00,
710743,000000A3,false,Rx,0,8,00,40,01,00,00,00,00,00,
711049,000002C1,false,Rx,0,8,CF,1C,10,21,00,41,00,A1,
711272,000002C2,false,Rx,0,8,40,00,00,00,00,00,00,00,
711624,000002C3,false,Rx,0,8,00,00,00,00,00,00,00,00,
711939,000002C4,false,Rx,0,8,00,00,00,00,00,00,00,00,
713449,00000566,false,Rx,0,8,16,02,00,00,00,00,FF,FF,
720465,00000445,false,Rx,0,8,A7,90,00,00,00,04,00,18,
720619,00000121,false,Rx,0,8,1C,DA,21,00,00,00,00,05,
720940,00000122,false,Rx,0,8,FF,D9,67,1F,45,45,45,45,
721152,00000382,false,Rx,0,8,F8,23,08,00,00,01,08,00,
721380,00000123,false,Rx,0,8,D7,02,00,00,00,00,01,35,
721645,00000124,false,Rx,0,8,00,00,0A,00,00,00,20,40,
722075,000003B0,false,Rx,0,8,72,37,FF,C7,00,00,03,C0,
723141,000003B1,false,Rx,0,8,9B,3C,FF,40,00,00,20,00,
724127,000003B2,false,Rx,0,8,36,15,FF,02,29,2F,34,00,
729057,00000036,false,Rx,0,8,0D,C0,35,51,00,00,25,01,
729217,00000037,false,Rx,0,8,00,00,00,10,00,40,00,00,
729529,00000038,false,Rx,0,8,04,00,00,00,F0,39,96,D4,
729782,00000039,false,Rx,0,8,00,00,00,00,00,00,00,00,
731346,00000146,false,Rx,0,8,B7,FF,8D,10,04,01,00,00,
731500,00000147,false,Rx,0,8,00,04,7D,00,40,00,00,00,
731804,00000148,false,Rx,0,8,00,00,00,00,00,7F,40,05,
732092,00000149,false,Rx,0,8,00,00,00,00,00,00,00,00,
733296,000001B1,false,Rx,0,8,9D,5A,8D,00,72,00,00,00,
733446,000001B2,false,Rx,0,8,23,00,04,10,0F,03,51,10,
733738,000001B3,false,Rx,0,8,10,1F,00,00,73,7F,79,80,
734028,000001B4,false,Rx,0,8,75,82,17,00,00,40,01,00,
734176,00000427,false,Rx,0,8,1D,86,FF,00,80,0A,00,00,
735371,000003A1,false,Rx,0,8,85,59,4E,00,FF,FF,FF,FF,
735546,000003A2,false,Rx,0,8,00,00,00,00,00,00,00,00,
739108,0000011B,false,Rx,0,8,CF,90,33,05,80,08,A8,02,
739253,0000012B,false,Rx,0,8,88,6A,33,06,00,00,08,00,
739573,0000011C,false,Rx,0,8,00,05,20,00,22,00,01,01,
739790,0000012C,false,Rx,0,8,00,00,01,00,00,64,00,00,
740000,00000061,false,Rx,0,8,43,02,7B,00,00,00,00,00,
740348,00000062,false,Rx,0,8,02,02,00,02,40,FF,00,FF,
740615,00000063,false,Rx,0,8,00,00,05,00,00,08,FD,00,
740831,00000064,false,Rx,0,8,00,00,00,04,FF,FA,00,00,
745228,0000019B,false,Rx,0,8,46,70,32,00,00,E4,00,00,
745373,0000019C,false,Rx,0,8,40,20,00,00,00,00,0B,09,
745680,0000019D,false,Rx,0,8,00,10,00,01,00,00,00,00,
745944,0000019E,false,Rx,0,8,15,00,00,00,00,32,00,00,
750483,000000FF,false,Rx,0,8,CB,10,00,00,00,00,02,00,
751071,0000036F,false,Rx,0,8,47,11,01,00,00,00,00,00,
751269,0000037F,false,Rx,0,8,A5,90,92,24,41,02,00,00,
751569,000003C3,false,Rx,0,8,45,10,31,30,36,00,00,00,
751958,00000394,false,Rx,0,8,2A,22,1A,49,00,00,00,00,
752418,000003E0,false,Rx,0,8,A8,80,01,00,54,03,00,00,
752882,000003E5,false,Rx,0,8,27,60,01,00,00,00,00,00,
753228,000003E6,false,Rx,0,8,6F,E0,00,00,00,00,00,00,
753662,0000041A,false,Rx,0,8,D4,80,12,00,50,01,00,00,
753945,0000041B,false,Rx,0,8,17,80,00,00,00,00,00,00,
754057,0000041C,false,Rx,0,8,E9,80,E0,00,00,00,00,00,
754265,00000422,false,Rx,0,8,E2,B0,01,00,00,00,04,00,
754483,00000432,false,Rx,0,8,03,20,02,00,00,00,00,00,
754651,000001AB,false,Rx,0,8,78,95,6F,50,70,40,00,00,
755114,000001AC,false,Rx,0,8,00,28,00,00,00,00,00,00,
755656,00000435,false,Rx,0,8,3E,50,00,40,00,00,00,00,
755787,00000442,false,Rx,0,8,CE,20,11,81,00,00,00,00,
756221,00000444,false,Rx,0,8,AA,E0,20,50,55,50,00,00,
756364,00000445,false,Rx,0,8,A7,90,00,00,00,04,00,18,
756772,00000464,false,Rx,0,8,7C,D0,F0,FF,38,7F,05,00,
757082,0000010B,false,Rx,0,8,A5,C6,25,00,00,00,00,05,
757421,0000010C,false,Rx,0,8,FF,F9,E7,1F,45,56,49,49,
757591,0000010D,false,Rx,0,8,D6,02,00,00,00,00,01,35,
757782,0000010E,false,Rx,0,8,00,00,0A,00,00,C0,AB,57,
760850,000000A1,false,Rx,0,8,69,13,7D,2F,0E,0A,00,00,
761003,000000A2,false,Rx,0,8,00,00,00,00,00,00,00,00,
761400,000000A3,false,Rx,0,8,00,40,01,00,00,00,00,00,
767130,000000C5,false,Rx,1,8,00,00,00,00,00,00,00,00,
767442,00000244,false,Rx,1,8,FF,FF,FF,FF,FF,FF,FF,FF,
767856,000004B4,false,Rx,1,8,00,00,00,00,00,00,00,00,
768006,000004B5,false,Rx,1,8,08,00,F0,07,00,00,00,00,
768741,000004B7,false,Rx,1,8,08,00,F0,07,00,00,00,00,
769456,000004CA,false,Rx,1,8,00,00,00,00,00,00,00,00,
769762,000004CC,false,Rx,1,8,08,00,00,06,00,00,03,00,
770067,000004CE,false,Rx,1,8,14,01,FF,FF,FF,FF,FF,FF,
770595,000004D7,false,Rx,1,8,23,01,00,00,00,00,00,00,
771186,000004D8,false,Rx,1,8,41,10,F0,F0,40,F2,1E,CC,
771953,000004DD,false,Rx,1,8,00,00,FE,00,04,00,00,00,
772552,000004DF,false,Rx,1,8,FF,03,0C,3F,00,00,00,00,
772948,000004E7,false,Rx,1,8,00,30,00,00,00,00,69,0F,
773259,000004E8,false,Rx,1,8,FF,FF,FF,05,FF,FF,FF,00,
773650,00000121,false,Rx,0,8,EF,44,26,00,00,00,00,05,
773791,000004E9,false,Rx,1,8,12,00,00,34,00,00,50,00,
774061,000004EA,false,Rx,1,8,67,00,00,89,00,00,00,00,
774445,00000122,false,Rx,0,8,FF,D9,67,1F,45,45,45,45,
774613,000004EB,false,Rx,1,8,40,90,3B,0C,80,00,00,00,
774746,000001E1,false,Rx,0,8,77,FD,3E,02,00,00,00,00,
774905,000004EC,false,Rx,1,8,00,00,00,00,00,00,00,00,
775104,00000123,false,Rx,0,8,D7,02,00,00,00,00,01,35,
775634,000004ED,false,Rx,1,8,00,00,00,00,00,FF,FF,1F,
776495,000001E2,false,Rx,0,8,00,00,00,00,00,00,00,00,
776749,000004EE,false,Rx,1,8,FF,FF,00,00,00,00,00,00,
777194,00000124,false,Rx,0,8,00,00,0A,00,00,00,20,40,
777631,000004EF,false,Rx,1,8,60,00,60,00,29,14,00,00,
777819,000004F0,false,Rx,1,8,4A,12,3B,0C,64,1A,07,02,
777944,000004F1,false,Rx,1,8,00,C0,00,00,00,00,00,00,
778091,000004F2,false,Rx,1,8,02,FF,DD,FF,03,01,00,00,
778209,000004F3,false,Rx,1,8,00,00,00,00,F0,00,00,00,
778341,000004F9,false,Rx,1,8,E0,FF,FF,FF,FF,FF,FF,FF,
778449,000004FE,false,Rx,1,8,69,23,00,03,CF,00,48,A8,
778575,0000063D,false,Rx,1,8,00,80,00,00,00,00,00,00,
778702,0000063E,false,Rx,1,8,FF,FF,FF,FF,FF,FF,FF,FF,
778832,0000063F,false,Rx,1,8,00,10,00,C4,FF,00,00,00,
778973,00000640,false,Rx,1,8,FF,FF,FF,00,FF,FF,FF,00,
779126,00000641,false,Rx,1,8,FF,FF,FF,FF,0F,FF,FF,FF,
779269,00000646,false,Rx,1,8,00,00,00,80,01,00,00,00,
779517,00000036,false,Rx,0,8,8C,B4,3A,51,00,00,25,01,
779680,00000037,false,Rx,0,8,00,00,00,10,00,40,00,00,
780049,00000038,false,Rx,0,8,04,00,00,00,F0,39,96,D4,
780503,00000039,false,Rx,0,8,00,00,00,00,00,00,00,00,
784786,000001F1,false,Rx,0,8,2B,59,B3,01,00,00,28,00,
785183,000001F2,false,Rx,0,8,00,00,00,00,00,00,00,00,
785419,00000475,false,Rx,0,8,12,00,00,00,00,00,00,00,
785549,00000496,false,Rx,0,8,12,00,00,00,00,00,00,00,
788898,00000161,false,Rx,0,8,02,6D,9C,03,00,00,00,02,
789043,0000011B,false,Rx,0,8,07,69,38,05,80,08,A8,02,
789279,00000162,false,Rx,0,8,FF,FC,01,00,00,00,00,00,
789475,0000011C,false,Rx,0,8,00,05,20,00,22,00,01,01,
789703,0000012B,false,Rx,0,8,40,93,38,06,00,00,08,00,
790001,00000061,false,Rx,0,8,0C,3B,80,00,00,00,00,00,
790278,0000012C,false,Rx,0,8,00,00,01,00,00,64,00,00,
790456,00000062,false,Rx,0,8,02,02,00,02,40,FF,00,FF,
790704,0000030B,false,Rx,0,8,5D,13,1F,00,04,00,00,00,
790954,00000063,false,Rx,0,8,00,00,05,00,00,08,FD,00,
791208,0000030C,false,Rx,0,8,00,00,0C,00,2C,00,A0,0F,
791389,00000064,false,Rx,0,8,00,00,00,04,FF,FA,00,00,
791706,0000030D,false,Rx,0,8,00,00,00,00,3F,00,00,00,
791916,0000030E,false,Rx,0,8,00,00,20,05,21,00,00,1A,
794765,00000226,false,Rx,0,8,3F,55,49,FF,B4,20,09,42,
794940,000002FF,false,Rx,0,8,E2,01,00,F1,3F,00,00,00,
795209,0000019B,false,Rx,0,8,39,5C,37,00,00,E4,00,00,
795476,00000227,false,Rx,0,8,02,77,4F,09,00,F2,6F,03,
795628,0000019C,false,Rx,0,8,40,20,00,00,00,00,0B,09,
796018,00000316,false,Rx,0,8,A3,A2,24,40,0B,80,0A,00,
796255,0000019D,false,Rx,0,8,00,10,00,01,00,00,00,00,
796387,00000317,false,Rx,0,8,00,00,05,00,00,00,00,00,
796640,0000019E,false,Rx,0,8,15,00,00,00,00,32,00,00,
796924,00000472,false,Rx,0,8,5C,EC,00,40,08,41,00,45,
797098,00000380,false,Rx,0,8,97,8B,03,00,00,00,00,01,
797325,00000473,false,Rx,0,8,5F,24,00,25,00,00,00,78,
798128,00000474,false,Rx,0,8,51,AE,00,00,00,00,00,0C,
799365,000001A1,false,Rx,0,8,83,47,9C,FE,F7,7F,64,00,
799499,000001A2,false,Rx,0,8,00,00,00,00,00,08,00,00,
799641,000001A3,false,Rx,0,8,FF,F3,3F,00,00,00,00,00,
799740,000001A4,false,Rx,0,8,FE,07,00,00,00,00,00,00,
801269,00000383,false,Rx,0,8,67,25,02,00,02,00,00,00,
801460,00000151,false,Rx,0,8,F2,8C,1F,C8,C8,00,28,15,
801784,000001F6,false,Rx,0,8,AC,05,1F,00,00,00,00,0D,
802033,00000152,false,Rx,0,8,14,15,14,00,32,00,00,00,
802201,000001F7,false,Rx,0,8,22,00,EA,06,00,00,00,00,
802467,00000153,false,Rx,0,8,00,00,00,00,00,00,00,00,
802672,000001F8,false,Rx,0,8,00,48,03,16,03,00,00,00,
802985,00000154,false,Rx,0,8,00,00,00,00,00,00,00,00,
803597,000001F9,false,Rx,0,8,B9,00,C8,C8,14,00,B9,00,
804254,000002D6,false,Rx,0,8,AE,99,0E,00,00,00,00,00,
804691,00000236,false,Rx,0,8,86,56,1F,00,34,6C,34,6C,
804956,000002D7,false,Rx,0,8,00,00,00,00,03,00,00,00,
805118,00000237,false,Rx,0,8,00,05,78,00,00,66,1C,00,
805590,000002D8,false,Rx,0,8,00,00,00,00,00,00,38,44,
805765,00000238,false,Rx,0,8,00,00,D2,00,00,00,00,00,
805971,000002D9,false,Rx,0,8,00,00,00,00,00,00,00,00,
806090,00000239,false,Rx,0,8,00,00,00,00,01,00,00,00,
806332,000002FB,false,Rx,0,8,AD,79,1F,04,D2,16,BD,BD,
806840,0000025B,false,Rx,0,8,48,B1,1F,40,40,20,00,00,
807544,000002EB,false,Rx,0,8,C9,65,0E,07,08,01,00,02,
808176,0000025C,false,Rx,0,8,00,00,22,00,3E,52,16,00,
808606,00000091,false,Rx,0,8,75,F2,1D,16,00,00,00,00,
808949,0000025D,false,Rx,0,8,00,C8,00,00,00,80,C0,70,
809099,00000092,false,Rx,0,8,00,00,00,00,00,00,00,00,
809728,0000025E,false,Rx,0,8,B5,02,0A,00,00,00,00,00,
810193,00000093,false,Rx,0,8,00,00,00,00,00,00,00,00,
810994,000002EC,false,Rx,0,8,00,00,00,00,00,00,00,00,
811438,00000094,false,Rx,0,8,00,00,00,00,00,00,00,00,
811615,000002ED,false,Rx,0,8,00,00,00,00,00,00,00,00,
811859,0000010B,false,Rx,0,8,24,B2,2A,00,00,00,00,05,
811997,000002EE,false,Rx,0,8,00,00,00,00,00,00,00,00,
812232,0000010C,false,Rx,0,8,FF,F9,E7,1F,45,56,49,49,
812471,000002FC,false,Rx,0,8,03,00,14,15,00,00,86,77,
812610,0000010D,false,Rx,0,8,D6,02,00,00,00,00,01,35,
812745,000002FD,false,Rx,0,8,00,00,00,00,00,1C,0F,EA,
813036,0000010E,false,Rx,0,8,00,00,0A,00,00,C0,AB,57,
813159,000002FE,false,Rx,0,8,00,00,72,01,00,28,00,00,
813274,00000384,false,Rx,0,8,3A,9B,03,00,00,FF,00,21,
813557,000000A1,false,Rx,0,8,1B,CD,82,2F,0E,0A,00,00,
813728,000002AB,false,Rx,0,8,A9,D7,20,0C,0C,00,00,00,
814335,000000A2,false,Rx,0,8,00,00,00,00,00,00,00,00,
815018,000002AC,false,Rx,0,8,00,FF,FF,00,00,40,00,50,
815356,000000A3,false,Rx,0,8,00,40,01,00,00,00,00,00,
815807,000001E6,false,Rx,0,8,45,31,3A,02,00,00,00,00,
815980,000002AD,false,Rx,0,8,00,01,00,40,FF,FF,FF,0F,
816185,000001E7,false,Rx,0,8,00,00,22,03,20,01,00,00,
816301,000002AE,false,Rx,0,8,01,00,FF,3F,06,01,00,00,
816788,000001BB,false,Rx,0,8,26,91,3A,02,00,00,00,0A,
817021,000002B6,false,Rx,0,8,FA,47,20,00,00,00,00,40,
817268,000001BC,false,Rx,0,8,32,00,00,00,02,00,00,00,
817465,000002B7,false,Rx,0,8,22,01,86,00,00,04,00,00,
817641,000001BD,false,Rx,0,8,00,00,00,00,00,00,00,00,
817777,000002B8,false,Rx,0,8,FE,F1,0F,00,00,00,00,00,
817971,00000326,false,Rx,0,8,74,3B,1F,00,00,00,00,00,
818180,000002B9,false,Rx,0,8,0A,00,00,00,00,00,00,00,
818303,00000327,false,Rx,0,8,00,00,00,00,05,00,00,00,
818434,000002E1,false,Rx,0,8,BD,58,20,00,00,00,00,40,
818628,00000328,false,Rx,0,8,EA,06,B9,00,00,48,03,00,
818760,000002E2,false,Rx,0,8,FD,00,00,00,00,7E,00,04,
818968,00000329,false,Rx,0,8,C8,16,03,00,00,00,00,00,
819098,000002E3,false,Rx,0,8,00,00,00,00,00,00,72,01,
819305,00000331,false,Rx,0,8,AC,6E,1F,F1,C8,A0,2C,97,
819435,000002E4,false,Rx,0,8,02,00,00,00,00,00,00,00,
819797,00000332,false,Rx,0,8,F8,07,1C,02,00,00,00,00,
820472,00000396,false,Rx,0,8,A3,AF,0E,0F,08,01,00,02,
821350,00000333,false,Rx,0,8,00,00,00,1C,0C,40,20,C8,
821607,00000397,false,Rx,0,8,31,00,00,00,00,00,00,00,
821707,00000334,false,Rx,0,8,C8,00,00,00,F1,8F,F1,8F,
821832,00000398,false,Rx,0,8,00,00,00,00,00,00,00,00,
821947,0000042A,false,Rx,0,8,1D,C5,02,01,00,10,00,00,
822040,00000516,false,Rx,0,8,61,02,00,00,00,00,FF,FF,
822166,000003AA,false,Rx,0,8,FF,00,D0,00,54,00,00,00,
822375,00000121,false,Rx,0,8,E2,82,2B,00,00,00,00,05,
822514,00000122,false,Rx,0,8,FF,D9,67,1F,45,45,45,45,
822627,00000123,false,Rx,0,8,D7,02,00,00,00,00,01,35,
822795,00000124,false,Rx,0,8,00,00,0A,00,00,00,20,40,
829256,00000036,false,Rx,0,8,F3,98,3F,51,00,00,25,01,
829704,00000037,false,Rx,0,8,00,00,00,10,00,40,00,00,
830041,00000038,false,Rx,0,8,04,00,00,00,F0,39,96,D4,
830190,00000039,false,Rx,0,8,00,00,00,00,00,00,00,00,
831290,0000033B,false,Rx,0,8,E9,64,20,00,00,00,00,00,
831449,00000146,false,Rx,0,8,F3,4F,92,10,04,01,00,00,
831634,0000033C,false,Rx,0,8,00,00,00,00,F0,00,00,00,
831885,00000147,false,Rx,0,8,00,04,7D,00,40,00,00,00,
832176,0000033D,false,Rx,0,8,00,00,00,00,00,00,00,00,
832445,00000148,false,Rx,0,8,00,00,00,00,00,7F,40,05,
832679,0000033E,false,Rx,0,8,00,00,00,00,00,00,00,00,
832922,00000149,false,Rx,0,8,00,00,00,00,00,00,00,00,
833094,00000356,false,Rx,0,8,29,E1,10,00,00,00,00,00,
833327,000001B1,false,Rx,0,8,64,3D,92,00,72,00,00,00,
833596,00000357,false,Rx,0,8,00,00,00,00,00,4B,4D,48,
833897,000001B2,false,Rx,0,8,23,00,04,10,0F,03,51,10,
834058,00000358,false,Rx,0,8,35,41,45,4D,52,37,33,4F,
834296,000001B3,false,Rx,0,8,10,20,00,00,73,7F,79,80,
834521,00000359,false,Rx,0,8,51,4F,34,52,4A,35,33,00,
834802,000001B4,false,Rx,0,8,75,82,17,00,00,40,01,00,
835068,00000495,false,Rx,0,8,49,00,00,00,00,00,00,00,
839110,0000011B,false,Rx,0,8,F1,41,3D,05,80,08,A8,02,
839257,0000012B,false,Rx,0,8,B6,BB,3D,06,00,00,08,00,
839564,0000011C,false,Rx,0,8,00,05,20,00,22,00,01,01,
839829,0000012C,false,Rx,0,8,00,00,01,00,00,64,00,00,
839977,00000061,false,Rx,0,8,73,17,85,00,00,00,00,00,
840269,00000062,false,Rx,0,8,02,02,00,02,40,FF,00,FF,
840492,00000445,false,Rx,0,8,77,A0,00,00,00,00,00,18,
840797,00000063,false,Rx,0,8,00,00,05,00,00,08,FD,00,
840989,00000064,false,Rx,0,8,00,00,00,04,FF,FA,00,00,
845232,0000019B,false,Rx,0,8,81,5D,3C,00,00,E4,00,00,
845397,0000019C,false,Rx,0,8,40,20,00,00,00,00,0B,09,
845671,0000019D,false,Rx,0,8,00,10,00,01,00,00,00,00,
845931,0000019E,false,Rx,0,8,15,00,00,00,00,32,00,00,
850919,0000036F,false,Rx,0,8,91,21,01,00,00,00,00,00,
851072,0000037F,false,Rx,0,8,73,A0,92,24,41,02,00,00,
854031,000001AB,false,Rx,0,8,BA,4F,74,50,70,40,00,00,
854228,000001AC,false,Rx,0,8,00,28,00,00,00,00,00,00,
854553,00000111,false,Rx,0,8,4C,B6,2E,01,00,00,00,00,
854851,00000112,false,Rx,0,8,00,00,00,00,00,00,00,00,
855040,00000113,false,Rx,0,8,00,00,00,00,00,00,00,00,
855320,00000114,false,Rx,0,8,00,00,00,00,00,00,00,00,
857051,00000487,false,Rx,1,8,00,00,00,00,00,00,00,00,
857426,0000010B,false,Rx,0,8,5B,9E,2F,00,00,00,00,05,
857566,0000010C,false,Rx,0,8,FF,F9,E7,1F,45,56,49,49,
857903,00000642,false,Rx,1,8,00,00,00,00,00,00,00,00,
858230,00000645,false,Rx,1,8,C7,35,06,79,E0,32,56,00,
858468,0000010D,false,Rx,0,8,D6,02,00,00,00,00,01,35,
858602,0000010E,false,Rx,0,8,00,00,0A,00,00,C0,AB,57,
860172,000000A1,false,Rx,0,8,14,26,87,2F,0E,0A,00,00,
860411,000000A2,false,Rx,0,8,00,00,00,00,00,00,00,00,
860700,000000A3,false,Rx,0,8,00,40,01,00,00,00,00,00,
861002,00000256,false,Rx,0,8,82,05,1D,15,00,00,F0,00,
861139,000002E6,false,Rx,0,8,4E,A1,1D,01,00,00,00,15,
861378,00000257,false,Rx,0,8,00,8B,40,18,84,07,00,8C,
861567,000002E7,false,Rx,0,8,0A,00,00,00,00,00,00,00,
861877,00000258,false,Rx,0,8,04,2F,1C,00,10,15,00,1C,
862165,000002E8,false,Rx,0,8,00,00,00,00,00,00,00,00,
862310,00000259,false,Rx,0,8,4A,05,8C,3C,2C,02,00,00,
862627,000002E9,false,Rx,0,8,00,00,00,00,00,00,00,00,
862783,000003B6,false,Rx,0,8,8D,5D,0E,00,00,00,00,45,
863083,000003B7,false,Rx,0,8,45,00,00,00,00,00,00,00,
863393,000003B8,false,Rx,0,8,D2,02,00,00,00,00,69,0E,
863677,000003B9,false,Rx,0,8,00,00,00,00,00,00,00,00,
868722,000002BF,false,Rx,0,8,FF,FF,FF,00,00,00,00,00,
868870,0000047F,false,Rx,0,8,F3,FF,FF,FF,FF,3F,FF,FF,
869032,00000653,false,Rx,0,8,0A,19,03,01,02,2A,00,00,
870588,00000121,false,Rx,0,8,9F,47,30,00,00,00,00,05,
870719,00000122,false,Rx,0,8,FF,D9,67,1F,45,45,45,45,
871468,00000123,false,Rx,0,8,D7,02,00,00,00,00,01,35,
871868,00000405,false,Rx,0,8,0C,50,00,00,00,01,00,00,
872164,00000124,false,Rx,0,8,00,00,0A,00,00,00,20,40,
872321,00000410,false,Rx,0,8,64,50,54,3C,5C,6A,FF,FF,
872815,00000413,false,Rx,0,8,FD,60,00,41,00,00,00,00,
873683,00000411,false,Rx,0,8,CA,71,50,51,00,00,44,04,
873957,00000414,false,Rx,0,8,F0,10,00,00,28,00,00,00,
874090,00000412,false,Rx,0,8,A3,C0,00,00,00,00,00,00,
874409,00000416,false,Rx,0,8,55,00,00,00,00,00,00,00,
874530,00000417,false,Rx,0,8,B7,70,00,00,00,01,00,00,
874931,00000418,false,Rx,0,8,1F,50,00,00,14,0C,00,00,
875099,00000419,false,Rx,0,8,44,B0,FD,D5,81,7A,85,00,
878766,00000401,false,Rx,0,8,C6,10,10,00,00,04,00,00,
878947,00000036,false,Rx,0,8,52,E7,44,51,00,00,25,01,
879326,00000037,false,Rx,0,8,00,00,00,10,00,40,00,00,
879499,00000038,false,Rx,0,8,04,00,00,00,F0,39,96,D4,
879834,00000039,false,Rx,0,8,00,00,00,00,00,00,00,00,
880371,00000445,false,Rx,0,8,77,A0,00,00,00,00,00,18,
882536,00000448,false,Rx,0,8,7F,00,00,00,00,00,00,00,
888960,00000161,false,Rx,0,8,6F,31,A1,03,00,00,00,02,
889448,0000011B,false,Rx,0,8,DD,D1,42,05,80,08,A8,02,
889898,00000162,false,Rx,0,8,FF,FC,01,00,00,00,00,00,
890087,0000011C,false,Rx,0,8,00,05,20,00,22,00,01,01,
890254,0000012B,false,Rx,0,8,9A,2B,42,06,00,00,08,00,
890408,00000061,false,Rx,0,8,F2,63,8A,00,00,00,00,00,
890627,0000012C,false,Rx,0,8,00,00,01,00,00,64,00,00,
890853,00000062,false,Rx,0,8,02,02,00,02,40,FF,00,FF,
891019,00000063,false,Rx,0,8,00,00,05,00,00,08,FD,00,
891254,000001FB,false,Rx,0,8,48,08,20,00,32,32,00,00,
891491,00000064,false,Rx,0,8,00,00,00,04,FF,FA,00,00,
891840,000001FC,false,Rx,0,8,00,00,00,00,00,00,19,00,
892470,000001FD,false,Rx,0,8,00,1A,03,00,00,00,00,00,
893457,000001FE,false,Rx,0,8,00,00,00,00,00,00,00,00,
895494,0000019B,false,Rx,0,8,95,E5,41,00,00,E4,00,00,
895893,0000019C,false,Rx,0,8,40,20,00,00,00,00,0B,09,
896206,0000019D,false,Rx,0,8,00,10,00,01,00,00,00,00,
896331,0000019E,false,Rx,0,8,15,00,00,00,00,32,00,00,
897604,000004A3,false,Rx,1,8,80,00,48,0B,3E,00,00,00,
897897,000004A4,false,Rx,1,8,FF,FF,FF,00,00,00,00,00,
898943,000001A1,false,Rx,0,8,E0,DC,A1,FE,F7,7F,64,00,
899123,000001A2,false,Rx,0,8,00,00,00,00,00,08,00,00,
899407,000001A3,false,Rx,0,8,FF,F3,3F,00,00,00,00,00,
899717,000001A4,false,Rx,0,8,FE,07,00,00,00,00,00,00,
901103,00000251,false,Rx,0,8,56,61,1E,00,00,00,00,00,
901565,00000252,false,Rx,0,8,00,00,00,00,03,00,00,00,
901738,00000253,false,Rx,0,8,00,00,00,50,50,00,80,50,
906378,00000091,false,Rx,0,8,BF,19,1E,16,00,00,00,00,
906539,00000092,false,Rx,0,8,00,00,00,00,00,00,00,00,
906947,00000093,false,Rx,0,8,00,00,00,00,00,00,00,00,
907365,00000094,false,Rx,0,8,00,00,00,00,00,00,00,00,
907722,0000010B,false,Rx,0,8,26,5B,34,00,00,00,00,05,
908038,0000010C,false,Rx,0,8,FF,F9,E7,1F,45,56,49,49,
908179,0000010D,false,Rx,0,8,D6,02,00,00,00,00,01,35,
908354,0000010E,false,Rx,0,8,00,00,0A,00,00,C0,AB,57,
910524,000000A1,false,Rx,0,8,28,D7,8C,2F,0E,0A,00,00,
910992,000000A2,false,Rx,0,8,00,00,00,00,00,00,00,00,
911260,000000A3,false,Rx,0,8,00,40,01,00,00,00,00,00,
911495,000002C1,false,Rx,0,8,89,45,11,21,00,41,00,A1,
911647,000002C2,false,Rx,0,8,40,00,00,00,00,00,00,00,
911871,000002C3,false,Rx,0,8,00,00,00,00,00,00,00,00,
911991,000002C4,false,Rx,0,8,00,00,00,00,00,00,00,00,
918001,00000561,false,Rx,0,8,63,02,00,00,00,00,FF,FF,
920354,00000445,false,Rx,0,8,77,A0,00,00,00,00,00,18,
920683,00000121,false,Rx,0,8,E0,6B,35,00,00,00,00,05,
921033,000001E1,false,Rx,0,8,5B,6D,41,02,00,00,00,00,
921210,00000122,false,Rx,0,8,FF,D9,67,1F,45,45,45,45,
921866,000001E2,false,Rx,0,8,00,00,00,00,00,00,00,00,
922298,00000123,false,Rx,0,8,D7,02,00,00,00,00,01,35,
922608,00000382,false,Rx,0,8,F8,23,08,00,00,01,08,00,
922723,00000124,false,Rx,0,8,00,00,0A,00,00,00,20,40,
923106,000003B0,false,Rx,0,8,72,37,FF,C7,00,00,03,C0,
923341,000003B1,false,Rx,0,8,9B,3C,FF,40,00,00,20,00,
924056,000003B2,false,Rx,0,8,36,15,FF,02,29,2F,34,00,
929182,00000036,false,Rx,0,8,5F,21,49,51,00,00,25,01,
929328,00000037,false,Rx,0,8,00,00,00,10,00,40,00,00,
929760,00000038,false,Rx,0,8,04,00,00,00,F0,39,96,D4,
929984,00000039,false,Rx,0,8,00,00,00,00,00,00,00,00,
931418,00000146,false,Rx,0,8,8C,63,97,10,04,01,00,00,
931549,00000415,false,Rx,0,8,40,13,10,00,08,01,00,00,
931765,00000147,false,Rx,0,8,00,04,7D,00,40,00,00,00,
932089,00000148,false,Rx,0,8,00,00,00,00,00,7F,40,05,
932320,00000149,false,Rx,0,8,00,00,00,00,00,00,00,00,
933181,000001B1,false,Rx,0,8,1B,11,97,00,72,00,00,00,
933496,000001B2,false,Rx,0,8,23,00,04,10,0F,03,51,10,
933669,000001B3,false,Rx,0,8,10,20,00,00,73,7F,79,80,
933942,000001B4,false,Rx,0,8,75,82,17,00,00,40,01,00,
934350,00000427,false,Rx,0,8,1D,86,FF,00,80,0A,00,00,
934648,000001F1,false,Rx,0,8,DD,71,B6,01,00,00,28,00,
934882,000001F2,false,Rx,0,8,00,00,00,00,00,00,00,00,
935293,000003A1,false,Rx,0,8,A1,F1,4F,00,FF,FF,FF,FF,
935606,000003A2,false,Rx,0,8,00,00,00,00,00,00,00,00,
939107,0000011B,false,Rx,0,8,2B,F9,47,05,80,08,A8,02,
939255,0000012B,false,Rx,0,8,6C,03,47,06,00,00,08,00,
939711,0000011C,false,Rx,0,8,00,05,20,00,22,00,01,01,
940434,0000012C,false,Rx,0,8,00,00,01,00,00,64,00,00,
940886,00000061,false,Rx,0,8,8D,4F,8F,00,00,00,00,00,
941311,00000062,false,Rx,0,8,02,02,00,02,40,FF,00,FF,
941477,00000063,false,Rx,0,8,00,00,05,00,00,08,FD,00,
941678,00000064,false,Rx,0,8,00,00,00,04,FF,FA,00,00,
945381,0000019B,false,Rx,0,8,66,7B,46,00,00,E4,00,00,
945508,0000019C,false,Rx,0,8,40,20,00,00,00,00,0B,09,
945993,0000019D,false,Rx,0,8,00,10,00,01,00,00,00,00,
946408,0000019E,false,Rx,0,8,15,00,00,00,00,32,00,00,
950799,000000FF,false,Rx,0,8,CB,10,00,00,00,00,02,00,
951262,0000036F,false,Rx,0,8,28,31,01,00,00,00,00,00,
951655,00000419,false,Rx,0,8,0A,C0,FC,D5,81,7A,85,00,
952070,0000037F,false,Rx,0,8,CA,B0,92,24,41,02,00,00,
952341,000003C3,false,Rx,0,8,45,10,31,30,36,00,00,00,
952473,00000394,false,Rx,0,8,2A,22,1A,49,00,00,00,00,
953205,000003E0,false,Rx,0,8,A8,80,01,00,54,03,00,00,
953775,000003E5,false,Rx,0,8,27,60,01,00,00,00,00,00,
954281,000003E6,false,Rx,0,8,6F,E0,00,00,00,00,00,00,
954746,0000041A,false,Rx,0,8,D4,80,12,00,50,01,00,00,
954917,0000041B,false,Rx,0,8,17,80,00,00,00,00,00,00,
955137,0000041C,false,Rx,0,8,E9,80,E0,00,00,00,00,00,
955249,00000422,false,Rx,0,8,E2,B0,01,00,00,00,04,00,
955410,000001AB,false,Rx,0,8,C9,76,79,50,70,40,00,00,
955521,000001AC,false,Rx,0,8,00,28,00,00,00,00,00,00,
955694,00000432,false,Rx,0,8,03,20,02,00,00,00,00,00,
955878,00000435,false,Rx,0,8,3E,50,00,40,00,00,00,00,
956007,00000442,false,Rx,0,8,CE,20,11,81,00,00,00,00,
956591,00000444,false,Rx,0,8,AA,E0,20,50,55,50,00,00,
957279,00000445,false,Rx,0,8,77,A0,00,00,00,00,00,18,
957568,00000464,false,Rx,0,8,7C,D0,F0,FF,38,7F,05,00,
957757,0000010B,false,Rx,0,8,2B,9D,39,00,00,00,00,05,
957858,0000010C,false,Rx,0,8,FF,F9,E7,1F,45,56,49,49,
957969,0000010D,false,Rx,0,8,D6,02,00,00,00,00,01,35,
958175,0000010E,false,Rx,0,8,00,00,0A,00,00,C0,AB,57,
960194,000000A1,false,Rx,0,8,4D,D4,91,2F,0E,0A,00,00,
960447,000000A2,false,Rx,0,8,00,00,00,00,00,00,00,00,
960995,000000A3,false,Rx,0,8,00,40,01,00,00,00,00,00,
961883,000001E6,false,Rx,0,8,DA,59,3D,02,00,00,00,00,
962305,000001BB,false,Rx,0,8,2F,14,3D,02,00,00,00,0A,
962642,000001BC,false,Rx,0,8,32,00,00,00,02,00,00,00,
962791,000001BD,false,Rx,0,8,00,00,00,00,00,00,00,00,
962894,000001E7,false,Rx,0,8,00,00,22,03,20,01,00,00,
968097,000000C5,false,Rx,1,8,00,00,00,00,00,00,00,00,
968421,00000244,false,Rx,1,8,FF,FF,FF,FF,FF,FF,FF,FF,
968760,000003E4,false,Rx,1,8,FE,00,00,00,00,00,00,00,
968887,000004B4,false,Rx,1,8,00,00,00,00,00,00,00,00,
969148,000004B5,false,Rx,1,8,08,00,F0,07,00,00,00,00,
969436,000004B7,false,Rx,1,8,08,00,F0,07,00,00,00,00,
969741,000004CA,false,Rx,1,8,00,00,00,00,00,00,00,00,
970019,000004CC,false,Rx,1,8,08,00,00,06,00,00,03,00,
970326,000004CE,false,Rx,1,8,14,01,FF,FF,FF,FF,FF,FF,
970674,000004D7,false,Rx,1,8,23,01,00,00,00,00,00,00,
971017,00000121,false,Rx,0,8,61,1F,3A,00,00,00,00,05,
971593,000004D8,false,Rx,1,8,41,10,F0,F0,40,F2,1E,CC,
971742,000004DD,false,Rx,1,8,00,00,FE,00,04,00,00,00,
972156,00000122,false,Rx,0,8,FF,D9,67,1F,45,45,45,45,
972368,000004DF,false,Rx,1,8,FF,03,0C,3F,00,00,00,00,
972725,000004E7,false,Rx,1,8,00,30,00,00,00,00,69,0F,
973067,00000123,false,Rx,0,8,D7,02,00,00,00,00,01,35,
973239,000004E8,false,Rx,1,8,FF,FF,FF,05,FF,FF,FF,00,
973353,00000124,false,Rx,0,8,00,00,0A,00,00,00,20,40,
973588,000004E9,false,Rx,1,8,12,00,00,34,00,00,50,00,
973734,000004EA,false,Rx,1,8,67,00,00,89,00,00,00,00,
973871,000004EB,false,Rx,1,8,40,90,3B,0C,80,00,00,00,
974224,000004EC,false,Rx,1,8,00,00,00,00,00,00,00,00,
974428,000004ED,false,Rx,1,8,00,00,00,00,00,FF,FF,1F,
974680,000004EE,false,Rx,1,8,FF,FF,00,00,00,00,00,00,
974940,000004EF,false,Rx,1,8,60,00,60,00,29,14,00,00,
975175,0000063D,false,Rx,1,8,00,80,00,00,00,00,00,00,
975445,0000063E,false,Rx,1,8,FF,FF,FF,FF,FF,FF,FF,FF,
975716,0000063F,false,Rx,1,8,00,10,00,C4,FF,00,00,00,
975989,00000640,false,Rx,1,8,FF,FF,FF,00,FF,FF,FF,00,
976223,00000641,false,Rx,1,8,FF,FF,FF,FF,0F,FF,FF,FF,
976349,00000646,false,Rx,1,8,00,00,00,80,01,00,00,00,
979533,00000036,false,Rx,0,8,AC,BF,4E,51,00,00,25,01,
979855,00000037,false,Rx,0,8,00,00,00,10,00,40,00,00,
979996,00000038,false,Rx,0,8,04,00,00,00,F0,39,96,D4,
980403,00000039,false,Rx,0,8,00,00,00,00,00,00,00,00,
985136,00000475,false,Rx,0,8,12,00,00,00,00,00,00,00,
985286,00000496,false,Rx,0,8,12,00,00,00,00,00,00,00,
988973,00000161,false,Rx,0,8,F0,59,A6,03,00,00,00,02,
989128,0000011B,false,Rx,0,8,E3,00,4C,05,80,08,A8,02,
989516,00000162,false,Rx,0,8,FF,FC,01,00,00,00,00,00,
989684,0000011C,false,Rx,0,8,00,05,20,00,22,00,01,01,
989890,0000012B,false,Rx,0,8,A4,FA,4C,06,00,00,08,00,
990038,00000061,false,Rx,0,8,F0,8A,94,00,00,00,00,00,
990683,0000012C,false,Rx,0,8,00,00,01,00,00,64,00,00,
991319,00000062,false,Rx,0,8,02,02,00,02,40,FF,00,FF,
991764,0000030B,false,Rx,0,8,56,E7,21,00,04,00,00,00,
992136,00000063,false,Rx,0,8,00,00,05,00,00,08,FD,00,
992550,0000030C,false,Rx,0,8,00,00,0C,00,2C,00,A0,0F,
993022,00000064,false,Rx,0,8,00,00,00,04,FF,FA,00,00,
993455,0000030D,false,Rx,0,8,00,00,00,00,3F,00,00,00,
993703,00000419,false,Rx,0,8,0A,C0,FC,D5,81,7A,85,00,
993809,0000030E,false,Rx,0,8,00,00,20,05,21,00,00,00,
994841,00000226,false,Rx,0,8,56,15,4B,FF,B4,20,09,42,
995166,00000316,false,Rx,0,8,87,0A,25,40,0B,80,0A,00,
995327,00000227,false,Rx,0,8,02,77,4F,09,00,F2,6F,03,
995778,00000317,false,Rx,0,8,00,00,05,00,00,00,00,00,
996363,0000019B,false,Rx,0,8,6B,BD,4B,00,00,E4,00,00,
996719,000003CB,false,Rx,0,8,36,14,00,F4,00,00,00,00,
996852,0000019C,false,Rx,0,8,40,20,00,00,00,00,0B,09,
997467,000003CC,false,Rx,0,8,36,31,34,30,33,34,31,00,
997961,0000019D,false,Rx,0,8,00,10,00,01,00,00,00,00,
998631,00000472,false,Rx,0,8,5C,EC,00,40,08,41,00,45,
999118,0000019E,false,Rx,0,8,15,00,00,00,00,32,00,00,
999571,00000380,false,Rx,0,8,97,8B,03,00,00,00,00,01,
1000052,00000473,false,Rx,0,8,5F,24,00,25,00,00,00,78,
1000215,000002FF,false,Rx,0,8,E2,01,00,F1,3F,00,00,00,
1000480,00000474,false,Rx,0,8,51,AE,00,00,00,00,00,0C,
1000771,000001A1,false,Rx,0,8,13,42,A6,FE,F7,7F,64,00,
1000907,000001A2,false,Rx,0,8,00,00,00,00,00,08,00,00,
1001101,000001A3,false,Rx,0,8,FF,F3,3F,00,00,00,00,00,
1002014,000001A4,false,Rx,0,8,FE,07,00,00,00,00,00,00,
1002422,00000383,false,Rx,0,8,67,25,02,00,02,00,00,00,
1002582,00000151,false,Rx,0,8,5B,FC,21,C8,C8,00,28,15,
1002760,000001F6,false,Rx,0,8,05,75,21,00,00,00,00,0D,
1003183,00000152,false,Rx,0,8,14,15,14,00,32,00,00,00,
1003837,000001F7,false,Rx,0,8,22,00,EA,06,00,00,00,00,
1004540,00000153,false,Rx,0,8,00,00,00,00,00,00,00,00,
1004901,000001F8,false,Rx,0,8,00,48,03,16,03,00,00,00,
1005106,00000154,false,Rx,0,8,00,00,00,00,00,00,00,00,
1005542,000001F9,false,Rx,0,8,B9,00,C8,C8,14,00,B9,00,
1006276,000002D6,false,Rx,0,8,E8,C0,0F,00,00,00,00,00,
1006702,00000236,false,Rx,0,8,2F,26,21,00,34,6C,34,6C,
1007109,000002D7,false,Rx,0,8,00,00,00,00,03,00,00,00,
1007605,00000237,false,Rx,0,8,00,05,78,00,00,66,1C,00,
1008090,000002D8,false,Rx,0,8,00,00,00,00,00,00,38,44,
1008568,00000238,false,Rx,0,8,00,00,D2,00,00,00,00,00,
1008938,000002D9,false,Rx,0,8,00,00,00,00,00,00,00,00,
1009151,00000239,false,Rx,0,8,00,00,00,00,01,00,00,00,
1009589,000002FB,false,Rx,0,8,04,09,21,04,D2,16,BD,BD,
1010316,0000025B,false,Rx,0,8,8C,CE,21,40,40,20,00,00,
1010782,000002EB,false,Rx,0,8,6C,74,0F,07,08,01,00,02,
1011185,0000025C,false,Rx,0,8,00,00,22,00,3E,52,16,00,
1011965,00000091,false,Rx,0,8,F9,40,1F,16,00,00,00,00,
1012143,0000025D,false,Rx,0,8,00,C8,00,00,00,80,C0,70,
1012848,00000092,false,Rx,0,8,00,00,00,00,00,00,00,00,
1013255,0000025E,false,Rx,0,8,B5,02,0E,00,00,00,00,00,
1013602,00000093,false,Rx,0,8,00,00,00,00,00,00,00,00,
1013853,000002EC,false,Rx,0,8,02,00,00,00,00,00,00,00,
1014190,00000094,false,Rx,0,8,00,00,00,00,00,00,00,00,
1014536,000002ED,false,Rx,0,8,00,00,00,00,00,00,00,00,
1014664,0000010B,false,Rx,0,8,D8,03,3E,00,00,00,00,05,
1014904,000002EE,false,Rx,0,8,00,00,00,00,00,00,00,00,
1015382,0000010C,false,Rx,0,8,FF,F9,E7,1F,45,56,49,49,
1016021,000002FC,false,Rx,0,8,03,00,14,15,00,00,86,77,
1016714,0000010D,false,Rx,0,8,D6,02,00,00,00,00,01,35,
1017185,000002FD,false,Rx,0,8,00,00,00,00,00,1C,0F,EA,
1017606,0000010E,false,Rx,0,8,00,00,0A,00,00,C0,AB,57,
1018004,000002FE,false,Rx,0,8,00,00,72,01,00,28,00,00,
1018504,00000384,false,Rx,0,8,3A,9B,03,00,00,FF,00,21,
1018964,000000A1,false,Rx,0,8,44,51,96,2F,0E,0A,00,00,
1019406,000002AB,false,Rx,0,8,25,65,22,0C,0C,00,00,00,
1019969,000000A2,false,Rx,0,8,00,00,00,00,00,00,00,00,
1020122,000002AC,false,Rx,0,8,00,FF,FF,00,00,40,00,50,
1020273,000000A3,false,Rx,0,8,00,40,01,00,00,00,00,00,
1020543,000002AD,false,Rx,0,8,00,01,00,40,FF,FF,FF,0F,
1020668,00000326,false,Rx,0,8,DD,4B,21,00,00,00,00,00,
1020960,000002AE,false,Rx,0,8,01,00,FF,3F,06,01,00,00,
1021183,00000327,false,Rx,0,8,00,00,00,00,05,00,00,00,
1021446,000002B6,false,Rx,0,8,76,F5,22,00,00,00,00,40,
1021735,00000328,false,Rx,0,8,EA,06,B9,00,00,48,03,00,
1022185,000002B7,false,Rx,0,8,22,01,86,00,00,04,00,00,
1022332,00000329,false,Rx,0,8,C8,16,03,00,00,00,00,00,
1022441,000002B8,false,Rx,0,8,FE,F1,0F,00,00,00,00,00,
1023025,00000331,false,Rx,0,8,05,1E,21,F1,C8,A0,2C,97,
1023651,000002B9,false,Rx,0,8,0A,00,00,00,00,00,00,00,
1024075,00000332,false,Rx,0,8,F8,07,1C,02,00,00,00,00,
1024989,000002E1,false,Rx,0,8,31,EA,22,00,00,00,00,40,
1025432,00000333,false,Rx,0,8,00,00,00,1C,0C,40,20,C8,
1025835,000002E2,false,Rx,0,8,FD,00,00,00,00,7E,00,04,
1026160,00000334,false,Rx,0,8,C8,00,00,00,F1,8F,F1,8F,
1026471,000002E3,false,Rx,0,8,00,00,00,00,00,00,72,01,
1026673,00000396,false,Rx,0,8,F8,9A,0F,0F,08,01,00,02,
1027024,000002E4,false,Rx,0,8,02,00,00,00,00,00,00,00,
1027664,00000397,false,Rx,0,8,25,00,00,00,00,00,00,00,
1028084,00000563,false,Rx,1,8,65,02,00,00,00,00,FF,FF,
1028537,0000042A,false,Rx,0,8,1D,C5,02,01,00,10,00,00,
