Time Stamp,ID,Extended,Dir,Bus,LEN,D1,D2,D3,D4,D5,D6,D7,D8
804724,000003B2,false,Rx,0,8,36,15,FF,02,29,2F,34,00,
804939,00000427,false,Rx,0,8,1D,86,FF,00,80,0A,00,00,
806515,00000146,false,Rx,0,8,7B,26,EB,10,04,05,00,00,
806638,00000147,false,Rx,0,8,01,04,7D,00,40,AB,08,00,
806695,00000148,false,Rx,0,8,00,00,42,00,1E,7C,40,05,
806891,000000A1,false,Rx,0,8,A8,F2,D2,8A,D4,EC,A2,00,
807083,00000149,false,Rx,0,8,00,38,00,CC,00,00,00,00,
807331,000000A2,false,Rx,0,8,00,00,00,00,00,00,00,00,
807578,000000A3,false,Rx,0,8,00,40,01,00,00,00,00,00,
807904,000001B1,false,Rx,0,8,43,C0,EB,00,72,00,00,00,
808162,000001B2,false,Rx,0,8,23,00,04,0D,0F,01,50,0F,
808415,000001B3,false,Rx,0,8,10,30,34,00,63,7F,6F,80,
808672,000001B4,false,Rx,0,8,6B,84,10,00,00,41,00,00,
811465,000001A1,false,Rx,0,8,66,88,F8,FE,F7,7F,64,00,
811760,000001A2,false,Rx,0,8,00,00,00,00,00,08,00,00,
811986,000001A3,false,Rx,0,8,FF,F3,3F,00,00,00,00,00,
812238,000001A4,false,Rx,0,8,FE,07,00,00,00,00,00,00,
814945,00000036,false,Rx,0,8,2D,93,F1,51,00,00,25,05,
815123,00000037,false,Rx,0,8,05,00,00,10,00,40,00,00,
815364,00000038,false,Rx,0,8,04,00,00,00,B0,39,96,D4,
815663,00000039,false,Rx,0,8,00,00,00,00,00,00,00,00,
821175,0000011B,false,Rx,0,8,B2,BC,F2,05,80,08,A8,02,
821326,0000012B,false,Rx,0,8,F5,46,F2,06,00,00,08,00,
821571,0000011C,false,Rx,0,8,00,05,20,00,22,00,01,01,
821826,0000012C,false,Rx,0,8,00,00,01,00,00,64,00,00,
822384,00000405,false,Rx,0,8,04,20,00,00,00,01,00,00,
822674,00000410,false,Rx,0,8,13,50,54,3C,B4,6A,FF,FF,
823029,00000411,false,Rx,0,8,60,11,50,00,00,00,44,04,
823247,00000412,false,Rx,0,8,F9,70,00,00,00,00,04,00,
823480,00000413,false,Rx,0,8,F5,10,00,41,00,00,00,00,
823749,00000414,false,Rx,0,8,87,A0,00,00,28,00,00,00,
824046,00000416,false,Rx,0,8,55,00,00,00,00,00,00,00,
824315,00000417,false,Rx,0,8,B7,70,00,00,00,01,00,00,
824566,00000418,false,Rx,0,8,D0,80,00,00,12,4C,00,00,
824866,00000419,false,Rx,0,8,0F,90,8E,D5,71,7A,84,00,
827077,00000256,false,Rx,0,8,A6,13,62,15,00,00,90,01,
827249,000002E6,false,Rx,0,8,D6,AB,62,01,00,00,00,15,
827472,00000257,false,Rx,0,8,00,8C,40,26,85,07,00,8C,
827737,000002E7,false,Rx,0,8,0A,00,00,00,00,00,00,00,
827969,00000258,false,Rx,0,8,04,26,1D,00,10,15,00,1C,
828211,000002E8,false,Rx,0,8,00,00,00,00,00,00,00,00,
828455,00000259,false,Rx,0,8,8E,05,8F,3C,2C,02,00,00,
828702,000002E9,false,Rx,0,8,00,00,00,00,00,00,00,00,
832606,00000516,false,Rx,0,8,61,02,00,00,00,00,FF,FF,
836910,000003A1,false,Rx,0,8,9B,3C,7E,00,FF,FF,FF,FF,
837049,000003A2,false,Rx,0,8,00,00,00,00,00,00,00,00,
840287,0000019B,false,Rx,0,8,15,FE,F1,00,00,E4,00,00,
840466,0000019C,false,Rx,0,8,40,20,00,00,00,00,0B,09,
840751,0000019D,false,Rx,0,8,00,10,00,01,00,00,00,00,
841005,0000019E,false,Rx,0,8,15,00,00,00,00,32,00,00,
841383,00000161,false,Rx,0,8,85,67,FA,03,00,00,00,02,
841651,00000162,false,Rx,0,8,FF,FC,01,00,00,00,00,00,
843026,0000010B,false,Rx,0,8,A9,B0,F4,00,00,00,00,05,
843173,0000010C,false,Rx,0,8,FF,F9,E7,1F,43,48,44,44,
843458,0000010D,false,Rx,0,8,EF,02,00,00,00,00,00,35,
843837,0000010E,false,Rx,0,8,00,00,1E,00,00,C0,AB,57,
846293,00000061,false,Rx,0,8,75,28,D6,00,00,00,00,00,
846489,00000062,false,Rx,0,8,02,02,00,02,40,FF,00,FF,
846773,00000063,false,Rx,0,8,05,01,15,00,00,08,FD,00,
847032,00000064,false,Rx,0,8,00,00,00,04,FF,FA,00,00,
848436,00000121,false,Rx,0,8,ED,A1,F4,00,00,00,00,05,
848612,00000475,false,Rx,0,8,12,00,00,00,00,00,00,00,
848934,00000122,false,Rx,0,8,FF,D9,67,1F,43,44,43,43,
849426,00000485,false,Rx,0,8,00,40,11,02,00,00,00,00,
849730,00000123,false,Rx,0,8,F0,02,00,00,00,00,00,35,
849837,00000496,false,Rx,0,8,12,00,00,00,00,00,00,00,
849892,00000124,false,Rx,0,8,00,00,0A,00,00,00,20,40,
851390,00000111,false,Rx,0,8,B5,CE,72,01,00,00,00,00,
851479,000000FF,false,Rx,0,8,CB,10,00,00,00,00,02,00,
851676,00000112,false,Rx,0,8,00,00,00,00,00,00,00,00,
851916,00000113,false,Rx,0,8,00,00,00,00,00,00,00,00,
852205,00000114,false,Rx,0,8,00,00,00,00,00,00,00,00,
852448,00000394,false,Rx,0,8,2A,22,1A,49,00,00,00,00,
852874,000001E6,false,Rx,0,8,55,41,C6,02,00,00,00,00,
852953,000003C3,false,Rx,0,8,45,10,31,30,36,00,00,00,
853310,000001BB,false,Rx,0,8,51,16,C6,02,00,00,00,0A,
854036,000003E0,false,Rx,0,8,01,70,01,00,54,03,00,00,
854128,000001BC,false,Rx,0,8,32,00,00,00,02,00,00,00,
854529,000003E5,false,Rx,0,8,9E,70,01,00,00,00,00,00,
854608,000001BD,false,Rx,0,8,00,00,00,00,00,00,00,00,
854663,0000030B,false,Rx,0,8,EA,B2,65,00,04,00,00,00,
854725,000001E7,false,Rx,0,8,00,00,22,03,20,01,00,00,
854876,0000030C,false,Rx,0,8,00,00,0C,00,2C,00,A0,0F,
855116,000003E6,false,Rx,0,8,A1,40,00,00,00,00,00,00,
855355,0000030D,false,Rx,0,8,00,00,00,00,42,00,00,00,
855596,0000041A,false,Rx,0,8,D4,80,12,00,50,01,00,00,
855849,0000030E,false,Rx,0,8,00,00,28,05,21,00,00,00,
856093,0000041B,false,Rx,0,8,BE,70,00,00,00,00,00,00,
856580,0000041C,false,Rx,0,8,84,D0,E8,00,00,00,00,00,
856708,000000A1,false,Rx,0,8,A7,19,D7,8A,D4,EC,A2,00,
856993,00000422,false,Rx,0,8,FA,20,01,00,00,00,04,00,
857305,000000A2,false,Rx,0,8,00,00,00,00,00,00,00,00,
857378,00000432,false,Rx,0,8,03,20,02,00,00,00,00,00,
857689,000000A3,false,Rx,0,8,00,40,01,00,00,00,00,00,
857866,00000435,false,Rx,0,8,0E,10,00,50,00,00,00,00,
858139,00000442,false,Rx,0,8,CE,20,11,81,00,00,00,00,
858398,00000444,false,Rx,0,8,0B,60,20,50,55,50,00,00,
858643,000001AB,false,Rx,0,8,EC,B0,F6,40,70,90,00,00,
858867,00000445,false,Rx,0,8,77,A0,00,00,00,00,00,18,
859116,000001AC,false,Rx,0,8,00,28,00,00,00,00,00,00,
859335,00000464,false,Rx,0,8,6C,30,F0,FF,38,7F,05,00,
865131,00000036,false,Rx,0,8,DE,0D,F6,51,00,00,25,05,
865221,00000037,false,Rx,0,8,05,00,00,10,00,40,00,00,
865438,00000038,false,Rx,0,8,04,00,00,00,B0,39,96,D4,
866059,00000039,false,Rx,0,8,00,00,00,00,00,00,00,00,
871577,0000011B,false,Rx,0,8,44,94,F7,05,80,08,A8,02,
871702,0000012B,false,Rx,0,8,03,6E,F7,06,00,00,08,00,
872027,0000011C,false,Rx,0,8,00,05,20,00,22,00,01,01,
872146,0000012C,false,Rx,0,8,00,00,01,00,00,64,00,00,
874142,00000091,false,Rx,0,8,BE,91,63,3A,00,00,00,00,
874244,00000092,false,Rx,0,8,2A,00,00,00,A0,02,00,00,
874553,00000093,false,Rx,0,8,00,00,00,00,00,00,00,00,
874653,00000094,false,Rx,0,8,00,00,00,00,00,00,00,00,
875608,00000487,false,Rx,1,8,00,00,00,00,00,00,00,00,
876059,00000642,false,Rx,1,8,FF,FF,FF,FF,FF,FF,00,00,
876313,00000645,false,Rx,1,8,8B,84,07,B9,C9,3B,56,00,
877793,00000226,false,Rx,0,8,7A,46,33,FF,FA,20,09,42,
877903,000002FF,false,Rx,0,8,E2,01,00,F1,3F,00,00,00,
878154,00000227,false,Rx,0,8,02,C4,07,09,00,F1,6F,03,
878321,00000316,false,Rx,0,8,CE,33,9B,A4,0F,80,0A,00,
878574,00000472,false,Rx,0,8,5C,EC,00,40,08,41,00,45,
878805,00000317,false,Rx,0,8,00,00,05,00,00,00,00,00,
879040,00000473,false,Rx,0,8,5F,24,00,25,00,00,00,78,
879309,00000474,false,Rx,0,8,53,98,00,00,00,00,00,10,
886878,000003AA,false,Rx,0,8,FF,00,D0,00,54,00,00,00,
890418,0000019B,false,Rx,0,8,E6,60,F6,00,00,E4,00,00,
890518,0000019C,false,Rx,0,8,40,20,00,00,00,00,0B,09,
890880,0000019D,false,Rx,0,8,00,10,00,01,00,00,00,00,
891061,0000019E,false,Rx,0,8,15,00,00,00,00,32,00,00,
893281,0000010B,false,Rx,0,8,A4,76,F9,00,00,00,00,05,
893428,0000010C,false,Rx,0,8,FF,F9,E7,1F,43,48,44,44,
893473,0000010D,false,Rx,0,8,EF,02,00,00,00,00,00,35,
893835,0000010E,false,Rx,0,8,00,00,1E,00,00,C0,AB,57,
895735,00000251,false,Rx,0,8,7B,F6,65,00,00,00,00,00,
895826,00000495,false,Rx,0,8,49,00,00,00,00,00,00,00,
896377,00000252,false,Rx,0,8,00,00,1B,1B,03,00,00,00,
896467,00000061,false,Rx,0,8,0A,EE,DB,00,00,00,00,00,
896512,00000253,false,Rx,0,8,00,00,00,53,53,00,80,46,
896715,00000062,false,Rx,0,8,02,02,00,02,40,FF,00,FF,
897081,00000063,false,Rx,0,8,06,01,15,00,00,08,FD,00,
897576,00000064,false,Rx,0,8,00,00,00,04,FF,FA,00,00,
897737,00000396,false,Rx,0,8,A8,CE,B2,0F,08,01,00,02,
898018,00000397,false,Rx,0,8,00,00,00,00,00,00,00,00,
898259,00000398,false,Rx,0,8,00,00,00,00,00,00,00,00,
898499,00000121,false,Rx,0,8,E0,67,F9,00,00,00,00,05,
898721,00000122,false,Rx,0,8,FF,D9,67,1F,43,44,43,43,
898986,00000123,false,Rx,0,8,F0,02,00,00,00,00,00,35,
899368,00000124,false,Rx,0,8,00,00,0A,00,00,00,20,40,
901168,000002D6,false,Rx,0,8,65,1D,B2,00,00,00,00,00,
901287,000002D7,false,Rx,0,8,00,00,00,00,03,00,00,00,
901332,000002D8,false,Rx,0,8,00,00,00,00,00,00,38,44,
901543,000002D9,false,Rx,0,8,00,00,00,00,00,00,00,00,
901770,000002EB,false,Rx,0,8,B8,8C,B2,09,08,01,00,02,
902023,000002EC,false,Rx,0,8,02,00,00,00,00,00,00,00,
902261,00000356,false,Rx,0,8,A6,D5,B3,00,00,00,00,00,
902518,000002ED,false,Rx,0,8,00,00,00,00,00,00,00,00,
902751,00000357,false,Rx,0,8,00,00,00,00,00,4B,4D,48,
903005,000002EE,false,Rx,0,8,00,00,00,00,00,00,00,00,
903231,00000358,false,Rx,0,8,35,41,45,4D,52,37,33,4F,
903483,00000401,false,Rx,0,8,20,30,10,00,00,01,00,00,
903705,00000359,false,Rx,0,8,51,4F,34,52,4A,35,33,00,
903957,0000036F,false,Rx,0,8,38,D1,01,00,00,00,00,00,
904212,0000037F,false,Rx,0,8,55,90,52,24,41,02,00,00,
905895,00000146,false,Rx,0,8,06,E3,F0,10,04,05,00,00,
906139,00000147,false,Rx,0,8,01,04,7D,00,40,AB,08,00,
906384,00000148,false,Rx,0,8,00,00,42,00,1E,7C,40,05,
906657,00000149,false,Rx,0,8,00,38,00,CC,00,00,00,00,
906872,000000A1,false,Rx,0,8,9B,E8,DC,8A,D4,EC,A2,00,
907135,000000A2,false,Rx,0,8,00,00,00,00,00,00,00,00,
907507,000000A3,false,Rx,0,8,00,40,01,00,00,00,00,00,
908009,000001B1,false,Rx,0,8,3E,05,F0,00,72,00,00,00,
908298,000001B2,false,Rx,0,8,23,00,04,0D,0F,01,50,0F,
908384,000001B3,false,Rx,0,8,10,30,34,00,63,7F,6F,80,
908718,00000448,false,Rx,0,8,7F,00,00,00,00,00,00,00,
909058,000001B4,false,Rx,0,8,6B,84,10,00,00,41,00,00,
911317,000001A1,false,Rx,0,8,19,A4,FD,FE,F7,7F,64,00,
911409,000001A2,false,Rx,0,8,00,00,00,00,00,08,00,00,
911627,000001A3,false,Rx,0,8,FF,F3,3F,00,00,00,00,00,
911878,000001A4,false,Rx,0,8,FE,07,00,00,00,00,00,00,
914969,00000036,false,Rx,0,8,D3,CB,FB,51,00,00,25,05,
915119,00000037,false,Rx,0,8,05,00,00,10,00,40,00,00,
915400,00000038,false,Rx,0,8,04,00,00,00,B0,39,96,D4,
915701,000004A3,false,Rx,1,8,80,00,48,0B,3E,00,00,00,
915759,00000039,false,Rx,0,8,00,00,00,00,00,00,00,00,
916152,000004A4,false,Rx,1,8,FF,FF,FF,00,00,00,00,00,
921656,0000011B,false,Rx,0,8,8C,6D,FC,05,80,08,A8,02,
921795,0000012B,false,Rx,0,8,CB,97,FC,06,00,00,08,00,
921861,0000011C,false,Rx,0,8,00,05,20,00,22,00,01,01,
921906,0000012C,false,Rx,0,8,00,00,01,00,00,64,00,00,
922148,000001E1,false,Rx,0,8,59,5C,CC,02,00,00,00,00,
922656,000001E2,false,Rx,0,8,00,00,00,00,00,00,00,00,
927814,000003B6,false,Rx,0,8,B1,F8,B1,00,00,00,00,44,
927921,000003B7,false,Rx,0,8,43,00,00,00,00,00,00,00,
928280,000003B8,false,Rx,0,8,EB,02,00,00,00,00,69,0E,
928746,000003B9,false,Rx,0,8,00,00,00,00,00,00,00,00,
931444,000001F1,false,Rx,0,8,EB,98,C6,01,00,00,28,00,
931543,000001F2,false,Rx,0,8,00,00,00,00,00,00,00,00,
932979,00000561,false,Rx,0,8,63,02,00,00,00,00,FF,FF,
940531,0000019B,false,Rx,0,8,EB,A6,FB,00,00,E4,00,00,
940629,0000019C,false,Rx,0,8,40,20,00,00,00,00,0B,09,
941184,0000019D,false,Rx,0,8,00,10,00,01,00,00,00,00,
941244,0000019E,false,Rx,0,8,15,00,00,00,00,32,00,00,
941396,00000161,false,Rx,0,8,73,4F,FF,03,00,00,00,02,
941856,00000162,false,Rx,0,8,FF,FC,01,00,00,00,00,00,
942458,000001FB,false,Rx,0,8,81,5E,66,00,00,00,00,00,
942533,000001FC,false,Rx,0,8,00,00,00,00,00,00,00,00,
942816,000001FD,false,Rx,0,8,00,1A,03,00,00,00,00,00,
942879,000001FE,false,Rx,0,8,00,00,00,00,00,00,00,00,
943198,0000010B,false,Rx,0,8,57,E8,FE,00,00,00,00,05,
943504,0000010C,false,Rx,0,8,FF,F9,E7,1F,43,48,44,44,
944019,0000010D,false,Rx,0,8,EF,02,00,00,00,00,00,35,
944088,0000010E,false,Rx,0,8,00,00,1E,00,00,C0,AB,57,
946357,00000061,false,Rx,0,8,ED,42,E0,00,00,00,00,00,
946483,00000062,false,Rx,0,8,02,02,00,02,40,FF,00,FF,
946843,00000063,false,Rx,0,8,07,01,15,00,00,08,FD,00,
946986,00000064,false,Rx,0,8,00,00,00,04,FF,FA,00,00,
948649,00000121,false,Rx,0,8,13,F9,FE,00,00,00,00,05,
948759,00000122,false,Rx,0,8,FF,D9,67,1F,43,44,43,43,
948959,000003B1,false,Rx,0,8,D4,A8,00,40,00,00,20,00,
949139,00000123,false,Rx,0,8,F0,02,00,00,00,00,00,35,
949543,00000124,false,Rx,0,8,00,00,0A,00,00,00,20,40,
950220,0000042A,false,Rx,0,8,CF,74,01,04,00,10,00,00,
955991,000004F0,false,Rx,1,8,4A,0D,29,03,5C,1A,11,02,
956900,000000A1,false,Rx,0,8,58,6B,E1,8A,D4,EC,A2,00,
957006,000000A2,false,Rx,0,8,00,00,00,00,00,00,00,00,
957179,000000A3,false,Rx,0,8,00,40,01,00,00,00,00,00,
958137,000001AB,false,Rx,0,8,9F,89,FB,40,70,90,00,00,
958283,000001AC,false,Rx,0,8,00,28,00,00,00,00,00,00,
965092,00000036,false,Rx,0,8,9C,F2,00,51,00,00,25,05,
965191,00000037,false,Rx,0,8,05,00,00,10,00,40,00,00,
965586,00000038,false,Rx,0,8,04,00,00,00,B0,39,96,D4,
966040,00000039,false,Rx,0,8,00,00,00,00,00,00,00,00,
967658,00000236,false,Rx,0,8,B1,15,66,00,30,63,34,6C,
968120,000002FB,false,Rx,0,8,A0,09,66,04,0C,18,C3,C3,
968564,00000151,false,Rx,0,8,4D,F1,66,A0,C8,00,28,15,
968670,00000237,false,Rx,0,8,00,05,94,00,00,5A,1D,00,
968716,00000152,false,Rx,0,8,12,14,13,00,24,00,00,00,
969090,000001F6,false,Rx,0,8,EC,0A,66,00,00,00,00,0D,
969400,00000153,false,Rx,0,8,00,00,00,00,00,00,00,00,
970044,000001F7,false,Rx,0,8,1F,00,DC,00,00,00,00,00,
970414,00000154,false,Rx,0,8,00,00,00,00,00,00,00,00,
970624,000001F8,false,Rx,0,8,00,69,00,64,00,00,00,00,
970955,000002FC,false,Rx,0,8,10,00,12,15,00,00,86,96,
971023,000001F9,false,Rx,0,8,19,00,A0,C8,14,00,19,00,
971073,000002FD,false,Rx,0,8,00,00,00,00,00,1C,10,EA,
971123,00000238,false,Rx,0,8,00,00,0C,00,00,00,00,00,
971210,000002FE,false,Rx,0,8,00,00,72,01,00,28,00,00,
971267,00000239,false,Rx,0,8,00,00,00,00,01,00,00,00,
971309,00000326,false,Rx,0,8,F4,B3,66,00,00,00,00,00,
971443,0000011B,false,Rx,0,8,B8,B5,01,05,80,08,A8,02,
971698,0000012B,false,Rx,0,8,FF,4F,01,06,00,00,08,00,
971940,0000011C,false,Rx,0,8,00,05,20,00,22,00,01,01,
972198,0000012C,false,Rx,0,8,00,00,01,00,00,64,00,00,
972419,0000025B,false,Rx,0,8,B8,2D,66,40,40,20,00,00,
972686,00000327,false,Rx,0,8,00,00,00,00,01,00,00,00,
972916,0000025C,false,Rx,0,8,00,00,1F,00,BD,68,15,00,
973146,00000328,false,Rx,0,8,DC,00,19,00,00,69,00,00,
973385,0000025D,false,Rx,0,8,00,C8,00,00,00,80,C0,70,
973646,00000329,false,Rx,0,8,A0,64,00,00,00,00,00,00,
973885,00000091,false,Rx,0,8,24,3C,64,3A,00,00,00,00,
974119,0000025E,false,Rx,0,8,3D,07,0E,06,00,00,00,00,
974353,00000092,false,Rx,0,8,29,00,00,00,90,02,00,00,
974595,00000331,false,Rx,0,8,04,92,66,F1,C8,A0,2C,97,
974856,00000093,false,Rx,0,8,00,00,00,00,00,00,00,00,
975183,00000094,false,Rx,0,8,00,00,00,00,00,00,00,00,
975409,00000332,false,Rx,0,8,44,07,B4,00,00,00,00,00,
975701,00000333,false,Rx,0,8,00,00,00,1C,0C,40,20,A0,
975914,00000334,false,Rx,0,8,C8,00,00,00,5C,70,B7,8F,
985650,000000C5,false,Rx,1,8,00,00,00,00,00,00,00,00,
985735,00000244,false,Rx,1,8,00,00,00,00,00,00,00,00,
986058,000003E4,false,Rx,1,8,FE,00,00,00,00,00,00,00,
986583,000004B4,false,Rx,1,8,01,00,0D,40,10,60,44,02,
986682,000004B5,false,Rx,1,8,08,00,F0,07,00,00,00,00,
986843,000004B7,false,Rx,1,8,08,00,F0,07,00,00,00,00,
987128,000004CA,false,Rx,1,8,00,00,00,00,00,00,00,00,
987401,000004CC,false,Rx,1,8,08,00,00,0C,00,00,03,00,
987660,000004CE,false,Rx,1,8,14,01,FF,FF,FF,FF,FF,FF,
987919,000004D7,false,Rx,1,8,23,01,00,00,00,00,00,00,
988185,000004D8,false,Rx,1,8,41,10,F6,F0,40,F2,1E,CC,
988558,000004DD,false,Rx,1,8,00,00,FE,00,04,00,00,00,
989063,000004DF,false,Rx,1,8,00,00,08,00,00,00,00,00,
989198,000004E7,false,Rx,1,8,00,30,00,00,00,00,69,00,
989254,000004E8,false,Rx,1,8,FF,FF,FF,0B,FF,FF,FF,00,
989587,000004E9,false,Rx,1,8,00,00,00,00,00,00,00,00,
990569,000004EA,false,Rx,1,8,00,00,00,00,00,00,00,00,
990915,000004EB,false,Rx,1,8,04,68,29,02,80,00,00,00,
991915,0000019B,false,Rx,0,8,A4,9F,00,00,00,E4,00,00,
992148,000004EC,false,Rx,1,8,FF,FF,FF,FF,FF,FF,FF,0F,
992652,0000019C,false,Rx,0,8,40,20,00,00,00,00,0B,09,
992810,000004ED,false,Rx,1,8,FF,FF,FF,FF,FF,FF,FF,1F,
992887,000004EE,false,Rx,1,8,FF,FF,00,00,00,00,00,00,
993126,0000019D,false,Rx,0,8,00,10,00,01,00,00,00,00,
993192,000004EF,false,Rx,1,8,60,00,60,00,29,14,00,00,
993281,0000063D,false,Rx,1,8,00,80,00,00,00,00,00,00,
993360,0000019E,false,Rx,0,8,15,00,00,00,00,32,00,00,
993413,0000063E,false,Rx,1,8,FF,FF,FF,FF,FF,FF,FF,FF,
993455,000002BF,false,Rx,0,8,FF,FF,FF,00,00,00,00,00,
993519,0000047F,false,Rx,0,8,FF,FF,FF,FF,FF,FF,FF,FF,
993575,0000063F,false,Rx,1,8,00,10,00,C4,FF,00,00,00,
993628,00000653,false,Rx,0,8,0A,19,03,01,02,2A,00,00,
993687,00000640,false,Rx,1,8,FF,FF,FF,00,FF,FF,FF,00,
993761,00000641,false,Rx,1,8,FF,FF,FF,FF,0F,FF,FF,FF,
993809,00000380,false,Rx,0,8,A0,99,01,0C,0C,0C,0C,01,
993862,0000010B,false,Rx,0,8,AD,16,03,00,00,00,00,05,
993913,00000646,false,Rx,1,8,00,00,00,80,01,00,00,00,
993971,0000010C,false,Rx,0,8,FF,F9,E7,1F,43,48,44,44,
994023,00000382,false,Rx,0,8,36,4D,02,00,00,05,09,00,
994084,0000010D,false,Rx,0,8,EF,02,00,00,00,00,00,35,
994544,0000010E,false,Rx,0,8,00,00,1E,00,00,C0,AB,57,
994760,00000383,false,Rx,0,8,89,14,01,10,01,00,00,00,
995899,000004F0,false,Rx,1,8,4A,0D,29,03,5C,1A,11,02,
996287,00000061,false,Rx,0,8,92,6E,E5,00,00,00,00,00,
996767,00000062,false,Rx,0,8,02,02,00,02,40,FF,00,FF,
997023,000002AB,false,Rx,0,8,6C,A2,67,0C,0C,00,00,00,
997229,00000063,false,Rx,0,8,07,01,15,00,00,08,FD,00,
997475,000002AC,false,Rx,0,8,00,FF,FF,00,00,40,00,50,
997769,00000064,false,Rx,0,8,00,00,00,04,FF,FA,00,00,
998057,000002AD,false,Rx,0,8,00,01,00,40,FF,FF,FF,0F,
998240,00000384,false,Rx,0,8,D8,3D,02,01,00,FF,00,22,
998463,00000121,false,Rx,0,8,1F,D2,03,00,00,00,00,05,
998701,000002AE,false,Rx,0,8,01,00,FF,3F,01,01,00,00,
998954,00000122,false,Rx,0,8,FF,D9,67,1F,43,45,43,43,
999161,000002B6,false,Rx,0,8,5E,11,67,01,00,00,00,40,
999446,00000123,false,Rx,0,8,F0,02,00,00,00,00,00,35,
999645,000002B7,false,Rx,0,8,93,01,C1,08,00,04,00,00,
1000183,00000124,false,Rx,0,8,00,00,0A,00,00,00,20,40,
1000531,000002B8,false,Rx,0,8,B2,61,11,00,00,00,00,00,
1001052,000003B0,false,Rx,0,8,72,37,FF,C7,00,00,03,C0,
1001134,000002B9,false,Rx,0,8,0A,00,00,00,00,00,00,00,
1001185,0000033B,false,Rx,0,8,6D,D9,67,00,00,00,00,00,
1001246,000002C1,false,Rx,0,8,B3,B6,B4,21,00,41,00,A1,
1001445,0000033C,false,Rx,0,8,00,00,00,00,F0,00,00,00,
1001614,000002C2,false,Rx,0,8,40,00,00,00,00,00,00,00,
1001854,0000033D,false,Rx,0,8,00,00,00,00,00,00,00,00,
1002099,000002C3,false,Rx,0,8,00,00,00,00,00,00,00,00,
1002345,0000033E,false,Rx,0,8,00,00,00,00,00,00,00,00,
1002601,000002C4,false,Rx,0,8,00,00,00,00,00,00,00,00,
1002829,000001E6,false,Rx,0,8,4F,38,C9,02,00,00,00,00,
1003081,000002E1,false,Rx,0,8,4F,87,67,00,00,00,00,40,
1003306,000001BB,false,Rx,0,8,61,3B,C9,02,00,00,00,0A,
1003555,000002E2,false,Rx,0,8,FD,00,00,00,00,14,00,04,
1003802,000001BC,false,Rx,0,8,32,00,00,00,02,00,00,00,
1004045,000002E3,false,Rx,0,8,00,00,00,00,00,00,72,01,
1004295,000001BD,false,Rx,0,8,00,00,00,00,00,00,00,00,
1004554,000002E4,false,Rx,0,8,02,00,00,00,00,00,00,00,
1004786,000001E7,false,Rx,0,8,00,00,22,03,20,01,00,00,
1005027,0000036F,false,Rx,0,8,EE,E1,01,00,00,00,00,00,
1005266,000003B2,false,Rx,0,8,36,15,FF,02,29,2F,34,00,
1005498,0000037F,false,Rx,0,8,83,A0,52,24,41,02,00,00,
1005739,00000427,false,Rx,0,8,1D,86,FF,00,80,0A,00,00,
1005976,00000146,false,Rx,0,8,8F,1A,F5,10,04,05,00,00,
1006476,00000147,false,Rx,0,8,01,04,7D,00,40,AA,08,00,
1006929,000000A1,false,Rx,0,8,51,EE,E6,8A,D4,EC,A2,00,
1007168,00000148,false,Rx,0,8,00,00,42,00,1E,7C,40,05,
1007417,000000A2,false,Rx,0,8,00,00,00,00,00,00,00,00,
1007665,00000149,false,Rx,0,8,00,38,00,CC,00,00,00,00,
1008039,000000A3,false,Rx,0,8,00,40,01,00,00,00,00,00,
1008162,000001B1,false,Rx,0,8,41,29,F5,00,72,00,00,00,
1008455,000001B2,false,Rx,0,8,23,00,04,0D,0F,01,50,0F,
1008830,000001B3,false,Rx,0,8,10,30,34,00,63,7F,6F,80,
1009137,000001B4,false,Rx,0,8,6B,84,10,00,00,41,00,00,
1011595,000001A1,false,Rx,0,8,6F,E8,02,FE,F7,7F,64,00,
1011713,000001A2,false,Rx,0,8,00,00,00,00,00,08,00,00,
1012002,000001A3,false,Rx,0,8,FF,F3,3F,00,00,00,00,00,
1012244,000001A4,false,Rx,0,8,FE,07,00,00,00,00,00,00,
1015008,00000036,false,Rx,0,8,E3,DE,05,51,00,00,25,05,
1015119,00000037,false,Rx,0,8,05,00,00,10,00,40,00,00,
1015451,00000038,false,Rx,0,8,04,00,00,00,B0,39,96,D4,
1015755,00000039,false,Rx,0,8,00,00,00,00,00,00,00,00,
1017000,000004E8,false,Rx,1,8,FF,FF,FF,0B,FF,FF,FF,00,
1017145,0000048B,false,Rx,0,8,6A,3F,24,1E,02,00,00,00,
1017237,0000048C,false,Rx,0,8,00,00,00,00,00,00,00,00,
1021547,0000011B,false,Rx,0,8,27,DD,06,05,80,08,A8,02,
1021677,0000012B,false,Rx,0,8,60,27,06,06,00,00,08,00,
1022104,00000563,false,Rx,1,8,65,02,00,00,00,00,FF,FF,
1022216,0000011C,false,Rx,0,8,00,05,20,00,22,00,01,01,
1022259,0000012C,false,Rx,0,8,00,00,01,00,00,64,00,00,
1022662,00000405,false,Rx,0,8,04,20,00,00,00,01,00,00,
1022872,00000410,false,Rx,0,8,13,50,54,3C,B4,6A,FF,FF,
1023144,00000411,false,Rx,0,8,60,11,50,00,00,00,44,04,
1023410,00000412,false,Rx,0,8,F9,70,00,00,00,00,04,00,
1023637,00000413,false,Rx,0,8,F5,10,00,41,00,00,00,00,
1023934,00000414,false,Rx,0,8,87,A0,00,00,28,00,00,00,
1024194,00000416,false,Rx,0,8,55,00,00,00,00,00,00,00,
1024458,00000417,false,Rx,0,8,B7,70,00,00,00,01,00,00,
1024718,00000418,false,Rx,0,8,D0,80,00,00,12,4C,00,00,
1024966,00000419,false,Rx,0,8,0F,90,8E,D5,71,7A,84,00,
1025207,0000048F,false,Rx,0,8,AD,10,41,00,05,00,00,00,
1027094,00000256,false,Rx,0,8,33,F4,64,15,00,00,60,01,
1027254,000002E6,false,Rx,0,8,63,6C,64,01,00,00,00,15,
1027692,00000257,false,Rx,0,8,00,8C,40,22,85,07,00,8C,
1028008,000002E7,false,Rx,0,8,0A,00,00,00,00,00,00,00,
1028070,00000258,false,Rx,0,8,04,28,1D,00,10,15,00,1C,
1028693,000002E8,false,Rx,0,8,00,00,00,00,00,00,00,00,
1028772,00000259,false,Rx,0,8,76,05,8E,3C,2C,02,00,00,
1028821,000002E9,false,Rx,0,8,00,00,00,00,00,00,00,00,
75900,000004F0,false,Rx,1,8,4A,0D,29,03,5C,1A,11,02,
76108,000003A1,false,Rx,0,8,BF,94,7F,00,FF,FF,FF,FF,
76174,000003A2,false,Rx,0,8,00,00,00,00,00,00,00,00,
79403,0000019B,false,Rx,0,8,DB,B3,05,00,00,E4,00,00,
79488,0000019C,false,Rx,0,8,40,20,00,00,00,00,0B,09,
79750,0000019D,false,Rx,0,8,00,10,00,01,00,00,00,00,
79966,0000019E,false,Rx,0,8,15,00,00,00,00,32,00,00,
80378,00000161,false,Rx,0,8,FC,57,04,03,00,00,00,02,
80629,00000162,false,Rx,0,8,FF,FC,01,00,00,00,00,00,
81975,0000010B,false,Rx,0,8,15,17,08,00,00,00,00,05,
82145,0000010C,false,Rx,0,8,FF,F9,E7,1F,43,48,44,44,
82431,0000010D,false,Rx,0,8,EF,02,00,00,00,00,00,35,
82651,0000010E,false,Rx,0,8,00,00,1E,00,00,C0,AB,57,
83891,00000415,false,Rx,0,8,40,13,10,00,08,01,00,00,
85244,00000061,false,Rx,0,8,13,1A,EA,00,00,00,00,00,
85439,00000062,false,Rx,0,8,02,02,00,02,40,FF,00,FF,
85679,00000063,false,Rx,0,8,07,01,15,00,00,08,FD,00,
85982,000004E8,false,Rx,1,8,FF,FF,FF,0B,FF,FF,FF,00,
86045,00000064,false,Rx,0,8,00,00,00,04,FF,FA,00,00,
86537,00000419,false,Rx,0,8,13,A0,8D,D5,71,7A,84,00,
87489,00000121,false,Rx,0,8,51,06,08,00,00,00,00,05,
87657,00000475,false,Rx,0,8,12,00,00,00,00,00,00,00,
87936,00000122,false,Rx,0,8,FF,D9,67,1F,43,44,43,43,
88138,00000496,false,Rx,0,8,12,00,00,00,00,00,00,00,
88381,00000123,false,Rx,0,8,F0,02,00,00,00,00,00,35,
88626,00000124,false,Rx,0,8,00,00,0A,00,00,00,20,40,
89976,000000FF,false,Rx,0,8,CB,10,00,00,00,00,02,00,
90149,00000111,false,Rx,0,8,F3,97,73,01,00,00,00,00,
90430,00000112,false,Rx,0,8,00,00,00,00,00,00,00,00,
90661,00000113,false,Rx,0,8,00,00,00,00,00,00,00,00,
90917,00000114,false,Rx,0,8,00,00,00,00,00,00,00,00,
91312,00000394,false,Rx,0,8,2A,22,1A,49,00,00,00,00,
91810,000003C3,false,Rx,0,8,45,10,31,30,36,00,00,00,
92086,000003E0,false,Rx,0,8,01,70,01,00,54,03,00,00,
92878,000003E5,false,Rx,0,8,9E,70,01,00,00,00,00,00,
93051,000003E6,false,Rx,0,8,A1,40,00,00,00,00,00,00,
93326,0000030B,false,Rx,0,8,35,F8,67,00,04,00,00,00,
93542,0000041A,false,Rx,0,8,D4,80,12,00,50,01,00,00,
93777,0000030C,false,Rx,0,8,00,00,0C,00,2C,00,A0,0F,
94027,0000041B,false,Rx,0,8,BE,70,00,00,00,00,00,00,
94281,0000030D,false,Rx,0,8,00,00,00,00,42,00,00,00,
94515,0000041C,false,Rx,0,8,84,D0,E8,00,00,00,00,00,
94788,0000030E,false,Rx,0,8,00,00,28,05,21,00,00,FE,
95005,00000422,false,Rx,0,8,FA,20,01,00,00,00,04,00,
95497,00000432,false,Rx,0,8,03,20,02,00,00,00,00,00,
95759,000000A1,false,Rx,0,8,67,AD,EB,8A,D4,EC,A2,00,
95965,00000435,false,Rx,0,8,0E,10,00,50,00,00,00,00,
96210,000000A2,false,Rx,0,8,00,00,00,00,00,00,00,00,
96458,00000442,false,Rx,0,8,CE,20,11,81,00,00,00,00,
96711,000000A3,false,Rx,0,8,00,40,01,00,00,00,00,00,
96945,00000444,false,Rx,0,8,0B,60,20,50,55,50,00,00,
97199,00000445,false,Rx,0,8,77,A0,00,00,00,00,00,18,
97433,000001AB,false,Rx,0,8,10,91,00,40,70,90,00,00,
97725,000001AC,false,Rx,0,8,00,28,00,00,00,00,00,00,
98362,00000464,false,Rx,0,8,6C,30,F0,FF,38,7F,05,00,
103937,00000036,false,Rx,0,8,62,AA,0A,51,00,00,25,05,
104123,00000037,false,Rx,0,8,05,00,00,10,00,40,00,00,
104374,00000038,false,Rx,0,8,04,00,00,00,B0,39,96,D4,
104668,00000039,false,Rx,0,8,00,00,00,00,00,00,00,00,
110183,0000011B,false,Rx,0,8,54,E4,0B,05,80,08,A8,02,
110361,0000012B,false,Rx,0,8,13,1E,0B,06,00,00,08,00,
110603,0000011C,false,Rx,0,8,00,05,20,00,22,00,01,01,
110866,0000012C,false,Rx,0,8,00,00,01,00,00,64,00,00,
111083,000001E1,false,Rx,0,8,14,B4,CF,02,00,00,00,00,
111349,000001E2,false,Rx,0,8,00,00,00,00,00,00,00,00,
112914,00000091,false,Rx,0,8,45,74,65,3A,00,00,00,00,
113099,00000092,false,Rx,0,8,28,00,00,00,80,02,00,00,
113360,00000093,false,Rx,0,8,00,00,00,00,00,00,00,00,
113618,00000094,false,Rx,0,8,00,00,00,00,00,00,00,00,
115538,00000487,false,Rx,1,8,00,00,00,00,00,00,00,00,
115799,000004E8,false,Rx,1,8,FF,FF,FF,0B,FF,FF,FF,00,
116097,00000642,false,Rx,1,8,FF,FF,FF,FF,FF,FF,00,00,
116952,00000226,false,Rx,0,8,C1,86,35,FF,FA,20,09,42,
117053,000002FF,false,Rx,0,8,E2,01,00,F1,3F,00,00,00,
117365,00000227,false,Rx,0,8,02,C4,07,09,00,F1,6F,03,
117495,00000316,false,Rx,0,8,51,5B,9C,A4,0F,80,0A,00,
117736,00000472,false,Rx,0,8,5C,EC,00,40,08,41,00,45,
118133,00000317,false,Rx,0,8,00,00,05,00,00,00,00,00,
118247,00000473,false,Rx,0,8,5F,24,00,25,00,00,00,78,
118489,00000474,false,Rx,0,8,53,98,00,00,00,00,00,10,
120250,000001F1,false,Rx,0,8,F1,E1,C9,01,00,00,28,00,
120351,000001F2,false,Rx,0,8,00,00,00,00,00,00,00,00,
125860,000003AA,false,Rx,0,8,FF,00,D0,00,54,00,00,00,
125990,00000643,false,Rx,1,8,00,FC,FF,FF,FF,FF,03,00,
126605,00000419,false,Rx,0,8,13,A0,8D,D5,71,7A,84,00,
129267,0000019B,false,Rx,0,8,5A,C7,0A,00,00,E4,00,00,
129473,0000019C,false,Rx,0,8,40,20,00,00,00,00,0B,09,
129725,0000019D,false,Rx,0,8,00,10,00,01,00,00,00,00,
129976,0000019E,false,Rx,0,8,15,00,00,00,00,32,00,00,
131979,0000010B,false,Rx,0,8,6A,3B,0D,00,00,00,00,05,
132175,0000010C,false,Rx,0,8,FF,F9,E7,1F,43,48,44,44,
132414,0000010D,false,Rx,0,8,EF,02,00,00,00,00,00,35,
132661,0000010E,false,Rx,0,8,00,00,1E,00,00,C0,AB,57,
134629,00000251,false,Rx,0,8,7D,98,67,00,00,00,00,00,
134715,00000495,false,Rx,0,8,49,00,00,00,00,00,00,00,
134991,00000252,false,Rx,0,8,00,00,1B,1B,03,00,00,00,
135204,00000061,false,Rx,0,8,6C,36,EF,00,00,00,00,00,
135450,00000253,false,Rx,0,8,00,00,00,53,53,00,80,46,
135796,00000062,false,Rx,0,8,02,02,00,02,40,FF,00,FF,
135975,00000063,false,Rx,0,8,07,01,15,00,00,08,FD,00,
136218,00000064,false,Rx,0,8,00,00,00,04,FF,FA,00,00,
136701,00000396,false,Rx,0,8,9C,0A,B3,0F,08,01,00,02,
136960,00000397,false,Rx,0,8,1C,00,00,00,00,00,00,00,
137218,00000398,false,Rx,0,8,00,00,00,00,00,00,00,00,
137500,00000121,false,Rx,0,8,2E,2A,0D,00,00,00,00,05,
137703,00000122,false,Rx,0,8,FF,D9,67,1F,43,44,43,43,
138007,00000123,false,Rx,0,8,F0,02,00,00,00,00,00,35,
138268,00000124,false,Rx,0,8,00,00,0A,00,00,00,20,40,
139824,000002D6,false,Rx,0,8,23,44,B3,00,00,00,00,00,
140022,000002D7,false,Rx,0,8,00,00,00,00,03,00,00,00,
140273,000002D8,false,Rx,0,8,00,00,00,00,00,00,38,44,
140666,000002EB,false,Rx,0,8,D7,5B,B3,08,08,01,00,02,
140774,000002D9,false,Rx,0,8,00,00,00,00,00,00,00,00,
141033,000002EC,false,Rx,0,8,02,00,00,00,00,00,00,00,
141247,00000356,false,Rx,0,8,55,4B,B4,00,00,00,00,00,
141507,000002ED,false,Rx,0,8,00,00,00,00,00,00,00,00,
141740,00000357,false,Rx,0,8,00,00,00,00,00,4B,4D,48,
142003,000002EE,false,Rx,0,8,00,00,00,00,00,00,00,00,
142223,00000358,false,Rx,0,8,35,41,45,4D,52,37,33,4F,
142513,00000401,false,Rx,0,8,20,30,10,00,00,01,00,00,
142697,00000359,false,Rx,0,8,51,4F,34,52,4A,35,33,00,
142950,0000036F,false,Rx,0,8,FE,01,01,00,00,00,00,00,
143202,0000037F,false,Rx,0,8,3A,B0,52,24,41,02,00,00,
144999,00000146,false,Rx,0,8,F8,BB,FA,10,04,05,00,00,
145207,00000147,false,Rx,0,8,01,04,7D,00,40,AB,08,00,
145394,00000148,false,Rx,0,8,00,00,42,00,1E,7C,40,05,
145634,00000149,false,Rx,0,8,00,38,00,CC,00,00,00,00,
145874,000000A1,false,Rx,0,8,08,1C,F0,8A,D4,EC,A2,00,
146126,000000A2,false,Rx,0,8,00,00,00,00,00,00,00,00,
146382,000000A3,false,Rx,0,8,00,40,01,00,00,00,00,00,
146878,000001B1,false,Rx,0,8,C0,5D,FA,00,72,00,00,00,
147111,000001B2,false,Rx,0,8,23,00,04,0D,0F,01,50,0F,
147423,000001B3,false,Rx,0,8,10,30,34,00,63,7F,6F,80,
147665,00000448,false,Rx,0,8,7F,00,00,00,00,00,00,00,
147919,000001B4,false,Rx,0,8,6B,84,10,00,00,41,00,00,
150227,000001A1,false,Rx,0,8,10,C4,07,FE,F7,7F,64,00,
150374,000001A2,false,Rx,0,8,00,00,00,00,00,08,00,00,
150639,000001A3,false,Rx,0,8,FF,F3,3F,00,00,00,00,00,
151016,000001A4,false,Rx,0,8,FE,07,00,00,00,00,00,00,
153987,00000036,false,Rx,0,8,1D,86,0F,51,00,00,25,05,
154125,00000037,false,Rx,0,8,05,00,00,10,00,40,00,00,
154419,00000038,false,Rx,0,8,04,00,00,00,B0,39,96,D4,
154665,00000039,false,Rx,0,8,00,00,00,00,00,00,00,00,
156603,000004A3,false,Rx,1,8,80,00,48,0B,3E,00,00,00,
156820,000004A4,false,Rx,1,8,FF,FF,FF,00,00,00,00,00,
157625,00000565,false,Rx,0,8,66,02,00,00,00,00,FF,FF,
160203,0000011B,false,Rx,0,8,96,3E,10,05,80,08,A8,02,
160350,0000012B,false,Rx,0,8,D1,C4,10,06,00,00,08,00,
160635,0000011C,false,Rx,0,8,00,05,20,00,22,00,01,01,
160870,0000012C,false,Rx,0,8,00,00,01,00,00,64,00,00,
166752,00000419,false,Rx,0,8,13,A0,8D,D5,71,7A,84,00,
166853,000003B6,false,Rx,0,8,7B,13,B2,00,00,00,00,44,
167194,000003B7,false,Rx,0,8,43,00,00,00,00,00,00,00,
167364,000003B8,false,Rx,0,8,EB,02,00,00,00,00,69,0E,
167951,000003B9,false,Rx,0,8,00,00,00,00,00,00,00,00,
179402,0000019B,false,Rx,0,8,25,EB,0F,00,00,E4,00,00,
179493,0000019C,false,Rx,0,8,40,20,00,00,00,00,0B,09,
179876,0000019D,false,Rx,0,8,00,10,00,01,00,00,00,00,
180291,0000019E,false,Rx,0,8,15,00,00,00,00,32,00,00,
180401,00000161,false,Rx,0,8,8F,6E,09,03,00,00,00,02,
180507,00000162,false,Rx,0,8,FF,FC,01,00,00,00,00,00,
180909,000001FB,false,Rx,0,8,46,73,68,00,00,00,00,00,
181017,000001FC,false,Rx,0,8,00,00,00,00,00,00,00,00,
181270,000001FD,false,Rx,0,8,00,1A,03,00,00,00,00,00,
181524,000001FE,false,Rx,0,8,00,00,00,00,00,00,00,00,
181913,0000010B,false,Rx,0,8,2E,8B,12,00,00,00,00,05,
182168,0000010C,false,Rx,0,8,FF,F9,E7,1F,43,48,44,44,
182522,0000010D,false,Rx,0,8,EF,02,00,00,00,00,00,35,
182732,0000010E,false,Rx,0,8,00,00,1E,00,00,C0,AB,57,
185444,00000061,false,Rx,0,8,11,F3,F4,00,00,00,00,00,
185530,00000062,false,Rx,0,8,02,02,00,02,40,FF,00,FF,
185777,00000063,false,Rx,0,8,07,01,15,00,00,08,FD,00,
186268,00000064,false,Rx,0,8,00,00,00,04,FF,FA,00,00,
187612,00000121,false,Rx,0,8,6A,9A,12,00,00,00,00,05,
187713,00000122,false,Rx,0,8,FF,D9,67,1F,43,44,43,43,
188128,00000123,false,Rx,0,8,F0,02,00,00,00,00,00,35,
188199,000003B1,false,Rx,0,8,D4,A8,00,40,00,00,20,00,
188580,00000124,false,Rx,0,8,00,00,0A,00,00,00,20,40,
188926,0000042A,false,Rx,0,8,CF,74,01,04,00,10,00,00,
191905,000001E6,false,Rx,0,8,B9,10,CC,02,00,00,00,00,
191999,000001BB,false,Rx,0,8,6E,D0,CC,02,00,00,00,0A,
192386,000001BC,false,Rx,0,8,32,00,00,00,02,00,00,00,
192748,000001BD,false,Rx,0,8,00,00,00,00,00,00,00,00,
192858,000001E7,false,Rx,0,8,00,00,22,03,20,01,00,00,
195965,000000A1,false,Rx,0,8,07,F7,F5,8A,D4,EC,A2,00,
196050,000000A2,false,Rx,0,8,00,00,00,00,00,00,00,00,
196342,000000A3,false,Rx,0,8,00,40,01,00,00,00,00,00,
196555,000001AB,false,Rx,0,8,E6,B9,05,40,70,90,00,00,
196798,000001AC,false,Rx,0,8,00,28,00,00,00,00,00,00,
204104,00000036,false,Rx,0,8,60,43,14,51,00,00,25,05,
204194,00000037,false,Rx,0,8,05,00,00,10,00,40,00,00,
204603,00000038,false,Rx,0,8,04,00,00,00,B0,39,96,D4,
204705,00000039,false,Rx,0,8,00,00,00,00,00,00,00,00,
206543,00000236,false,Rx,0,8,76,38,68,00,30,63,34,6C,
206788,000002FB,false,Rx,0,8,67,24,68,04,0C,18,C3,C3,
206833,00000151,false,Rx,0,8,8A,DC,68,A0,C8,00,28,15,
207059,00000237,false,Rx,0,8,00,05,94,00,00,5A,1D,00,
207303,00000152,false,Rx,0,8,12,14,13,00,24,00,00,00,
207531,000001F6,false,Rx,0,8,2B,27,68,00,00,00,00,0D,
207774,00000153,false,Rx,0,8,00,00,00,00,00,00,00,00,
208017,000001F7,false,Rx,0,8,1F,00,DC,00,00,00,00,00,
208295,00000154,false,Rx,0,8,00,00,00,00,00,00,00,00,
208515,000001F8,false,Rx,0,8,00,69,00,64,00,00,00,00,
208808,000002FC,false,Rx,0,8,10,00,12,15,00,00,86,96,
209109,000001F9,false,Rx,0,8,19,00,A0,C8,14,00,19,00,
209236,000002FD,false,Rx,0,8,00,00,00,00,00,1C,10,EA,
209509,00000238,false,Rx,0,8,00,00,0C,00,00,00,00,00,
209728,000002FE,false,Rx,0,8,00,00,72,01,00,28,00,00,
209985,00000239,false,Rx,0,8,00,00,00,00,01,00,00,00,
210227,00000326,false,Rx,0,8,33,9E,68,00,00,00,00,00,
210461,0000011B,false,Rx,0,8,60,16,15,05,80,08,A8,02,
210711,0000012B,false,Rx,0,8,27,EC,15,06,00,00,08,00,
210974,0000011C,false,Rx,0,8,00,05,20,00,22,00,01,01,
211192,0000012C,false,Rx,0,8,00,00,01,00,00,64,00,00,
211437,0000025B,false,Rx,0,8,7A,24,68,40,40,20,00,00,
211676,00000327,false,Rx,0,8,00,00,00,00,01,00,00,00,
211987,0000025C,false,Rx,0,8,00,00,1F,00,BD,68,15,00,
212263,00000328,false,Rx,0,8,DC,00,19,00,00,69,00,00,
212433,0000025D,false,Rx,0,8,00,C8,00,00,00,80,C0,70,
212654,00000329,false,Rx,0,8,A0,64,00,00,00,00,00,00,
212886,00000091,false,Rx,0,8,C1,BD,66,3A,00,00,00,00,
213132,0000025E,false,Rx,0,8,46,07,0E,06,00,00,00,00,
213360,00000092,false,Rx,0,8,2A,00,00,00,A0,02,00,00,
213635,00000331,false,Rx,0,8,C3,BF,68,F1,C8,A0,2C,97,
213934,00000093,false,Rx,0,8,00,00,00,00,00,00,00,00,
214188,00000332,false,Rx,0,8,44,07,B4,00,00,00,00,00,
214395,00000094,false,Rx,0,8,00,00,00,00,00,00,00,00,
214629,00000333,false,Rx,0,8,00,00,00,1C,0C,40,20,A0,
214844,00000334,false,Rx,0,8,C8,00,00,00,5C,70,B7,8F,
226620,000000C5,false,Rx,1,8,00,00,00,00,00,00,00,00,
226748,00000244,false,Rx,1,8,00,00,00,00,00,00,00,00,
227050,000004B4,false,Rx,1,8,01,00,0D,40,10,60,44,02,
227534,000004B5,false,Rx,1,8,08,00,F0,07,00,00,00,00,
227790,000004B7,false,Rx,1,8,08,00,F0,07,00,00,00,00,
227846,000004CA,false,Rx,1,8,00,00,00,00,00,00,00,00,
228359,000004CC,false,Rx,1,8,08,00,00,0C,00,00,03,00,
228691,000004CE,false,Rx,1,8,14,01,FF,FF,FF,FF,FF,FF,
228779,000004D7,false,Rx,1,8,23,01,00,00,00,00,00,00,
228902,000004D8,false,Rx,1,8,41,10,F6,F0,40,F2,1E,CC,
229225,000004DD,false,Rx,1,8,00,00,FE,00,04,00,00,00,
229476,000004DF,false,Rx,1,8,00,00,08,00,00,00,00,00,
230161,0000019B,false,Rx,0,8,58,2E,14,00,00,E4,00,00,
230311,000004E7,false,Rx,1,8,00,30,00,00,00,00,69,00,
230394,0000019C,false,Rx,0,8,40,20,00,00,00,00,0B,09,
230441,000004E8,false,Rx,1,8,FF,FF,FF,0B,FF,FF,FF,00,
230498,000004E9,false,Rx,1,8,00,00,00,00,00,00,00,00,
230781,0000019D,false,Rx,0,8,00,10,00,01,00,00,00,00,
230899,000002BF,false,Rx,0,8,FF,FF,FF,00,00,00,00,00,
230959,000004EA,false,Rx,1,8,00,00,00,00,00,00,00,00,
231017,0000019E,false,Rx,0,8,15,00,00,00,00,32,00,00,
231072,000004EB,false,Rx,1,8,04,68,29,03,80,00,00,00,
231129,0000047F,false,Rx,0,8,FF,FF,FF,FF,FF,FF,FF,FF,
231510,000004EC,false,Rx,1,8,FF,FF,FF,FF,FF,FF,FF,0F,
231636,00000653,false,Rx,0,8,0A,19,03,01,02,2A,00,00,
231880,00000380,false,Rx,0,8,A0,99,01,0C,0C,0C,0C,01,
231949,000004ED,false,Rx,1,8,FF,FF,FF,FF,FF,FF,FF,1F,
232130,0000010B,false,Rx,0,8,51,A7,17,00,00,00,00,05,
232488,000004EE,false,Rx,1,8,FF,FF,00,00,00,00,00,00,
232582,0000010C,false,Rx,0,8,FF,F9,E7,1F,43,48,44,44,
232875,00000382,false,Rx,0,8,36,4D,02,00,00,05,09,00,
232945,000004EF,false,Rx,1,8,60,00,60,00,29,14,00,00,
233107,0000010D,false,Rx,0,8,EF,02,00,00,00,00,00,35,
233524,0000063D,false,Rx,1,8,00,80,00,00,00,00,00,00,
233589,0000010E,false,Rx,0,8,00,00,1E,00,00,C0,AB,57,
233860,00000383,false,Rx,0,8,89,14,01,10,01,00,00,00,
233933,0000063E,false,Rx,1,8,FF,FF,FF,FF,FF,FF,FF,FF,
234527,0000063F,false,Rx,1,8,00,10,00,C4,FF,00,00,00,
234939,00000640,false,Rx,1,8,FF,FF,FF,00,FF,FF,FF,00,
235358,00000061,false,Rx,0,8,1C,35,F9,00,00,00,00,00,
235427,00000641,false,Rx,1,8,FF,FF,FF,FF,0F,FF,FF,FF,
236081,00000062,false,Rx,0,8,02,02,00,02,40,FF,00,FF,
236446,00000646,false,Rx,1,8,00,00,00,80,01,00,00,00,
236541,000002AB,false,Rx,0,8,AB,8F,69,0C,0C,00,00,00,
236601,00000063,false,Rx,0,8,07,01,15,00,00,08,FD,00,
236654,000002AC,false,Rx,0,8,00,FF,FF,00,00,40,00,50,
236800,00000064,false,Rx,0,8,00,00,00,04,FF,FA,00,00,
237055,000002AD,false,Rx,0,8,00,01,00,40,FF,FF,FF,0F,
237291,00000384,false,Rx,0,8,D8,3D,02,01,00,FF,00,22,
237528,00000121,false,Rx,0,8,15,B6,17,00,00,00,00,05,
237803,000002AE,false,Rx,0,8,01,00,FF,3F,01,01,00,00,
238129,00000122,false,Rx,0,8,FF,D9,67,1F,43,44,43,43,
238269,000002B6,false,Rx,0,8,99,3C,69,01,00,00,00,40,
238503,00000123,false,Rx,0,8,F0,02,00,00,00,00,00,35,
238724,000002B7,false,Rx,0,8,93,01,C1,08,00,04,00,00,
239230,00000124,false,Rx,0,8,00,00,0A,00,00,00,20,40,
239578,000002B8,false,Rx,0,8,B2,61,11,00,00,00,00,00,
240261,000003B0,false,Rx,0,8,72,37,FF,C7,00,00,03,C0,
240322,000002B9,false,Rx,0,8,0A,00,00,00,00,00,00,00,
240458,0000033B,false,Rx,0,8,AA,F4,69,00,00,00,00,00,
240518,000002C1,false,Rx,0,8,F5,EF,B5,21,00,41,00,A1,
240566,0000033C,false,Rx,0,8,00,00,00,00,F0,00,00,00,
241135,000002C2,false,Rx,0,8,40,00,00,00,00,00,00,00,
241481,0000033D,false,Rx,0,8,00,00,00,00,00,00,00,00,
241627,000002C3,false,Rx,0,8,00,00,00,00,00,00,00,00,
242133,0000033E,false,Rx,0,8,00,00,00,00,00,00,00,00,
242201,000002C4,false,Rx,0,8,00,00,00,00,00,00,00,00,
242476,0000036F,false,Rx,0,8,47,11,01,00,00,00,00,00,
242553,000002E1,false,Rx,0,8,88,AA,69,00,00,00,00,40,
243026,0000037F,false,Rx,0,8,32,C0,52,24,41,02,00,00,
243145,000002E2,false,Rx,0,8,FD,00,00,00,00,14,00,04,
243192,000003B2,false,Rx,0,8,36,15,FF,02,29,2F,34,00,
243249,000002E3,false,Rx,0,8,00,00,00,00,00,00,72,01,
243355,00000427,false,Rx,0,8,1D,86,FF,00,80,0A,00,00,
243870,000002E4,false,Rx,0,8,02,00,00,00,00,00,00,00,
245004,00000146,false,Rx,0,8,71,42,FF,10,04,05,00,00,
245567,00000147,false,Rx,0,8,01,04,7D,00,40,AA,08,00,
245905,000000A1,false,Rx,0,8,37,DA,FA,8A,D4,EC,A2,00,
246105,00000148,false,Rx,0,8,00,00,42,00,1E,7C,40,05,
246368,000000A2,false,Rx,0,8,00,00,00,00,00,00,00,00,
246601,00000149,false,Rx,0,8,00,38,00,CC,00,00,00,00,
246907,000000A3,false,Rx,0,8,00,40,01,00,00,00,00,00,
247108,000001B1,false,Rx,0,8,BF,71,FF,00,72,00,00,00,
247876,000001B2,false,Rx,0,8,23,00,04,0D,0F,01,50,0F,
248001,000001B3,false,Rx,0,8,10,30,34,00,63,7F,6F,80,
248563,000001B4,false,Rx,0,8,6B,84,10,00,00,41,00,00,
250213,000001A1,false,Rx,0,8,A8,C5,0C,FE,F7,7F,64,00,
250901,000001A2,false,Rx,0,8,00,00,00,00,00,08,00,00,
251127,000001A3,false,Rx,0,8,FF,F3,3F,00,00,00,00,00,
251179,000001A4,false,Rx,0,8,FE,07,00,00,00,00,00,00,
254008,00000036,false,Rx,0,8,6D,85,19,51,00,00,25,05,
254116,00000037,false,Rx,0,8,05,00,00,10,00,40,00,00,
254377,00000038,false,Rx,0,8,04,00,00,00,B0,39,96,D4,
254670,00000039,false,Rx,0,8,00,00,00,00,00,00,00,00,
255626,00000566,false,Rx,0,8,16,02,00,00,00,00,FF,FF,
260450,0000011B,false,Rx,0,8,7A,6F,1A,05,80,08,A8,02,
260558,0000012B,false,Rx,0,8,3D,95,1A,06,00,00,08,00,
260604,0000011C,false,Rx,0,8,00,05,20,00,22,00,01,01,
260865,0000012C,false,Rx,0,8,00,00,01,00,00,64,00,00,
261095,000001E1,false,Rx,0,8,6D,AE,D2,02,00,00,00,00,
261333,000001E2,false,Rx,0,8,00,00,00,00,00,00,00,00,
261605,00000405,false,Rx,0,8,04,20,00,00,00,01,00,00,
261884,00000410,false,Rx,0,8,13,50,54,3C,B4,6A,FF,FF,
262124,00000411,false,Rx,0,8,60,11,50,00,00,00,44,04,
262413,00000412,false,Rx,0,8,F9,70,00,00,00,00,04,00,
262777,00000413,false,Rx,0,8,F5,10,00,41,00,00,00,00,
262961,00000414,false,Rx,0,8,87,A0,00,00,28,00,00,00,
263178,00000416,false,Rx,0,8,55,00,00,00,00,00,00,00,
263460,00000417,false,Rx,0,8,B7,70,00,00,00,01,00,00,
263706,00000418,false,Rx,0,8,D0,80,00,00,12,4C,00,00,
263963,00000419,false,Rx,0,8,13,A0,8D,D5,71,7A,84,00,
266229,00000256,false,Rx,0,8,D7,88,66,15,00,00,60,01,
266317,000002E6,false,Rx,0,8,EF,DE,66,01,00,00,00,15,
266605,00000257,false,Rx,0,8,00,8C,40,22,85,07,00,8C,
266731,000002E7,false,Rx,0,8,0A,00,00,00,00,00,00,00,
267275,00000258,false,Rx,0,8,04,29,1D,00,10,15,00,1C,
267346,000002E8,false,Rx,0,8,00,00,00,00,00,00,00,00,
267453,00000259,false,Rx,0,8,74,05,8E,3C,2C,02,00,00,
267727,000002E9,false,Rx,0,8,00,00,00,00,00,00,00,00,
270390,000001F1,false,Rx,0,8,07,C9,CC,01,00,00,28,00,
270825,000001F2,false,Rx,0,8,00,00,00,00,00,00,00,00,
274938,000003A1,false,Rx,0,8,E2,0C,80,00,FF,FF,FF,FF,
275034,000003A2,false,Rx,0,8,00,00,00,00,00,00,00,00,
279411,0000019B,false,Rx,0,8,55,E8,19,00,00,E4,00,00,
279512,0000019C,false,Rx,0,8,40,20,00,00,00,00,0B,09,
279870,0000019D,false,Rx,0,8,00,10,00,01,00,00,00,00,
280073,0000019E,false,Rx,0,8,15,00,00,00,00,32,00,00,
280398,00000161,false,Rx,0,8,10,06,0E,03,00,00,00,02,
280651,00000162,false,Rx,0,8,FF,FC,01,00,00,00,00,00,
282159,0000010B,false,Rx,0,8,E9,A6,1C,00,00,00,00,05,
282271,0000010C,false,Rx,0,8,FF,F9,E7,1F,43,48,44,44,
282878,0000010D,false,Rx,0,8,EF,02,00,00,00,00,00,35,
283153,0000010E,false,Rx,0,8,00,00,1E,00,00,C0,AB,57,
285531,00000061,false,Rx,0,8,EF,AB,FE,00,00,00,00,00,
285674,00000062,false,Rx,0,8,02,02,00,02,40,FF,00,FF,
285743,00000063,false,Rx,0,8,07,01,15,00,00,08,FD,00,
285986,00000064,false,Rx,0,8,00,00,00,04,FF,FA,00,00,
287655,00000121,false,Rx,0,8,AD,B7,1C,00,00,00,00,05,
287763,00000475,false,Rx,0,8,12,00,00,00,00,00,00,00,
287880,00000122,false,Rx,0,8,FF,D9,67,1F,43,44,43,43,
288125,00000496,false,Rx,0,8,12,00,00,00,00,00,00,00,
288776,00000123,false,Rx,0,8,F0,02,00,00,00,00,00,35,
288886,00000124,false,Rx,0,8,00,00,0A,00,00,00,20,40,
289914,000000FF,false,Rx,0,8,CB,10,00,00,00,00,02,00,
290097,00000111,false,Rx,0,8,00,09,74,01,00,00,00,00,
290395,00000112,false,Rx,0,8,00,00,00,00,00,00,00,00,
290649,00000113,false,Rx,0,8,00,00,00,00,00,00,00,00,
290899,00000114,false,Rx,0,8,00,00,00,00,00,00,00,00,
291171,00000394,false,Rx,0,8,2A,22,1A,49,00,00,00,00,
291654,000003C3,false,Rx,0,8,45,10,31,30,36,00,00,00,
292248,000003E0,false,Rx,0,8,01,70,01,00,54,03,00,00,
293058,000003E5,false,Rx,0,8,9E,70,01,00,00,00,00,00,
293166,000003E6,false,Rx,0,8,A1,40,00,00,00,00,00,00,
293216,0000041A,false,Rx,0,8,D4,80,12,00,50,01,00,00,
293533,0000030B,false,Rx,0,8,28,22,69,00,04,00,00,00,
293682,0000041B,false,Rx,0,8,BE,70,00,00,00,00,00,00,
293943,0000030C,false,Rx,0,8,00,00,0C,00,2C,00,A0,0F,
294346,0000041C,false,Rx,0,8,84,D0,E8,00,00,00,00,00,
294684,0000030D,false,Rx,0,8,00,00,00,00,FF,00,00,00,
295155,00000422,false,Rx,0,8,FA,20,01,00,00,00,04,00,
295211,0000030E,false,Rx,0,8,00,00,28,05,21,00,00,02,
295392,00000432,false,Rx,0,8,03,20,02,00,00,00,00,00,
295643,000000A1,false,Rx,0,8,38,31,FF,8A,D4,EC,A2,00,
295888,00000435,false,Rx,0,8,0E,10,00,50,00,00,00,00,
296113,000000A2,false,Rx,0,8,00,00,00,00,00,00,00,00,
296336,00000442,false,Rx,0,8,CE,20,11,81,00,00,00,00,
296612,000000A3,false,Rx,0,8,00,40,01,00,00,00,00,00,
296824,00000444,false,Rx,0,8,0B,60,20,50,55,50,00,00,
297069,000001AB,false,Rx,0,8,FC,C0,0A,40,70,90,00,00,
297315,00000445,false,Rx,0,8,77,A0,00,00,00,00,00,18,
297637,000001AC,false,Rx,0,8,00,28,00,00,00,00,00,00,
298237,00000464,false,Rx,0,8,6C,30,F0,FF,38,7F,05,00,
304086,00000036,false,Rx,0,8,9E,1B,1E,51,00,00,25,05,
304192,00000037,false,Rx,0,8,05,00,00,10,00,40,00,00,
304551,00000038,false,Rx,0,8,04,00,00,00,B0,39,96,D4,
305053,00000039,false,Rx,0,8,00,00,00,00,00,00,00,00,
310422,0000011B,false,Rx,0,8,8C,47,1F,05,80,08,A8,02,
310517,0000012B,false,Rx,0,8,CB,BD,1F,06,00,00,08,00,
310903,0000011C,false,Rx,0,8,00,05,20,00,22,00,01,01,
310983,0000012C,false,Rx,0,8,00,00,01,00,00,64,00,00,
313073,00000091,false,Rx,0,8,EE,D7,67,3A,00,00,00,00,
313166,00000092,false,Rx,0,8,29,00,00,00,90,02,00,00,
313397,00000093,false,Rx,0,8,00,00,00,00,00,00,00,00,
313678,00000094,false,Rx,0,8,00,00,00,00,00,00,00,00,
316727,00000487,false,Rx,1,8,00,00,00,00,00,00,00,00,
317316,00000226,false,Rx,0,8,A8,C6,37,FF,FA,20,09,42,
317515,000002FF,false,Rx,0,8,E2,01,00,F1,3F,00,00,00,
317590,00000642,false,Rx,1,8,FF,FF,FF,FF,FF,FF,00,00,
317635,00000227,false,Rx,0,8,02,C4,07,09,00,F1,6F,03,
317698,00000316,false,Rx,0,8,75,F3,9D,A4,0F,80,0A,00,
317742,00000472,false,Rx,0,8,5C,EC,00,40,08,41,00,45,
317788,00000317,false,Rx,0,8,00,00,05,00,00,00,00,00,
318003,00000473,false,Rx,0,8,5F,24,00,25,00,00,00,78,
318552,00000474,false,Rx,0,8,53,98,00,00,00,00,00,10,
325829,000003AA,false,Rx,0,8,FF,00,D0,00,54,00,00,00,
329313,0000019B,false,Rx,0,8,A6,76,1E,00,00,E4,00,00,
329523,0000019C,false,Rx,0,8,40,20,00,00,00,00,0B,09,
329770,0000019D,false,Rx,0,8,00,10,00,01,00,00,00,00,
330060,0000019E,false,Rx,0,8,15,00,00,00,00,32,00,00,
331990,0000010B,false,Rx,0,8,8A,3D,21,00,00,00,00,05,
332147,0000010C,false,Rx,0,8,FF,F9,E7,1F,43,48,44,44,
332435,0000010D,false,Rx,0,8,EF,02,00,00,00,00,00,35,
332645,0000010E,false,Rx,0,8,00,00,1E,00,00,C0,AB,57,
334559,00000251,false,Rx,0,8,4E,82,69,00,00,00,00,00,
334727,00000495,false,Rx,0,8,49,00,00,00,00,00,00,00,
334972,00000252,false,Rx,0,8,00,00,1B,1B,03,00,00,00,
335224,00000061,false,Rx,0,8,15,55,03,00,00,00,00,00,
335456,00000253,false,Rx,0,8,00,00,00,53,53,00,80,46,
335701,00000062,false,Rx,0,8,02,02,00,02,40,FF,00,FF,
335973,00000063,false,Rx,0,8,07,01,15,00,00,08,FD,00,
336216,00000064,false,Rx,0,8,00,00,00,04,FF,FA,00,00,
336807,00000396,false,Rx,0,8,90,35,B4,0F,08,03,00,02,
337094,00000397,false,Rx,0,8,10,00,00,00,00,00,00,00,
337364,00000398,false,Rx,0,8,00,00,00,00,00,00,00,00,
337605,00000121,false,Rx,0,8,CE,2C,21,00,00,00,00,05,
337849,00000122,false,Rx,0,8,FF,D9,67,1F,43,44,43,43,
338203,00000123,false,Rx,0,8,F0,02,00,00,00,00,00,35,
338449,00000124,false,Rx,0,8,00,00,0A,00,00,00,20,40,
340060,000002D6,false,Rx,0,8,D0,DA,B4,00,00,00,00,00,
340204,000002D7,false,Rx,0,8,00,00,00,00,03,00,00,00,
340489,000002D8,false,Rx,0,8,00,00,00,00,00,00,38,44,
340736,000002D9,false,Rx,0,8,00,00,00,00,00,00,00,00,
340965,000002EB,false,Rx,0,8,65,08,B4,08,08,00,00,02,
341227,000002EC,false,Rx,0,8,07,00,00,00,00,00,00,00,
341474,00000356,false,Rx,0,8,13,12,B5,00,00,00,00,00,
341707,000001E6,false,Rx,0,8,F4,F8,CF,02,00,00,00,00,
341965,000002ED,false,Rx,0,8,00,00,00,00,00,00,00,00,
342194,000001BB,false,Rx,0,8,6B,89,CF,02,00,00,00,0A,
342449,000002EE,false,Rx,0,8,00,00,00,00,00,00,00,00,
342683,000001BC,false,Rx,0,8,32,00,00,00,02,00,00,00,
342963,00000357,false,Rx,0,8,00,00,00,00,00,4B,4D,48,
343173,000001BD,false,Rx,0,8,00,00,00,00,00,00,00,00,
343419,00000358,false,Rx,0,8,35,41,45,4D,52,37,33,4F,
343644,000001E7,false,Rx,0,8,00,00,22,03,20,01,00,00,
343931,00000359,false,Rx,0,8,51,4F,34,52,4A,35,33,00,
344123,00000401,false,Rx,0,8,20,30,10,00,00,01,00,00,
344367,0000036F,false,Rx,0,8,91,21,01,00,00,00,00,00,
344626,0000037F,false,Rx,0,8,8B,D0,52,24,41,02,00,00,
344902,00000146,false,Rx,0,8,3E,7B,04,10,04,05,00,00,
345148,00000147,false,Rx,0,8,01,04,7D,00,40,AA,08,00,
345398,00000148,false,Rx,0,8,00,00,42,00,1E,7C,40,05,
345621,000000A1,false,Rx,0,8,46,33,04,8A,D4,EC,A2,00,
345895,00000149,false,Rx,0,8,00,38,00,CC,00,00,00,00,
346114,000000A2,false,Rx,0,8,00,00,00,00,00,00,00,00,
346427,000000A3,false,Rx,0,8,00,40,01,00,00,00,00,00,
346904,000001B1,false,Rx,0,8,F0,48,04,00,72,00,00,00,
347119,000001B2,false,Rx,0,8,23,00,04,0D,0F,01,50,0F,
347379,000001B3,false,Rx,0,8,10,30,34,00,63,7F,6F,80,
347614,00000448,false,Rx,0,8,7F,00,00,00,00,00,00,00,
347883,000001B4,false,Rx,0,8,6B,84,10,00,00,41,00,00,
350571,000001A1,false,Rx,0,8,60,C7,11,FE,F7,7F,64,00,
350824,000001A2,false,Rx,0,8,00,00,00,00,00,08,00,00,
351102,000001A3,false,Rx,0,8,FF,F3,3F,00,00,00,00,00,
351342,000001A4,false,Rx,0,8,FE,07,00,00,00,00,00,00,
351691,00000516,false,Rx,0,8,61,02,00,00,00,00,FF,FF,
353940,00000036,false,Rx,0,8,FD,80,23,51,00,00,25,05,
354127,00000037,false,Rx,0,8,05,00,00,10,00,40,00,00,
354376,00000038,false,Rx,0,8,04,00,00,00,B0,39,96,D4,
354663,00000039,false,Rx,0,8,00,00,00,00,00,00,00,00,
359042,000004A3,false,Rx,1,8,80,00,48,0B,3E,00,00,00,
359288,000004A4,false,Rx,1,8,FF,FF,FF,00,00,00,00,00,
360347,0000011B,false,Rx,0,8,5A,DB,24,05,80,08,A8,02,
360491,0000011C,false,Rx,0,8,00,05,20,00,22,00,01,01,
360718,0000012B,false,Rx,0,8,1D,21,24,06,00,00,08,00,
360996,0000012C,false,Rx,0,8,00,00,01,00,00,64,00,00,
366675,000003B6,false,Rx,0,8,3D,4A,B3,00,00,00,00,44,
366949,000003B7,false,Rx,0,8,43,00,00,00,00,00,00,00,
367206,000003B8,false,Rx,0,8,EB,02,00,00,00,00,69,0E,
367618,000003B9,false,Rx,0,8,00,00,00,00,00,00,00,00,
379501,0000019B,false,Rx,0,8,C5,ED,23,00,00,E4,00,00,
379581,0000019C,false,Rx,0,8,40,20,00,00,00,00,0B,09,
379924,0000019D,false,Rx,0,8,00,10,00,01,00,00,00,00,
380049,0000019E,false,Rx,0,8,15,00,00,00,00,32,00,00,
380292,00000161,false,Rx,0,8,69,1C,13,03,00,00,00,02,
380552,00000162,false,Rx,0,8,FF,FC,01,00,00,00,00,00,
380921,000001FB,false,Rx,0,8,CA,C1,6A,00,00,00,00,00,
381203,000001FC,false,Rx,0,8,00,00,00,00,00,00,00,00,
381450,000001FD,false,Rx,0,8,00,1A,03,00,00,00,00,00,
381702,000001FE,false,Rx,0,8,00,00,00,00,00,00,00,00,
381951,0000010B,false,Rx,0,8,79,A3,26,00,00,00,00,05,
382197,0000010C,false,Rx,0,8,FF,F9,E7,1F,43,48,44,44,
382433,0000010D,false,Rx,0,8,EF,02,00,00,00,00,00,35,
382725,0000010E,false,Rx,0,8,00,00,1E,00,00,C0,AB,57,
385287,00000061,false,Rx,0,8,AD,54,08,00,00,00,00,00,
385521,00000062,false,Rx,0,8,02,02,00,02,40,FF,00,FF,
385764,00000063,false,Rx,0,8,07,01,15,00,00,08,FD,00,
386021,00000064,false,Rx,0,8,00,00,00,04,FF,FA,00,00,
387426,00000121,false,Rx,0,8,3D,B2,26,00,00,00,00,05,
387602,00000122,false,Rx,0,8,FF,D9,67,1F,43,44,43,43,
387873,000003B1,false,Rx,0,8,D4,A8,00,40,00,00,20,00,
388104,00000123,false,Rx,0,8,F0,02,00,00,00,00,00,35,
388360,00000124,false,Rx,0,8,00,00,0A,00,00,00,20,40,
388714,0000042A,false,Rx,0,8,CF,74,01,04,00,10,00,00,
395654,000000A1,false,Rx,0,8,70,70,09,8A,D4,EC,A2,00,
395880,000000A2,false,Rx,0,8,00,00,00,00,00,00,00,00,
396120,000000A3,false,Rx,0,8,00,40,01,00,00,00,00,00,
396368,000001AB,false,Rx,0,8,0A,E8,0F,40,70,90,00,00,
396621,000001AC,false,Rx,0,8,00,28,00,00,00,00,00,00,
403944,00000036,false,Rx,0,8,45,81,28,51,00,00,25,05,
404174,00000037,false,Rx,0,8,05,00,00,10,00,40,00,00,
404431,00000038,false,Rx,0,8,04,00,00,00,B0,39,96,D4,
404684,00000039,false,Rx,0,8,00,00,00,00,00,00,00,00,
406412,00000236,false,Rx,0,8,FA,8A,6A,00,30,63,34,6C,
406579,000002FB,false,Rx,0,8,EB,96,6A,04,0C,18,C3,C3,
406807,00000151,false,Rx,0,8,06,6E,6A,A0,C8,00,28,15,
407054,00000237,false,Rx,0,8,00,05,94,00,00,5A,1D,00,
407291,00000152,false,Rx,0,8,12,14,13,00,24,00,00,00,
407521,000001F6,false,Rx,0,8,A7,95,6A,00,00,00,00,0D,
407789,00000153,false,Rx,0,8,00,00,00,00,00,00,00,00,
408022,000001F7,false,Rx,0,8,1F,00,DC,00,00,00,00,00,
408269,00000154,false,Rx,0,8,00,00,00,00,00,00,00,00,
408522,000001F8,false,Rx,0,8,00,69,00,64,00,00,00,00,
408769,000002FC,false,Rx,0,8,10,00,12,15,00,00,86,96,
409003,000001F9,false,Rx,0,8,19,00,A0,C8,14,00,19,00,
409271,000002FD,false,Rx,0,8,00,00,00,00,00,1C,10,EA,
409492,00000238,false,Rx,0,8,00,00,0C,00,00,00,00,00,
409748,000002FE,false,Rx,0,8,00,00,72,01,00,28,00,00,
409987,00000239,false,Rx,0,8,00,00,00,00,01,00,00,00,
410273,00000326,false,Rx,0,8,BF,2C,6A,00,00,00,00,00,
410467,0000011B,false,Rx,0,8,29,E2,29,05,80,08,A8,02,
410702,0000012B,false,Rx,0,8,6E,18,29,06,00,00,08,00,
410955,0000011C,false,Rx,0,8,00,05,20,00,22,00,01,01,
411194,0000012C,false,Rx,0,8,00,00,01,00,00,64,00,00,
411448,000001E1,false,Rx,0,8,F2,C6,D5,02,00,00,00,00,
411677,0000025B,false,Rx,0,8,34,17,6A,40,40,20,00,00,
411952,000001E2,false,Rx,0,8,00,00,00,00,00,00,00,00,
412334,0000025C,false,Rx,0,8,00,00,1F,00,BD,68,15,00,
412724,00000327,false,Rx,0,8,00,00,00,00,01,00,00,00,
413044,0000025D,false,Rx,0,8,00,C8,00,00,00,80,C0,70,
413464,00000091,false,Rx,0,8,48,B2,68,3A,00,00,00,00,
413524,0000025E,false,Rx,0,8,52,07,0E,07,00,00,00,00,
413590,00000092,false,Rx,0,8,28,00,00,00,80,02,00,00,
413638,00000328,false,Rx,0,8,DC,00,19,00,00,69,00,00,
414058,00000093,false,Rx,0,8,00,00,00,00,00,00,00,00,
414454,00000329,false,Rx,0,8,A0,64,00,00,00,00,00,00,
414506,00000094,false,Rx,0,8,00,00,00,00,00,00,00,00,
414653,00000331,false,Rx,0,8,4F,0D,6A,F1,C8,A0,2C,97,
415069,00000332,false,Rx,0,8,44,07,B4,00,00,00,00,00,
415491,00000333,false,Rx,0,8,00,00,00,1C,0C,40,20,A0,
415546,00000334,false,Rx,0,8,C8,00,00,00,5C,70,B7,8F,
420174,000001F1,false,Rx,0,8,4A,21,CF,01,00,00,28,00,
420284,000001F2,false,Rx,0,8,00,00,00,00,00,00,00,00,
429245,000000C5,false,Rx,1,8,00,00,00,00,00,00,00,00,
429612,0000019B,false,Rx,0,8,7D,EC,28,00,00,E4,00,00,
430082,00000244,false,Rx,1,8,00,00,00,00,00,00,00,00,
430254,0000041F,false,Rx,1,8,00,0C,00,00,00,00,00,00,
430466,0000019C,false,Rx,0,8,40,20,00,00,00,00,0B,09,
430532,000004B4,false,Rx,1,8,01,00,0D,40,10,60,44,02,
430584,0000019D,false,Rx,0,8,00,10,00,01,00,00,00,00,
430650,000004B5,false,Rx,1,8,08,00,F0,07,00,00,00,00,
430737,0000019E,false,Rx,0,8,15,00,00,00,00,32,00,00,
430791,000004B7,false,Rx,1,8,08,00,F0,07,00,00,00,00,
430833,000002BF,false,Rx,0,8,FF,FF,FF,00,00,00,00,00,
430960,0000034B,false,Rx,0,8,CA,AD,24,31,D8,0D,05,01,
431125,000004CA,false,Rx,1,8,00,00,00,00,00,00,00,00,
431484,0000034C,false,Rx,0,8,00,00,00,00,00,00,00,00,
431623,000004CC,false,Rx,1,8,08,00,00,0C,00,00,03,00,
431720,0000047F,false,Rx,0,8,FF,FF,FF,FF,FF,FF,FF,FF,
432118,0000010B,false,Rx,0,8,74,65,2B,00,00,00,00,05,
432377,000004CE,false,Rx,1,8,14,01,FF,FF,FF,FF,FF,FF,
433827,0000034D,false,Rx,0,8,00,00,00,00,00,00,00,00,
434233,0000010C,false,Rx,0,8,FF,F9,E7,1F,43,48,44,44,
434351,000004D7,false,Rx,1,8,23,01,00,00,00,00,00,00,
434463,0000034E,false,Rx,0,8,00,00,00,00,00,00,00,00,
434519,0000010D,false,Rx,0,8,EF,02,00,00,00,00,00,35,
434614,000004D8,false,Rx,1,8,41,10,F6,F0,40,F2,1E,CC,
434663,00000380,false,Rx,0,8,A0,99,01,0C,0C,0C,0C,01,
434705,0000010E,false,Rx,0,8,00,00,1E,00,00,C0,AB,57,
434753,000004DD,false,Rx,1,8,00,00,FE,00,04,00,00,00,
434816,00000382,false,Rx,0,8,36,4D,02,00,00,05,09,00,
434896,000004DF,false,Rx,1,8,00,00,08,00,00,00,00,00,
434949,00000383,false,Rx,0,8,89,14,01,10,01,00,00,00,
435011,000004E7,false,Rx,1,8,00,30,00,00,00,00,69,00,
435095,00000653,false,Rx,0,8,0A,19,03,01,02,2A,00,00,
435145,000004E8,false,Rx,1,8,FF,FF,FF,0B,FF,FF,FF,00,
435408,00000061,false,Rx,0,8,D2,78,0D,00,00,00,00,00,
435516,000004E9,false,Rx,1,8,00,00,00,00,00,00,00,00,
435870,00000062,false,Rx,0,8,02,02,00,02,40,FF,00,FF,
436000,000004EA,false,Rx,1,8,00,00,00,00,00,00,00,00,
436090,000002AB,false,Rx,0,8,27,3D,6B,0C,0C,00,00,00,
436332,00000063,false,Rx,0,8,07,01,15,00,00,08,FD,00,
436511,000004EB,false,Rx,1,8,04,68,29,03,80,00,00,00,
436984,000002AC,false,Rx,0,8,00,FF,FF,00,00,40,00,50,
437703,00000064,false,Rx,0,8,00,00,00,04,FF,FA,00,00,
437873,000004EC,false,Rx,1,8,FF,FF,FF,FF,FF,FF,FF,0F,
437926,000002AD,false,Rx,0,8,00,01,00,40,FF,FF,FF,0F,
438006,00000384,false,Rx,0,8,D8,3D,02,01,00,FF,00,22,
438055,000004ED,false,Rx,1,8,FF,FF,FF,FF,FF,FF,FF,1F,
438099,00000121,false,Rx,0,8,30,74,2B,00,00,00,00,05,
438141,000002AE,false,Rx,0,8,01,00,FF,3F,01,01,00,00,
438405,000004EE,false,Rx,1,8,FF,FF,00,00,00,00,00,00,
438529,00000122,false,Rx,0,8,FF,D9,67,1F,43,44,43,43,
438690,000002B6,false,Rx,0,8,15,8E,6B,01,00,00,00,40,
438938,000004EF,false,Rx,1,8,60,00,60,00,29,14,00,00,
440097,00000123,false,Rx,0,8,F0,02,00,00,00,00,00,35,
440253,000002B7,false,Rx,0,8,93,01,C1,08,00,04,00,00,
440390,0000063D,false,Rx,1,8,00,80,00,00,00,00,00,00,
441156,00000124,false,Rx,0,8,00,00,0A,00,00,00,20,40,
441496,000002B8,false,Rx,0,8,B2,61,11,00,00,00,00,00,
441570,0000063E,false,Rx,1,8,FF,FF,FF,FF,FF,FF,FF,FF,
441612,000003B0,false,Rx,0,8,72,37,FF,C7,00,00,03,C0,
441694,000002B9,false,Rx,0,8,0A,00,00,00,00,00,00,00,
441746,0000063F,false,Rx,1,8,00,10,00,C4,FF,00,00,00,
441802,0000033B,false,Rx,0,8,26,46,6B,00,00,00,00,00,
441854,000002C1,false,Rx,0,8,3F,04,B6,21,00,41,00,A1,
441918,00000640,false,Rx,1,8,FF,FF,FF,00,FF,FF,FF,00,
441963,0000033C,false,Rx,0,8,00,00,00,00,F0,00,00,00,
442011,000002C2,false,Rx,0,8,40,00,00,00,00,00,00,00,
442074,00000641,false,Rx,1,8,FF,FF,FF,FF,0F,FF,FF,FF,
442168,0000033D,false,Rx,0,8,00,00,00,00,00,00,00,00,
442210,000002C3,false,Rx,0,8,00,00,00,00,00,00,00,00,
442263,00000646,false,Rx,1,8,00,00,00,80,01,00,00,00,
442315,0000033E,false,Rx,0,8,00,00,00,00,00,00,00,00,
442715,000002C4,false,Rx,0,8,00,00,00,00,00,00,00,00,
443236,000003B2,false,Rx,0,8,36,15,FF,02,29,2F,34,00,
443367,000002E1,false,Rx,0,8,04,18,6B,00,00,00,00,40,
443432,0000036F,false,Rx,0,8,28,31,01,00,00,00,00,00,
443475,000002E2,false,Rx,0,8,FD,00,00,00,00,14,00,04,
443517,0000037F,false,Rx,0,8,5D,E0,52,24,41,02,00,00,
443572,000002E3,false,Rx,0,8,00,00,00,00,00,00,72,01,
443619,00000427,false,Rx,0,8,1D,86,FF,00,80,0A,00,00,
443677,000002E4,false,Rx,0,8,02,00,00,00,00,00,00,00,
445159,00000146,false,Rx,0,8,33,BD,09,10,04,05,00,00,
445685,00000147,false,Rx,0,8,01,04,7D,00,40,AA,08,00,
446299,000000A1,false,Rx,0,8,79,F5,0E,8A,D4,EC,A2,00,
446622,00000148,false,Rx,0,8,00,00,42,00,1E,7C,40,05,
446721,000000A2,false,Rx,0,8,00,00,00,00,00,00,00,00,
446982,00000149,false,Rx,0,8,00,38,00,CC,00,00,00,00,
447113,000000A3,false,Rx,0,8,00,40,01,00,00,00,00,00,
447158,000001B1,false,Rx,0,8,FD,8E,09,00,72,00,00,00,
447654,000001B2,false,Rx,0,8,23,00,04,0D,0F,01,50,0F,
448042,000001B3,false,Rx,0,8,10,30,34,00,63,7F,6F,80,
448538,000001B4,false,Rx,0,8,6B,84,10,00,00,41,00,00,
450278,000001A1,false,Rx,0,8,93,59,16,FE,F7,7F,64,00,
450856,000001A2,false,Rx,0,8,00,00,00,00,00,08,00,00,
451571,000001A3,false,Rx,0,8,FF,F3,3F,00,00,00,00,00,
452007,000001A4,false,Rx,0,8,FE,07,00,00,00,00,00,00,
452456,00000561,false,Rx,0,8,63,02,00,00,00,00,FF,FF,
454044,00000036,false,Rx,0,8,3A,AD,2D,51,00,00,25,05,
454141,00000037,false,Rx,0,8,05,00,00,10,00,40,00,00,
455197,00000038,false,Rx,0,8,04,00,00,00,B0,39,96,D4,
455272,00000039,false,Rx,0,8,00,00,00,00,00,00,00,00,
460207,0000011B,false,Rx,0,8,B6,8A,2E,05,80,08,A8,02,
460339,0000012B,false,Rx,0,8,F1,70,2E,06,00,00,08,00,
460650,0000011C,false,Rx,0,8,00,05,20,00,22,00,01,01,
461078,0000012C,false,Rx,0,8,00,00,01,00,00,64,00,00,
461593,00000405,false,Rx,0,8,04,20,00,00,00,01,00,00,
462428,00000410,false,Rx,0,8,13,50,54,3C,B4,6A,FF,FF,
462541,00000411,false,Rx,0,8,60,11,50,00,00,00,44,04,
462589,00000412,false,Rx,0,8,F9,70,00,00,00,00,04,00,
462731,00000413,false,Rx,0,8,F5,10,00,41,00,00,00,00,
462774,00000414,false,Rx,0,8,87,A0,00,00,28,00,00,00,
462988,00000416,false,Rx,0,8,55,00,00,00,00,00,00,00,
463289,00000417,false,Rx,0,8,B7,70,00,00,00,01,00,00,
463574,00000418,false,Rx,0,8,D0,80,00,00,12,4C,00,00,
463809,00000419,false,Rx,0,8,13,A0,8D,D5,71,7A,84,00,
466221,00000256,false,Rx,0,8,BD,58,68,15,00,00,80,01,
466307,000002E6,false,Rx,0,8,28,F3,68,01,00,00,00,15,
466617,00000257,false,Rx,0,8,00,8C,40,25,85,07,00,8C,
466743,000002E7,false,Rx,0,8,0A,00,00,00,00,00,00,00,
466978,00000258,false,Rx,0,8,04,2A,1D,00,10,15,00,1C,
467229,000002E8,false,Rx,0,8,00,00,00,00,00,00,00,00,
467459,00000259,false,Rx,0,8,81,05,8E,3C,2C,02,00,00,
467738,000002E9,false,Rx,0,8,00,00,00,00,00,00,00,00,
474750,000003A1,false,Rx,0,8,C6,A4,81,00,FF,FF,FF,FF,
474856,000003A2,false,Rx,0,8,00,00,00,00,00,00,00,00,
479506,0000019B,false,Rx,0,8,02,C0,2D,00,00,E4,00,00,
479596,0000019C,false,Rx,0,8,40,20,00,00,00,00,0B,09,
479998,0000019D,false,Rx,0,8,00,10,00,01,00,00,00,00,
480075,0000019E,false,Rx,0,8,15,00,00,00,00,32,00,00,
480439,00000161,false,Rx,0,8,A1,E5,18,03,00,00,00,02,
480620,00000162,false,Rx,0,8,FF,FC,01,00,00,00,00,00,
482228,0000010B,false,Rx,0,8,09,A0,30,00,00,00,00,05,
482331,0000010C,false,Rx,0,8,FF,F9,E7,1F,43,48,44,44,
482462,0000010D,false,Rx,0,8,EF,02,00,00,00,00,00,35,
482809,0000010E,false,Rx,0,8,00,00,1E,00,00,C0,AB,57,
485677,00000061,false,Rx,0,8,96,C8,12,00,00,00,00,00,
485773,00000062,false,Rx,0,8,02,02,00,02,40,FF,00,FF,
485822,00000063,false,Rx,0,8,07,01,15,00,00,08,FD,00,
486537,00000064,false,Rx,0,8,00,00,00,04,FF,FA,00,00,
487719,00000121,false,Rx,0,8,08,42,30,00,00,00,00,05,
487811,00000475,false,Rx,0,8,12,00,00,00,00,00,00,00,
487856,00000122,false,Rx,0,8,FF,D9,67,1F,43,44,43,43,
488129,00000496,false,Rx,0,8,12,00,00,00,00,00,00,00,
488378,00000123,false,Rx,0,8,EF,02,00,00,00,00,00,35,
488604,00000124,false,Rx,0,8,00,00,0A,00,00,00,20,40,
490175,000000FF,false,Rx,0,8,CB,10,00,00,00,00,02,00,
490332,00000111,false,Rx,0,8,46,50,75,01,00,00,00,00,
490406,00000112,false,Rx,0,8,00,00,00,00,00,00,00,00,
490953,00000113,false,Rx,0,8,00,00,00,00,00,00,00,00,
491062,00000114,false,Rx,0,8,00,00,00,00,00,00,00,00,
491145,00000394,false,Rx,0,8,2A,22,1A,49,00,00,00,00,
491531,000003C3,false,Rx,0,8,45,10,31,30,36,00,00,00,
491751,000001E6,false,Rx,0,8,8D,E2,D2,02,00,00,00,00,
491984,000003E0,false,Rx,0,8,01,70,01,00,54,03,00,00,
492224,000001BB,false,Rx,0,8,0E,8A,D2,02,00,00,00,0A,
492471,000001BC,false,Rx,0,8,32,00,00,00,02,00,00,00,
492714,000003E5,false,Rx,0,8,9E,70,01,00,00,00,00,00,
492975,000001BD,false,Rx,0,8,00,00,00,00,00,00,00,00,
493215,0000030B,false,Rx,0,8,A4,90,6B,00,04,00,00,00,
493452,000001E7,false,Rx,0,8,00,00,22,03,20,01,00,00,
493691,0000030C,false,Rx,0,8,00,00,0C,00,2C,00,A0,0F,
493944,000003E6,false,Rx,0,8,A1,40,00,00,00,00,00,00,
494198,0000030D,false,Rx,0,8,00,00,00,00,FF,00,00,00,
494461,0000041A,false,Rx,0,8,D4,80,12,00,50,01,00,00,
494721,0000030E,false,Rx,0,8,00,00,28,05,21,00,00,02,
494994,0000041B,false,Rx,0,8,BE,70,00,00,00,00,00,00,
495200,0000041C,false,Rx,0,8,84,D0,E8,00,00,00,00,00,
495467,00000422,false,Rx,0,8,FA,20,01,00,00,00,04,00,
495702,000000A1,false,Rx,0,8,1C,F6,13,8A,D4,EC,A2,00,
495940,00000432,false,Rx,0,8,03,20,02,00,00,00,00,00,
496189,000000A2,false,Rx,0,8,00,00,00,00,00,00,00,00,
496431,00000435,false,Rx,0,8,0E,10,00,50,00,00,00,00,
496695,000000A3,false,Rx,0,8,00,40,01,00,00,00,00,00,
496916,000001AB,false,Rx,0,8,C8,32,14,40,70,90,00,00,
497146,00000442,false,Rx,0,8,CE,20,11,81,00,00,00,00,
497781,000001AC,false,Rx,0,8,00,28,00,00,00,00,00,00,
498471,00000444,false,Rx,0,8,0B,60,20,50,55,50,00,00,
498967,00000445,false,Rx,0,8,77,A0,00,00,00,00,00,18,
499022,00000464,false,Rx,0,8,6C,30,F0,FF,38,7F,05,00,
504087,00000036,false,Rx,0,8,7E,1D,32,51,00,00,25,05,
504195,00000037,false,Rx,0,8,05,00,00,10,00,40,00,00,
504549,00000038,false,Rx,0,8,04,00,00,00,B0,39,96,D4,
504961,00000039,false,Rx,0,8,00,00,00,00,00,00,00,00,
510533,0000011B,false,Rx,0,8,CF,90,33,05,80,08,A8,02,
510629,0000012B,false,Rx,0,8,88,6A,33,06,00,00,08,00,
510995,0000011C,false,Rx,0,8,00,05,20,00,22,00,01,01,
511075,0000012C,false,Rx,0,8,00,00,01,00,00,64,00,00,
513052,00000091,false,Rx,0,8,29,FA,69,3A,00,00,00,00,
513134,00000092,false,Rx,0,8,29,00,00,00,90,02,00,00,
513556,00000093,false,Rx,0,8,00,00,00,00,00,00,00,00,
513638,00000094,false,Rx,0,8,00,00,00,00,00,00,00,00,
516575,00000226,false,Rx,0,8,96,17,39,FF,FA,20,09,42,
516669,000002FF,false,Rx,0,8,E2,01,00,F1,3F,00,00,00,
516849,00000227,false,Rx,0,8,02,C4,07,09,00,F1,6F,03,
517071,00000316,false,Rx,0,8,38,1B,9E,A4,0F,80,0A,00,
517456,00000472,false,Rx,0,8,5C,EC,00,40,08,41,00,45,
517563,00000317,false,Rx,0,8,00,00,05,00,00,00,00,00,
518047,00000473,false,Rx,0,8,5F,24,00,25,00,00,00,78,
518747,00000474,false,Rx,0,8,53,98,00,00,00,00,00,10,
520709,00000487,false,Rx,1,8,00,00,00,00,00,00,00,00,
520972,00000642,false,Rx,1,8,FF,FF,FF,FF,FF,FF,00,00,
525849,000003AA,false,Rx,0,8,FF,00,D0,00,54,00,00,00,
529494,0000019B,false,Rx,0,8,46,70,32,00,00,E4,00,00,
529588,0000019C,false,Rx,0,8,40,20,00,00,00,00,0B,09,
529923,0000019D,false,Rx,0,8,00,10,00,01,00,00,00,00,
530060,0000019E,false,Rx,0,8,15,00,00,00,00,32,00,00,
531977,0000010B,false,Rx,0,8,76,8C,35,00,00,00,00,05,
532148,0000010C,false,Rx,0,8,FF,F9,E7,1F,43,48,44,44,
532396,0000010D,false,Rx,0,8,EF,02,00,00,00,00,00,35,
532650,0000010E,false,Rx,0,8,00,00,1E,00,00,C0,AB,57,
534571,00000251,false,Rx,0,8,48,EC,6B,00,00,00,00,00,
534719,00000495,false,Rx,0,8,49,00,00,00,00,00,00,00,
534999,00000252,false,Rx,0,8,00,00,1B,1B,03,00,00,00,
535443,00000061,false,Rx,0,8,E9,E4,17,00,00,00,00,00,
535502,00000253,false,Rx,0,8,00,00,00,53,53,00,80,46,
535923,00000062,false,Rx,0,8,02,02,00,02,40,FF,00,FF,
536752,00000063,false,Rx,0,8,07,01,15,00,00,08,FD,00,
537222,00000064,false,Rx,0,8,00,00,00,04,FF,FA,00,00,
537308,00000396,false,Rx,0,8,B5,41,B5,0F,08,01,00,02,
537360,00000397,false,Rx,0,8,4E,00,00,00,00,00,00,00,
537766,00000121,false,Rx,0,8,77,6E,35,00,00,00,00,05,
538085,00000398,false,Rx,0,8,00,00,00,00,00,00,00,00,
538649,00000122,false,Rx,0,8,FF,D9,67,1F,43,44,43,43,
538756,00000123,false,Rx,0,8,EF,02,00,00,00,00,00,35,
538816,00000124,false,Rx,0,8,00,00,0A,00,00,00,20,40,
539800,000002D6,false,Rx,0,8,96,83,B5,00,00,00,00,00,
540120,000002D7,false,Rx,0,8,00,00,00,00,03,00,00,00,
540658,000002D8,false,Rx,0,8,00,00,00,00,00,00,38,44,
540770,000002EB,false,Rx,0,8,4B,12,B5,09,08,01,00,02,
540814,000002D9,false,Rx,0,8,00,00,00,00,00,00,00,00,
541056,000002EC,false,Rx,0,8,02,00,00,00,00,00,00,00,
541797,000002ED,false,Rx,0,8,00,00,00,00,00,00,00,00,
542131,00000356,false,Rx,0,8,D9,F9,B6,00,00,00,00,00,
542182,000002EE,false,Rx,0,8,00,00,00,00,00,00,00,00,
542687,00000357,false,Rx,0,8,00,00,00,00,00,4B,4D,48,
543372,00000401,false,Rx,0,8,20,30,10,00,00,01,00,00,
543671,00000358,false,Rx,0,8,35,41,45,4D,52,37,33,4F,
543719,00000359,false,Rx,0,8,51,4F,34,52,4A,35,33,00,
543774,0000036F,false,Rx,0,8,20,41,01,00,00,00,00,00,
544070,0000037F,false,Rx,0,8,4D,00,52,24,41,02,00,00,
544938,00000146,false,Rx,0,8,36,F6,0E,10,04,05,00,00,
545143,00000147,false,Rx,0,8,01,04,7D,00,40,AB,08,00,
545383,00000148,false,Rx,0,8,00,00,42,00,1E,7C,40,05,
545630,00000149,false,Rx,0,8,00,38,00,CC,00,00,00,00,
545874,000000A1,false,Rx,0,8,20,07,18,8A,D4,EC,A2,00,
546111,000000A2,false,Rx,0,8,00,00,00,00,00,00,00,00,
546385,000000A3,false,Rx,0,8,00,40,01,00,00,00,00,00,
546658,00000563,false,Rx,1,8,65,02,00,00,00,00,FF,FF,
546890,000001B1,false,Rx,0,8,0E,10,0E,00,72,00,00,00,
547326,000001B2,false,Rx,0,8,23,00,04,0D,0F,01,50,0F,
547570,00000448,false,Rx,0,8,7F,00,00,00,00,00,00,00,
547856,000001B3,false,Rx,0,8,10,30,34,00,63,7F,6F,80,
548070,000001B4,false,Rx,0,8,6B,84,10,00,00,41,00,00,
550264,000001A1,false,Rx,0,8,9E,9F,1B,FE,F7,7F,64,00,
550460,000001A2,false,Rx,0,8,00,00,00,00,00,08,00,00,
550719,000001A3,false,Rx,0,8,FF,F3,3F,00,00,00,00,00,
551268,000001A4,false,Rx,0,8,FE,07,00,00,00,00,00,00,
554384,00000036,false,Rx,0,8,01,31,37,51,00,00,25,05,
554722,00000037,false,Rx,0,8,05,00,00,10,00,40,00,00,
554795,00000038,false,Rx,0,8,04,00,00,00,B0,39,96,D4,
554842,00000039,false,Rx,0,8,00,00,00,00,00,00,00,00,
560492,0000011B,false,Rx,0,8,07,69,38,05,80,08,A8,02,
560587,0000012B,false,Rx,0,8,40,93,38,06,00,00,08,00,
560935,0000011C,false,Rx,0,8,00,05,20,00,22,00,01,01,
561016,0000012C,false,Rx,0,8,00,00,01,00,00,64,00,00,
561404,000001E1,false,Rx,0,8,81,FF,D8,02,00,00,00,00,
561734,000001E2,false,Rx,0,8,00,00,00,00,00,00,00,00,
561846,000004A3,false,Rx,1,8,80,00,48,0B,3E,00,00,00,
562126,000004A4,false,Rx,1,8,FF,FF,FF,00,00,00,00,00,
566796,000003B6,false,Rx,0,8,CE,D4,B4,00,00,00,00,44,
566913,000003B7,false,Rx,0,8,43,00,00,00,00,00,00,00,
567274,000003B8,false,Rx,0,8,EB,02,00,00,00,00,69,0E,
567738,000003B9,false,Rx,0,8,00,00,00,00,00,00,00,00,
570213,000001F1,false,Rx,0,8,33,3B,D2,01,00,00,28,00,
570310,000001F2,false,Rx,0,8,00,00,00,00,00,00,00,00,
579431,0000019B,false,Rx,0,8,39,5C,37,00,00,E4,00,00,
579523,0000019C,false,Rx,0,8,40,20,00,00,00,00,0B,09,
579827,0000019D,false,Rx,0,8,00,10,00,01,00,00,00,00,
580047,0000019E,false,Rx,0,8,15,00,00,00,00,32,00,00,
580311,00000161,false,Rx,0,8,57,CD,1D,03,00,00,00,02,
580556,00000162,false,Rx,0,8,FF,FC,01,00,00,00,00,00,
580828,000001FB,false,Rx,0,8,7F,06,6C,00,00,00,00,00,
581079,000001FC,false,Rx,0,8,00,00,00,00,00,00,00,00,
581327,000001FD,false,Rx,0,8,00,1A,03,00,00,00,00,00,
581595,000001FE,false,Rx,0,8,00,00,00,00,00,00,00,00,
581941,0000010B,false,Rx,0,8,F7,F8,3A,00,00,00,00,05,
582180,0000010C,false,Rx,0,8,FF,F9,E7,1F,43,48,44,44,
582432,0000010D,false,Rx,0,8,EF,02,00,00,00,00,00,35,
582682,0000010E,false,Rx,0,8,00,00,1E,00,00,C0,AB,57,
585245,00000061,false,Rx,0,8,51,E5,1C,00,00,00,00,00,
585446,00000062,false,Rx,0,8,02,02,00,02,40,FF,00,FF,
585693,00000063,false,Rx,0,8,07,01,15,00,00,08,FD,00,
585944,00000064,false,Rx,0,8,00,00,00,04,FF,FA,00,00,
587433,00000121,false,Rx,0,8,B3,E9,3A,00,00,00,00,05,
587614,00000122,false,Rx,0,8,FF,D9,67,1F,43,44,43,43,
587862,00000123,false,Rx,0,8,F0,02,00,00,00,00,00,35,
588106,000003B1,false,Rx,0,8,D4,A8,00,40,00,00,20,00,
588349,00000124,false,Rx,0,8,00,00,0A,00,00,00,20,40,
588705,0000042A,false,Rx,0,8,CF,74,01,04,00,10,00,00,
595803,000000A1,false,Rx,0,8,2F,EC,1D,8A,D4,EC,A2,00,
596040,000000A2,false,Rx,0,8,00,00,00,00,00,00,00,00,
596289,000000A3,false,Rx,0,8,00,40,01,00,00,00,00,00,
596524,000001AB,false,Rx,0,8,BB,0B,19,40,70,90,00,00,
596778,000001AC,false,Rx,0,8,00,28,00,00,00,00,00,00,
603947,00000036,false,Rx,0,8,B9,30,3C,51,00,00,25,05,
604135,00000037,false,Rx,0,8,05,00,00,10,00,40,00,00,
604389,00000038,false,Rx,0,8,04,00,00,00,B0,39,96,D4,
604690,00000039,false,Rx,0,8,00,00,00,00,00,00,00,00,
606417,00000236,false,Rx,0,8,4F,4D,6C,00,30,63,34,6C,
606583,000002FB,false,Rx,0,8,5E,51,6C,04,0C,18,C3,C3,
606807,00000151,false,Rx,0,8,B3,A9,6C,A0,C8,00,28,15,
607079,00000237,false,Rx,0,8,00,05,94,00,00,5A,1D,00,
607293,00000152,false,Rx,0,8,12,14,13,00,24,00,00,00,
607529,000001F6,false,Rx,0,8,12,52,6C,00,00,00,00,0D,
607787,00000153,false,Rx,0,8,00,00,00,00,00,00,00,00,
608039,000001F7,false,Rx,0,8,1F,00,DC,00,00,00,00,00,
608281,00000154,false,Rx,0,8,00,00,00,00,00,00,00,00,
608519,000001F8,false,Rx,0,8,00,69,00,64,00,00,00,00,
608771,000002FC,false,Rx,0,8,10,00,12,15,00,00,86,96,
609014,000001F9,false,Rx,0,8,19,00,A0,C8,14,00,19,00,
609253,000002FD,false,Rx,0,8,00,00,00,00,00,1C,10,EA,
609519,00000238,false,Rx,0,8,00,00,0C,00,00,00,00,00,
609749,000002FE,false,Rx,0,8,00,00,72,01,00,28,00,00,
610003,00000239,false,Rx,0,8,00,00,00,00,01,00,00,00,
610238,00000326,false,Rx,0,8,0A,EB,6C,00,00,00,00,00,
610497,0000011B,false,Rx,0,8,F1,41,3D,05,80,08,A8,02,
610712,0000012B,false,Rx,0,8,B6,BB,3D,06,00,00,08,00,
610955,0000011C,false,Rx,0,8,00,05,20,00,22,00,01,01,
611201,0000012C,false,Rx,0,8,00,00,01,00,00,64,00,00,
611429,0000025B,false,Rx,0,8,ED,67,6C,40,40,20,00,00,
611689,00000327,false,Rx,0,8,00,00,00,00,01,00,00,00,
611927,0000025C,false,Rx,0,8,00,00,1F,00,BD,68,15,00,
612203,00000328,false,Rx,0,8,DC,00,19,00,00,69,00,00,
612413,0000025D,false,Rx,0,8,00,C8,00,00,00,80,C0,70,
612660,00000329,false,Rx,0,8,A0,64,00,00,00,00,00,00,
612897,00000091,false,Rx,0,8,8A,22,6A,3A,00,00,00,00,
613173,0000025E,false,Rx,0,8,C0,07,0E,00,00,00,00,00,
613374,00000092,false,Rx,0,8,2A,00,00,00,A0,02,00,00,
613603,00000331,false,Rx,0,8,FA,CA,6C,F1,C8,A0,2C,97,
613851,00000093,false,Rx,0,8,00,00,00,00,00,00,00,00,
614093,00000332,false,Rx,0,8,44,07,B4,00,00,00,00,00,
614354,00000094,false,Rx,0,8,00,00,00,00,00,00,00,00,
614590,00000333,false,Rx,0,8,00,00,00,1C,0C,40,20,A0,
614854,00000334,false,Rx,0,8,C8,00,00,00,5C,70,B7,8F,
629493,0000019B,false,Rx,0,8,81,5D,3C,00,00,E4,00,00,
629591,0000019C,false,Rx,0,8,40,20,00,00,00,00,0B,09,
629964,0000019D,false,Rx,0,8,00,10,00,01,00,00,00,00,
630056,0000019E,false,Rx,0,8,15,00,00,00,00,32,00,00,
630567,000002BF,false,Rx,0,8,FF,FF,FF,00,00,00,00,00,
630767,0000047F,false,Rx,0,8,FF,FF,FF,FF,FF,FF,FF,FF,
631080,00000653,false,Rx,0,8,0A,19,03,01,02,2A,00,00,
632565,000000C5,false,Rx,1,8,00,00,00,00,00,00,00,00,
633031,00000380,false,Rx,0,8,A0,99,01,0C,0C,0C,0C,01,
633112,0000010B,false,Rx,0,8,88,D4,3F,00,00,00,00,05,
633220,00000244,false,Rx,1,8,00,00,00,00,00,00,00,00,
633278,0000010C,false,Rx,0,8,FF,F9,E7,1F,43,48,44,44,
633322,0000010D,false,Rx,0,8,EF,02,00,00,00,00,00,35,
633372,000004B4,false,Rx,1,8,01,00,0D,40,10,60,44,02,
633424,000004B5,false,Rx,1,8,08,00,F0,07,00,00,00,00,
633491,0000010E,false,Rx,0,8,00,00,1E,00,00,C0,AB,57,
633539,000004B7,false,Rx,1,8,08,00,F0,07,00,00,00,00,
633582,00000382,false,Rx,0,8,36,4D,02,00,00,05,09,00,
633636,000004CA,false,Rx,1,8,00,00,00,00,00,00,00,00,
633747,00000383,false,Rx,0,8,89,14,01,10,01,00,00,00,
634577,000004CC,false,Rx,1,8,08,00,00,0C,00,00,03,00,
635572,000004CE,false,Rx,1,8,14,01,FF,FF,FF,FF,FF,FF,
635975,000004D7,false,Rx,1,8,23,01,00,00,00,00,00,00,
636070,00000061,false,Rx,0,8,32,7E,21,00,00,00,00,00,
636138,000004D8,false,Rx,1,8,41,10,F6,F0,40,F2,1E,CC,
636184,00000062,false,Rx,0,8,02,02,00,02,40,FF,00,FF,
636248,000002AB,false,Rx,0,8,92,FA,6D,0C,0C,00,00,00,
636294,000004DD,false,Rx,1,8,00,00,FE,00,04,00,00,00,
636346,00000063,false,Rx,0,8,07,01,15,00,00,08,FD,00,
636523,000002AC,false,Rx,0,8,00,FF,FF,00,00,40,00,50,
636594,000004DF,false,Rx,1,8,00,00,08,00,00,00,00,00,
636745,00000064,false,Rx,0,8,00,00,00,04,FF,FA,00,00,
637034,000002AD,false,Rx,0,8,00,01,00,40,FF,FF,FF,0F,
637144,000004E7,false,Rx,1,8,00,30,00,00,00,00,69,00,
637259,00000384,false,Rx,0,8,D8,3D,02,01,00,FF,00,22,
637793,000002AE,false,Rx,0,8,01,00,FF,3F,01,01,00,00,
638587,000004E8,false,Rx,1,8,FF,FF,FF,0B,FF,FF,FF,00,
638725,00000121,false,Rx,0,8,CC,C5,3F,00,00,00,00,05,
638784,000002B6,false,Rx,0,8,A0,49,6D,01,00,00,00,40,
638832,000004E9,false,Rx,1,8,00,00,00,00,00,00,00,00,
638904,00000122,false,Rx,0,8,FF,D9,67,1F,43,44,43,43,
638952,000002B7,false,Rx,0,8,93,01,C1,08,00,04,00,00,
639007,000004EA,false,Rx,1,8,00,00,00,00,00,00,00,00,
639058,00000123,false,Rx,0,8,F0,02,00,00,00,00,00,35,
639120,000002B8,false,Rx,0,8,B2,61,11,00,00,00,00,00,
639965,000004EB,false,Rx,1,8,04,68,29,03,80,00,00,00,
640710,00000124,false,Rx,0,8,00,00,0A,00,00,00,20,40,
640927,000002B9,false,Rx,0,8,0A,00,00,00,00,00,00,00,
641025,000004EC,false,Rx,1,8,FF,FF,FF,FF,FF,FF,FF,0F,
641096,0000033B,false,Rx,0,8,93,81,6D,00,00,00,00,00,
641139,000002C1,false,Rx,0,8,79,5D,B7,21,00,41,00,A1,
641193,000004ED,false,Rx,1,8,FF,FF,FF,FF,FF,FF,FF,1F,
641248,0000033C,false,Rx,0,8,00,00,00,00,F0,00,00,00,
641295,000002C2,false,Rx,0,8,40,00,00,00,00,00,00,00,
641357,000004EE,false,Rx,1,8,FF,FF,00,00,00,00,00,00,
641413,0000033D,false,Rx,0,8,00,00,00,00,00,00,00,00,
641475,000002C3,false,Rx,0,8,00,00,00,00,00,00,00,00,
641527,000004EF,false,Rx,1,8,60,00,60,00,29,14,00,00,
641592,0000033E,false,Rx,0,8,00,00,00,00,00,00,00,00,
641636,000002C4,false,Rx,0,8,00,00,00,00,00,00,00,00,
641892,0000063D,false,Rx,1,8,00,80,00,00,00,00,00,00,
642466,000003B0,false,Rx,0,8,72,37,FF,C7,00,00,03,C0,
642585,000001E6,false,Rx,0,8,12,8A,D5,02,00,00,00,00,
642665,0000063E,false,Rx,1,8,FF,FF,FF,FF,FF,FF,FF,FF,
642717,000002E1,false,Rx,0,8,B1,DF,6D,00,00,00,00,40,
642778,000001BB,false,Rx,0,8,07,0F,D5,02,00,00,00,0A,
642828,0000063F,false,Rx,1,8,00,10,00,C4,FF,00,00,00,
642897,000002E2,false,Rx,0,8,FD,00,00,00,00,14,00,04,
642953,000001BC,false,Rx,0,8,32,00,00,00,02,00,00,00,
643002,00000640,false,Rx,1,8,FF,FF,FF,00,FF,FF,FF,00,
643073,000002E3,false,Rx,0,8,00,00,00,00,00,00,72,01,
643808,000001BD,false,Rx,0,8,00,00,00,00,00,00,00,00,
644368,00000641,false,Rx,1,8,FF,FF,FF,FF,0F,FF,FF,FF,
645198,000002E4,false,Rx,0,8,02,00,00,00,00,00,00,00,
645676,000001E7,false,Rx,0,8,00,00,22,03,20,01,00,00,
645986,00000646,false,Rx,1,8,00,00,00,80,01,00,00,00,
646307,0000036F,false,Rx,0,8,99,51,01,00,00,00,00,00,
646362,000003B2,false,Rx,0,8,36,15,FF,02,29,2F,34,00,
646437,0000037F,false,Rx,0,8,F4,10,52,24,41,02,00,00,
646480,00000427,false,Rx,0,8,1D,86,FF,00,80,0A,00,00,
646523,00000146,false,Rx,0,8,08,21,13,10,04,05,00,00,
646565,00000147,false,Rx,0,8,01,04,7D,00,40,AA,08,00,
646611,000000A1,false,Rx,0,8,EA,01,22,8A,D4,EC,A2,00,
646701,00000148,false,Rx,0,8,00,00,42,00,1E,7C,40,05,
646753,000000A2,false,Rx,0,8,00,00,00,00,00,00,00,00,
646796,00000149,false,Rx,0,8,00,38,00,CC,00,00,00,00,
646850,000000A3,false,Rx,0,8,00,40,01,00,00,00,00,00,
646921,000001B1,false,Rx,0,8,C6,12,13,00,72,00,00,00,
647579,000001B2,false,Rx,0,8,23,00,04,0D,0F,01,50,0F,
647927,000001B3,false,Rx,0,8,10,30,34,00,63,7F,6F,80,
648592,000001B4,false,Rx,0,8,6B,84,10,00,00,41,00,00,
649246,00000565,false,Rx,0,8,66,02,00,00,00,00,FF,FF,
650538,000001A1,false,Rx,0,8,48,C3,20,FE,F7,7F,64,00,
650980,000001A2,false,Rx,0,8,00,00,00,00,00,08,00,00,
651440,000001A3,false,Rx,0,8,FF,F3,3F,00,00,00,00,00,
651902,000001A4,false,Rx,0,8,FE,07,00,00,00,00,00,00,
653900,00000036,false,Rx,0,8,AD,88,41,51,00,00,25,05,
654177,00000037,false,Rx,0,8,05,00,00,10,00,40,00,00,
654394,00000038,false,Rx,0,8,04,00,00,00,B0,39,96,D4,
654673,00000039,false,Rx,0,8,00,00,00,00,00,00,00,00,
660469,0000011B,false,Rx,0,8,DD,D1,42,05,80,08,A8,02,
660560,0000012B,false,Rx,0,8,9A,2B,42,06,00,00,08,00,
660924,0000011C,false,Rx,0,8,00,05,20,00,22,00,01,01,
661001,0000012C,false,Rx,0,8,00,00,01,00,00,64,00,00,
661754,00000405,false,Rx,0,8,04,20,00,00,00,01,00,00,
662118,00000410,false,Rx,0,8,13,50,54,3C,B4,6A,FF,FF,
662184,00000411,false,Rx,0,8,60,11,50,00,00,00,44,04,
662670,00000412,false,Rx,0,8,F9,70,00,00,00,00,04,00,
663006,00000413,false,Rx,0,8,F5,10,00,41,00,00,00,00,
663576,00000414,false,Rx,0,8,87,A0,00,00,28,00,00,00,
663654,00000416,false,Rx,0,8,55,00,00,00,00,00,00,00,
663711,00000417,false,Rx,0,8,B7,70,00,00,00,01,00,00,
663950,00000418,false,Rx,0,8,D0,80,00,00,12,4C,00,00,
664299,00000419,false,Rx,0,8,13,A0,8D,D5,71,7A,84,00,
666465,00000256,false,Rx,0,8,47,58,6A,15,00,00,90,01,
666593,000002E6,false,Rx,0,8,A4,41,6A,01,00,00,00,15,
666845,00000257,false,Rx,0,8,00,8C,40,27,85,07,00,8C,
666930,000002E7,false,Rx,0,8,0A,00,00,00,00,00,00,00,
666991,00000258,false,Rx,0,8,04,2A,1D,00,10,15,00,1C,
667227,000002E8,false,Rx,0,8,00,00,00,00,00,00,00,00,
667618,00000259,false,Rx,0,8,8E,05,8F,3C,2C,02,00,00,
667680,000002E9,false,Rx,0,8,00,00,00,00,00,00,00,00,
674654,000003A1,false,Rx,0,8,8B,4C,82,00,FF,FF,FF,FF,
674755,000003A2,false,Rx,0,8,00,00,00,00,00,00,00,00,
679510,0000019B,false,Rx,0,8,95,E5,41,00,00,E4,00,00,
679601,0000019C,false,Rx,0,8,40,20,00,00,00,00,0B,09,
679872,0000019D,false,Rx,0,8,00,10,00,01,00,00,00,00,
680063,0000019E,false,Rx,0,8,15,00,00,00,00,32,00,00,
680407,00000161,false,Rx,0,8,53,D1,22,03,00,00,00,02,
680798,00000162,false,Rx,0,8,FF,FC,01,00,00,00,00,00,
681897,00000415,false,Rx,0,8,40,13,10,00,08,01,00,00,
682006,0000010B,false,Rx,0,8,29,AB,44,00,00,00,00,05,
682361,0000010C,false,Rx,0,8,FF,F9,E7,1F,43,48,44,44,
682664,0000010D,false,Rx,0,8,EF,02,00,00,00,00,00,35,
682725,0000010E,false,Rx,0,8,00,00,1E,00,00,C0,AB,57,
685301,00000061,false,Rx,0,8,C1,E0,26,00,00,00,00,00,
685457,00000062,false,Rx,0,8,02,02,00,02,40,FF,00,FF,
685698,00000063,false,Rx,0,8,07,01,15,00,00,08,FD,00,
686236,00000064,false,Rx,0,8,00,00,00,04,FF,FA,00,00,
687697,00000121,false,Rx,0,8,9B,6F,44,00,00,00,00,05,
687830,00000475,false,Rx,0,8,12,00,00,00,00,00,00,00,
687942,00000122,false,Rx,0,8,FF,D9,67,1F,43,45,43,43,
688102,00000496,false,Rx,0,8,12,00,00,00,00,00,00,00,
688383,00000123,false,Rx,0,8,F0,02,00,00,00,00,00,35,
688627,00000124,false,Rx,0,8,00,00,0A,00,00,00,20,40,
689454,000000FF,false,Rx,0,8,CB,10,00,00,00,00,02,00,
690076,00000111,false,Rx,0,8,8C,BB,76,01,00,00,00,00,
690415,00000112,false,Rx,0,8,00,00,00,00,00,00,00,00,
690610,00000113,false,Rx,0,8,00,00,00,00,00,00,00,00,
690861,00000394,false,Rx,0,8,2A,22,1A,49,00,00,00,00,
691106,00000114,false,Rx,0,8,00,00,00,00,00,00,00,00,
691336,000003C3,false,Rx,0,8,45,10,31,30,36,00,00,00,
691627,000003E0,false,Rx,0,8,01,70,01,00,54,03,00,00,
692346,000003E5,false,Rx,0,8,9E,70,01,00,00,00,00,00,
692630,000003E6,false,Rx,0,8,A1,40,00,00,00,00,00,00,
692900,0000041A,false,Rx,0,8,D4,80,12,00,50,01,00,00,
693101,0000041B,false,Rx,0,8,BE,70,00,00,00,00,00,00,
693321,0000030B,false,Rx,0,8,B1,E5,6D,00,04,00,00,00,
693607,0000041C,false,Rx,0,8,84,D0,E8,00,00,00,00,00,
693817,0000030C,false,Rx,0,8,00,00,0C,00,2C,00,A0,0F,
694060,00000422,false,Rx,0,8,FA,20,01,00,00,00,04,00,
694305,0000030D,false,Rx,0,8,00,00,00,00,FF,00,00,00,
694693,0000030E,false,Rx,0,8,00,00,28,05,21,00,00,04,
694845,00000432,false,Rx,0,8,03,20,02,00,00,00,00,00,
695317,00000435,false,Rx,0,8,0E,10,00,50,00,00,00,00,
695688,00000442,false,Rx,0,8,CE,20,11,81,00,00,00,00,
695997,000000A1,false,Rx,0,8,E5,EA,27,8A,D4,EC,A2,00,
696548,00000444,false,Rx,0,8,0B,60,20,50,55,50,00,00,
696639,000000A2,false,Rx,0,8,00,00,00,00,00,00,00,00,
696747,00000445,false,Rx,0,8,77,A0,00,00,00,00,00,18,
696794,000000A3,false,Rx,0,8,00,40,01,00,00,00,00,00,
696974,000001AB,false,Rx,0,8,24,63,1E,40,70,90,00,00,
697231,000001AC,false,Rx,0,8,00,28,00,00,00,00,00,00,
697914,00000464,false,Rx,0,8,6C,30,F0,FF,38,7F,05,00,
704052,00000036,false,Rx,0,8,5E,16,46,51,00,00,25,05,
704159,00000037,false,Rx,0,8,05,00,00,10,00,40,00,00,
704447,00000038,false,Rx,0,8,04,00,00,00,B0,39,96,D4,
704632,00000039,false,Rx,0,8,00,00,00,00,00,00,00,00,
710406,0000011B,false,Rx,0,8,2B,F9,47,05,80,08,A8,02,
710583,0000012B,false,Rx,0,8,6C,03,47,06,00,00,08,00,
710824,0000011C,false,Rx,0,8,00,05,20,00,22,00,01,01,
711080,0000012C,false,Rx,0,8,00,00,01,00,00,64,00,00,
711314,000001E1,false,Rx,0,8,CC,17,DB,02,00,00,00,00,
711565,000001E2,false,Rx,0,8,00,00,00,00,00,00,00,00,
713269,00000091,false,Rx,0,8,82,59,6B,3A,00,00,00,00,
713515,00000092,false,Rx,0,8,28,00,00,00,80,02,00,00,
713603,00000093,false,Rx,0,8,00,00,00,00,00,00,00,00,
713662,00000094,false,Rx,0,8,00,00,00,00,00,00,00,00,
716738,00000226,false,Rx,0,8,FF,57,3B,FF,FA,20,09,42,
716830,00000316,false,Rx,0,8,1C,B3,9F,A4,0F,80,0A,00,
717114,00000227,false,Rx,0,8,02,C4,07,09,00,F1,6F,03,
717221,00000317,false,Rx,0,8,00,00,05,00,00,00,00,00,
717482,000003CB,false,Rx,0,8,36,14,00,F4,00,00,00,00,
717725,00000472,false,Rx,0,8,5C,EC,00,40,08,41,00,45,
717938,000003CC,false,Rx,0,8,36,31,34,30,33,34,31,00,
718217,00000473,false,Rx,0,8,5F,24,00,25,00,00,00,78,
718443,00000474,false,Rx,0,8,53,98,00,00,00,00,00,10,
720049,000001F1,false,Rx,0,8,AC,53,D5,01,00,00,28,00,
720380,000001F2,false,Rx,0,8,00,00,00,00,00,00,00,00,
721029,000002FF,false,Rx,0,8,E2,01,00,F1,3F,00,00,00,
724777,00000487,false,Rx,1,8,00,00,00,00,00,00,00,00,
724872,00000642,false,Rx,1,8,FF,FF,FF,FF,FF,FF,00,00,
726250,000003AA,false,Rx,0,8,FF,00,D0,00,54,00,00,00,
729790,0000019B,false,Rx,0,8,66,7B,46,00,00,E4,00,00,
729929,0000019C,false,Rx,0,8,40,20,00,00,00,00,0B,09,
730020,0000019D,false,Rx,0,8,00,10,00,01,00,00,00,00,
730070,0000019E,false,Rx,0,8,15,00,00,00,00,32,00,00,
732207,0000010B,false,Rx,0,8,24,6D,49,00,00,00,00,05,
732300,0000010C,false,Rx,0,8,FF,F9,E7,1F,43,48,44,44,
732524,0000010D,false,Rx,0,8,EF,02,00,00,00,00,00,35,
732671,0000010E,false,Rx,0,8,00,00,1E,00,00,C0,AB,57,
734598,00000251,false,Rx,0,8,42,5E,6D,00,00,00,00,00,
734723,00000495,false,Rx,0,8,49,00,00,00,00,00,00,00,
734963,00000252,false,Rx,0,8,00,00,1B,1B,03,00,00,00,
735212,00000061,false,Rx,0,8,CC,26,2B,00,00,00,00,00,
735444,00000253,false,Rx,0,8,00,00,00,53,53,00,80,46,
735705,00000062,false,Rx,0,8,02,02,00,02,40,FF,00,FF,
735943,00000063,false,Rx,0,8,07,01,15,00,00,08,FD,00,
736219,00000064,false,Rx,0,8,00,00,00,04,FF,FA,00,00,
736977,00000396,false,Rx,0,8,8B,76,B6,0F,08,02,00,02,
737564,00000397,false,Rx,0,8,4E,00,00,00,00,00,00,00,
737652,00000121,false,Rx,0,8,60,7C,49,00,00,00,00,05,
737862,00000398,false,Rx,0,8,00,00,00,00,00,00,00,00,
738435,00000122,false,Rx,0,8,FF,D9,67,1F,43,44,43,43,
738598,00000123,false,Rx,0,8,F0,02,00,00,00,00,00,35,
738663,00000124,false,Rx,0,8,00,00,0A,00,00,00,20,40,
740002,000002D6,false,Rx,0,8,5C,68,B6,00,00,00,00,00,
740192,000002D7,false,Rx,0,8,00,00,00,00,03,00,00,00,
740449,000002D8,false,Rx,0,8,00,00,00,00,00,00,38,44,
740852,000002EB,false,Rx,0,8,A8,77,B6,08,08,01,00,02,
740954,000002D9,false,Rx,0,8,00,00,00,00,00,00,00,00,
741195,000002EC,false,Rx,0,8,02,00,00,00,00,00,00,00,
741436,00000356,false,Rx,0,8,9F,A0,B7,00,00,00,00,00,
741671,000002ED,false,Rx,0,8,00,00,00,00,00,00,00,00,
741937,00000357,false,Rx,0,8,00,00,00,00,00,4B,4D,48,
742161,000002EE,false,Rx,0,8,00,00,00,00,00,00,00,00,
742559,00000358,false,Rx,0,8,35,41,45,4D,52,37,33,4F,
742622,00000401,false,Rx,0,8,20,30,10,00,00,01,00,00,
742870,00000359,false,Rx,0,8,51,4F,34,52,4A,35,33,00,
743116,0000036F,false,Rx,0,8,4F,61,01,00,00,00,00,00,
743382,0000037F,false,Rx,0,8,22,20,52,24,41,02,00,00,
744897,00000146,false,Rx,0,8,B0,20,18,10,04,05,00,00,
745157,00000147,false,Rx,0,8,01,04,7D,00,40,AA,08,00,
745402,00000148,false,Rx,0,8,00,00,42,00,1E,7C,40,05,
745638,00000566,false,Rx,0,8,16,02,00,00,00,00,FF,FF,
745908,000000A1,false,Rx,0,8,D9,1B,2C,8A,D4,EC,A2,00,
746110,00000149,false,Rx,0,8,00,38,00,CC,00,00,00,00,
746352,000000A2,false,Rx,0,8,00,00,00,00,00,00,00,00,
746748,000000A3,false,Rx,0,8,00,40,01,00,00,00,00,00,
746864,000001B1,false,Rx,0,8,7E,13,18,00,72,00,00,00,
747115,000001B2,false,Rx,0,8,23,00,04,0D,0F,01,50,0F,
747436,000001B3,false,Rx,0,8,10,30,34,00,63,7F,6F,80,
747675,00000448,false,Rx,0,8,7F,00,00,00,00,00,00,00,
747915,000001B4,false,Rx,0,8,6B,84,10,00,00,41,00,00,
750340,000001A1,false,Rx,0,8,37,EF,25,FE,F7,7F,64,00,
750484,000001A2,false,Rx,0,8,00,00,00,00,00,08,00,00,
750868,000001A3,false,Rx,0,8,FF,F3,3F,00,00,00,00,00,
750982,000001A4,false,Rx,0,8,FE,07,00,00,00,00,00,00,
754193,00000036,false,Rx,0,8,53,D0,4B,51,00,00,25,05,
754297,00000037,false,Rx,0,8,05,00,00,10,00,40,00,00,
754429,00000038,false,Rx,0,8,04,00,00,00,B0,39,96,D4,
754879,00000039,false,Rx,0,8,00,00,00,00,00,00,00,00,
756214,000004E8,false,Rx,1,8,FF,FF,FF,0B,FF,FF,FF,00,
760556,0000011B,false,Rx,0,8,E3,00,4C,05,80,08,A8,02,
760660,0000012B,false,Rx,0,8,A4,FA,4C,06,00,00,08,00,
760806,0000011C,false,Rx,0,8,00,05,20,00,22,00,01,01,
761049,0000012C,false,Rx,0,8,00,00,01,00,00,64,00,00,
765707,000004A3,false,Rx,1,8,80,00,48,0B,3E,00,00,00,
765805,000004A4,false,Rx,1,8,FF,FF,FF,00,00,00,00,00,
767249,000003B6,false,Rx,0,8,88,8D,B5,00,00,00,00,44,
767439,000003B7,false,Rx,0,8,43,00,00,00,00,00,00,00,
767494,000003B8,false,Rx,0,8,EB,02,00,00,00,00,69,0E,
767537,000003B9,false,Rx,0,8,00,00,00,00,00,00,00,00,
779412,0000019B,false,Rx,0,8,6B,BD,4B,00,00,E4,00,00,
779507,0000019C,false,Rx,0,8,40,20,00,00,00,00,0B,09,
779862,0000019D,false,Rx,0,8,00,10,00,01,00,00,00,00,
780418,0000019E,false,Rx,0,8,15,00,00,00,00,32,00,00,
780556,00000161,false,Rx,0,8,A5,F9,27,03,00,00,00,02,
780598,00000162,false,Rx,0,8,FF,FC,01,00,00,00,00,00,
780842,000001FB,false,Rx,0,8,F3,B4,6E,00,00,00,00,00,
781128,000001FC,false,Rx,0,8,00,00,00,00,00,00,00,00,
781508,000001FD,false,Rx,0,8,00,1A,03,00,00,00,00,00,
781923,000001FE,false,Rx,0,8,00,00,00,00,00,00,00,00,
782297,0000010B,false,Rx,0,8,D7,F3,4E,00,00,00,00,05,
782612,0000010C,false,Rx,0,8,FF,F9,E7,1F,43,48,44,44,
782898,0000010D,false,Rx,0,8,EF,02,00,00,00,00,00,35,
782978,0000010E,false,Rx,0,8,00,00,1E,00,00,C0,AB,57,
785659,00000061,false,Rx,0,8,B1,E3,30,00,00,00,00,00,
785776,00000062,false,Rx,0,8,02,02,00,02,40,FF,00,FF,
785845,00000063,false,Rx,0,8,07,01,15,00,00,08,FD,00,
786087,00000064,false,Rx,0,8,00,00,00,04,FF,FA,00,00,
787737,00000121,false,Rx,0,8,93,E2,4E,00,00,00,00,05,
787856,00000122,false,Rx,0,8,FF,D9,67,1F,43,44,43,43,
787903,000003B1,false,Rx,0,8,D4,A8,00,40,00,00,20,00,
788363,00000123,false,Rx,0,8,F0,02,00,00,00,00,00,35,
788430,00000124,false,Rx,0,8,00,00,0A,00,00,00,20,40,
789000,0000042A,false,Rx,0,8,CF,74,01,04,00,10,00,00,
791946,000001E6,false,Rx,0,8,61,B3,D8,02,00,00,00,00,
792072,000001BB,false,Rx,0,8,31,4C,D8,02,00,00,00,0A,
792457,000001BC,false,Rx,0,8,32,00,00,00,02,00,00,00,
792521,000001BD,false,Rx,0,8,00,00,00,00,00,00,00,00,
792859,000001E7,false,Rx,0,8,00,00,22,03,20,01,00,00,
795948,000004E8,false,Rx,1,8,FF,FF,FF,0B,FF,FF,FF,00,
796128,000000A1,false,Rx,0,8,BC,18,31,8A,D4,EC,A2,00,
796184,000001AB,false,Rx,0,8,49,3F,23,40,70,90,00,00,
796262,000000A2,false,Rx,0,8,00,00,00,00,00,00,00,00,
796715,000001AC,false,Rx,0,8,00,28,00,00,00,00,00,00,
797005,000000A3,false,Rx,0,8,00,40,01,00,00,00,00,00,
804108,00000036,false,Rx,0,8,2E,15,50,51,00,00,25,05,
804202,00000037,false,Rx,0,8,05,00,00,10,00,40,00,00,
804603,00000038,false,Rx,0,8,04,00,00,00,B0,39,96,D4,
804713,00000039,false,Rx,0,8,00,00,00,00,00,00,00,00,
806534,00000236,false,Rx,0,8,C3,FF,6E,00,30,63,34,6C,
806615,000002FB,false,Rx,0,8,D2,E3,6E,04,0C,18,C3,C3,
806857,00000237,false,Rx,0,8,00,05,94,00,00,5A,1D,00,
807099,00000151,false,Rx,0,8,3F,1B,6E,A0,C8,00,28,15,
807396,00000238,false,Rx,0,8,00,00,0C,00,00,00,00,00,
807830,00000152,false,Rx,0,8,12,14,13,00,24,00,00,00,
807901,00000239,false,Rx,0,8,00,00,00,00,01,00,00,00,
808067,00000153,false,Rx,0,8,00,00,00,00,00,00,00,00,
808444,000001F6,false,Rx,0,8,9E,E0,6E,00,00,00,00,0D,
808731,00000154,false,Rx,0,8,00,00,00,00,00,00,00,00,
808854,000001F7,false,Rx,0,8,1F,00,DC,00,00,00,00,00,
809080,000002FC,false,Rx,0,8,10,00,12,15,00,00,86,96,
809306,000001F8,false,Rx,0,8,00,69,00,64,00,00,00,00,
809627,000002FD,false,Rx,0,8,00,00,00,00,00,1C,10,EA,
810168,000001F9,false,Rx,0,8,19,00,A0,C8,14,00,19,00,
810513,000002FE,false,Rx,0,8,00,00,72,01,00,28,00,00,
810798,0000025B,false,Rx,0,8,D4,E7,6E,40,40,20,00,00,
810853,0000011B,false,Rx,0,8,9A,1A,51,05,80,08,A8,02,
811147,0000012B,false,Rx,0,8,DD,E0,51,06,00,00,08,00,
811235,0000011C,false,Rx,0,8,00,05,20,00,22,00,01,01,
811278,0000012C,false,Rx,0,8,00,00,01,00,00,64,00,00,
811471,0000025C,false,Rx,0,8,00,00,1F,00,BD,68,15,00,
811804,00000326,false,Rx,0,8,86,59,6E,00,00,00,00,00,
812114,0000025D,false,Rx,0,8,00,C8,00,00,00,80,C0,70,
812218,00000327,false,Rx,0,8,00,00,00,00,01,00,00,00,
812430,0000025E,false,Rx,0,8,07,07,0E,01,00,00,00,00,
812842,00000328,false,Rx,0,8,DC,00,19,00,00,69,00,00,
813527,00000091,false,Rx,0,8,71,C7,6C,3A,00,00,00,00,
813661,00000329,false,Rx,0,8,A0,64,00,00,00,00,00,00,
813717,00000092,false,Rx,0,8,28,00,00,00,80,02,00,00,
813766,00000331,false,Rx,0,8,76,78,6E,F1,C8,A0,2C,97,
814161,00000093,false,Rx,0,8,00,00,00,00,00,00,00,00,
814379,00000332,false,Rx,0,8,44,07,B4,00,00,00,00,00,
814740,00000094,false,Rx,0,8,00,00,00,00,00,00,00,00,
814862,00000333,false,Rx,0,8,00,00,00,1C,0C,40,20,A0,
815198,00000334,false,Rx,0,8,C8,00,00,00,5C,70,B7,8F,
829480,0000019B,false,Rx,0,8,16,78,50,00,00,E4,00,00,
829562,0000019C,false,Rx,0,8,40,20,00,00,00,00,0B,09,
829930,0000019D,false,Rx,0,8,00,10,00,01,00,00,00,00,
830070,0000019E,false,Rx,0,8,15,00,00,00,00,32,00,00,
830755,000002BF,false,Rx,0,8,FF,FF,FF,00,00,00,00,00,
830967,0000047F,false,Rx,0,8,FF,FF,FF,FF,FF,FF,FF,FF,
831179,00000653,false,Rx,0,8,0A,19,03,01,02,2A,00,00,
831684,00000380,false,Rx,0,8,A0,99,01,0C,0C,0C,0C,01,
832132,0000010B,false,Rx,0,8,1F,F1,53,00,00,00,00,05,
832244,0000010C,false,Rx,0,8,FF,F9,E7,1F,43,48,44,44,
832545,0000010D,false,Rx,0,8,EF,02,00,00,00,00,00,35,
832981,0000010E,false,Rx,0,8,00,00,1E,00,00,C0,AB,57,
833178,00000382,false,Rx,0,8,36,4D,02,00,00,05,09,00,
833750,00000383,false,Rx,0,8,89,14,01,10,01,00,00,00,
835299,00000061,false,Rx,0,8,FF,3F,35,00,00,00,00,00,
835445,00000062,false,Rx,0,8,02,02,00,02,40,FF,00,FF,
835575,000000C5,false,Rx,1,8,00,00,00,00,00,00,00,00,
835718,00000063,false,Rx,0,8,06,01,15,00,00,08,FD,00,
836040,00000244,false,Rx,1,8,00,00,00,00,00,00,00,00,
836247,00000064,false,Rx,0,8,00,00,00,04,FF,FA,00,00,
836513,000004B4,false,Rx,1,8,01,00,0D,40,10,60,44,02,
836744,000002AB,false,Rx,0,8,1E,48,6F,0C,0C,00,00,00,
836969,00000384,false,Rx,0,8,D8,3D,02,01,00,FF,00,22,
837134,000004B5,false,Rx,1,8,08,00,F0,07,00,00,00,00,
837189,000002AC,false,Rx,0,8,00,FF,FF,00,00,40,00,50,
837435,00000121,false,Rx,0,8,5B,E0,53,00,00,00,00,05,
837517,000004B7,false,Rx,1,8,08,00,F0,07,00,00,00,00,
837671,000002AD,false,Rx,0,8,00,01,00,40,FF,FF,FF,0F,
837945,00000122,false,Rx,0,8,FF,D9,67,1F,43,44,43,43,
838097,000004CA,false,Rx,1,8,00,00,00,00,00,00,00,00,
838149,000002AE,false,Rx,0,8,01,00,FF,3F,01,01,00,00,
838424,00000123,false,Rx,0,8,F0,02,00,00,00,00,00,35,
838503,000004CC,false,Rx,1,8,08,00,00,0C,00,00,03,00,
838661,000002B6,false,Rx,0,8,2C,FB,6F,01,00,00,00,40,
838931,00000124,false,Rx,0,8,00,00,0A,00,00,00,20,40,
839005,000004CE,false,Rx,1,8,14,01,FF,FF,FF,FF,FF,FF,
839098,000002B7,false,Rx,0,8,93,01,C1,08,00,04,00,00,
839347,000003B0,false,Rx,0,8,72,37,FF,C7,00,00,03,C0,
839411,000004D7,false,Rx,1,8,23,01,00,00,00,00,00,00,
839610,000002B8,false,Rx,0,8,B2,61,11,00,00,00,00,00,
839829,0000033B,false,Rx,0,8,1F,33,6F,00,00,00,00,00,
839900,000004D8,false,Rx,1,8,41,10,F6,F0,40,F2,1E,CC,
840073,000002B9,false,Rx,0,8,0A,00,00,00,00,00,00,00,
840356,0000033C,false,Rx,0,8,00,00,00,00,F0,00,00,00,
840433,000004DD,false,Rx,1,8,00,00,FE,00,04,00,00,00,
840585,000002C1,false,Rx,0,8,F8,29,B8,21,00,41,00,A1,
840844,0000033D,false,Rx,0,8,00,00,00,00,00,00,00,00,
840904,000004DF,false,Rx,1,8,00,00,08,00,00,00,00,00,
841057,000002C2,false,Rx,0,8,40,00,00,00,00,00,00,00,
841333,0000033E,false,Rx,0,8,00,00,00,00,00,00,00,00,
841475,000004E7,false,Rx,1,8,00,30,00,00,00,00,69,00,
841569,000002C3,false,Rx,0,8,00,00,00,00,00,00,00,00,
841808,0000036F,false,Rx,0,8,F6,71,01,00,00,00,00,00,
841891,000004E8,false,Rx,1,8,FF,FF,FF,0B,FF,FF,FF,00,
842099,000002C4,false,Rx,0,8,00,00,00,00,00,00,00,00,
842307,0000037F,false,Rx,0,8,9B,30,52,24,41,02,00,00,
842384,000004E9,false,Rx,1,8,00,00,00,00,00,00,00,00,
842537,000002E1,false,Rx,0,8,3D,6D,6F,00,00,00,00,40,
842812,000003B2,false,Rx,0,8,36,15,FF,02,29,2F,34,00,
842984,000004EA,false,Rx,1,8,00,00,00,00,00,00,00,00,
843038,000002E2,false,Rx,0,8,FD,00,00,00,00,14,00,04,
843249,00000427,false,Rx,0,8,1D,86,FF,00,80,0A,00,00,
843317,000004EB,false,Rx,1,8,04,68,29,03,80,00,00,00,
843528,000002E3,false,Rx,0,8,00,00,00,00,00,00,72,01,
843794,000004EC,false,Rx,1,8,FF,FF,FF,FF,FF,FF,FF,0F,
844000,000002E4,false,Rx,0,8,02,00,00,00,00,00,00,00,
844278,000004ED,false,Rx,1,8,FF,FF,FF,FF,FF,FF,FF,1F,
844480,00000516,false,Rx,0,8,61,02,00,00,00,00,FF,FF,
844782,000004EE,false,Rx,1,8,FF,FF,00,00,00,00,00,00,
845002,00000146,false,Rx,0,8,CF,0C,1D,10,04,05,00,00,
845258,000004EF,false,Rx,1,8,60,00,60,00,29,14,00,00,
845487,00000147,false,Rx,0,8,01,04,7D,00,40,AA,08,00,
845732,000004F0,false,Rx,1,8,4A,0D,29,03,5C,1A,11,02,
846220,000000A1,false,Rx,0,8,B5,9D,36,8A,D4,EC,A2,00,
846746,00000148,false,Rx,0,8,00,00,42,00,1E,7C,40,05,
846882,000004F1,false,Rx,1,8,00,C0,00,00,00,00,00,00,
846939,000000A2,false,Rx,0,8,00,00,00,00,00,00,00,00,
847223,00000149,false,Rx,0,8,00,38,00,CC,00,00,00,00,
848190,000004F2,false,Rx,1,8,02,FF,DD,FF,03,01,00,00,
849169,000000A3,false,Rx,0,8,00,40,01,00,00,00,00,00,
849382,000001B1,false,Rx,0,8,01,3F,1D,00,72,00,00,00,
849466,000004F3,false,Rx,1,8,00,00,00,00,30,00,00,00,
849526,000001B2,false,Rx,0,8,23,00,04,0D,0F,01,50,0F,
849598,000004F9,false,Rx,1,8,E0,FF,FF,FF,FF,FF,FF,FF,
849644,000001B3,false,Rx,0,8,10,30,34,00,63,7F,6F,80,
849694,000004FE,false,Rx,1,8,69,23,00,03,CF,00,48,A8,
849753,000001B4,false,Rx,0,8,6B,84,10,00,00,41,00,00,
849804,0000063D,false,Rx,1,8,00,80,00,00,00,00,00,00,
849872,0000063E,false,Rx,1,8,FF,FF,FF,FF,FF,FF,FF,FF,
849921,0000063F,false,Rx,1,8,00,10,00,C4,FF,00,00,00,
850187,00000640,false,Rx,1,8,FF,FF,FF,00,FF,FF,FF,00,
850494,000001A1,false,Rx,0,8,B6,9B,2A,FE,F7,7F,64,00,
850685,00000641,false,Rx,1,8,FF,FF,FF,FF,0F,FF,FF,FF,
850900,000001A2,false,Rx,0,8,00,00,00,00,00,08,00,00,
851142,00000646,false,Rx,1,8,00,00,00,80,01,00,00,00,
851380,000001A3,false,Rx,0,8,FF,F3,3F,00,00,00,00,00,
851874,000001A4,false,Rx,0,8,FE,07,00,00,00,00,00,00,
854110,00000036,false,Rx,0,8,51,39,55,51,00,00,25,05,
854589,00000037,false,Rx,0,8,05,00,00,10,00,40,00,00,
855096,00000038,false,Rx,0,8,04,00,00,00,B0,39,96,D4,
855577,00000039,false,Rx,0,8,00,00,00,00,00,00,00,00,
860399,0000011B,false,Rx,0,8,05,72,56,05,80,08,A8,02,
860528,0000012B,false,Rx,0,8,42,88,56,06,00,00,08,00,
860790,0000011C,false,Rx,0,8,00,05,20,00,22,00,01,01,
861037,0000012C,false,Rx,0,8,00,00,01,00,00,64,00,00,
861271,000001E1,false,Rx,0,8,3A,3F,DE,02,00,00,00,00,
861554,00000405,false,Rx,0,8,04,20,00,00,00,01,00,00,
861763,000001E2,false,Rx,0,8,00,00,00,00,00,00,00,00,
862006,00000410,false,Rx,0,8,13,50,54,3C,B4,6A,FF,FF,
862255,00000411,false,Rx,0,8,60,11,50,00,00,00,44,04,
862533,00000413,false,Rx,0,8,F5,10,00,41,00,00,00,00,
862745,00000412,false,Rx,0,8,F9,70,00,00,00,00,04,00,
863083,00000414,false,Rx,0,8,87,A0,00,00,28,00,00,00,
863278,00000416,false,Rx,0,8,55,00,00,00,00,00,00,00,
863549,00000417,false,Rx,0,8,B7,70,00,00,00,01,00,00,
863830,00000418,false,Rx,0,8,D0,80,00,00,12,4C,00,00,
864101,00000419,false,Rx,0,8,13,A0,8D,D5,71,7A,84,00,
866106,00000256,false,Rx,0,8,C9,5D,6C,15,00,00,60,01,
866252,000002E6,false,Rx,0,8,11,86,6C,01,00,00,00,15,
866533,00000257,false,Rx,0,8,00,8C,40,22,85,07,00,8C,
866734,000002E7,false,Rx,0,8,0A,00,00,00,00,00,00,00,
866977,00000258,false,Rx,0,8,04,2C,1D,00,10,15,00,1C,
867250,000002E8,false,Rx,0,8,00,00,00,00,00,00,00,00,
867667,00000259,false,Rx,0,8,76,05,8E,3C,2C,02,00,00,
867728,000002E9,false,Rx,0,8,00,00,00,00,00,00,00,00,
870094,000001F1,false,Rx,0,8,DF,6A,D8,01,00,00,28,00,
870275,000001F2,false,Rx,0,8,00,00,00,00,00,00,00,00,
874527,000003A1,false,Rx,0,8,AF,E4,83,00,FF,FF,FF,FF,
874717,000003A2,false,Rx,0,8,00,00,00,00,00,00,00,00,
879379,0000019B,false,Rx,0,8,69,54,55,00,00,E4,00,00,
879563,0000019C,false,Rx,0,8,40,20,00,00,00,00,0B,09,
879818,0000019D,false,Rx,0,8,00,10,00,01,00,00,00,00,
880067,0000019E,false,Rx,0,8,15,00,00,00,00,32,00,00,
880327,00000161,false,Rx,0,8,6D,00,2C,03,00,00,00,02,
880610,00000162,false,Rx,0,8,FF,FC,01,00,00,00,00,00,
881979,0000010B,false,Rx,0,8,A7,F0,58,00,00,00,00,05,
882149,0000010C,false,Rx,0,8,FF,F9,E7,1F,43,48,44,44,
882434,0000010D,false,Rx,0,8,EF,02,00,00,00,00,00,35,
882678,0000010E,false,Rx,0,8,00,00,1E,00,00,C0,AB,57,
885284,00000061,false,Rx,0,8,7E,4B,3A,00,00,00,00,00,
885476,00000062,false,Rx,0,8,02,02,00,02,40,FF,00,FF,
885756,00000063,false,Rx,0,8,06,01,15,00,00,08,FD,00,
886013,00000064,false,Rx,0,8,00,00,00,04,FF,FA,00,00,
886577,00000419,false,Rx,0,8,60,B0,8E,D5,71,7A,84,00,
887438,00000121,false,Rx,0,8,E3,E1,58,00,00,00,00,05,
887620,00000475,false,Rx,0,8,12,00,00,00,00,00,00,00,
887857,00000122,false,Rx,0,8,FF,D9,67,1F,43,44,43,43,
888132,00000485,false,Rx,0,8,00,40,11,02,00,00,00,00,
888453,00000123,false,Rx,0,8,F0,02,00,00,00,00,00,35,
888629,00000496,false,Rx,0,8,12,00,00,00,00,00,00,00,
888870,00000124,false,Rx,0,8,00,00,0A,00,00,00,20,40,
889326,000000FF,false,Rx,0,8,CB,10,00,00,00,00,02,00,
890067,00000111,false,Rx,0,8,CA,E2,77,01,00,00,00,00,
890351,00000394,false,Rx,0,8,2A,22,1A,49,00,00,00,00,
890762,00000112,false,Rx,0,8,00,00,00,00,00,00,00,00,
890816,000003C3,false,Rx,0,8,45,10,31,30,36,00,00,00,
891073,00000113,false,Rx,0,8,00,00,00,00,00,00,00,00,
891282,000003E0,false,Rx,0,8,01,70,01,00,54,03,00,00,
891522,00000114,false,Rx,0,8,00,00,00,00,00,00,00,00,
892567,000003E5,false,Rx,0,8,9E,70,01,00,00,00,00,00,
892820,000003E6,false,Rx,0,8,A1,40,00,00,00,00,00,00,
892879,0000041A,false,Rx,0,8,D4,80,12,00,50,01,00,00,
892953,0000041B,false,Rx,0,8,BE,70,00,00,00,00,00,00,
893330,0000030B,false,Rx,0,8,3C,4C,6F,00,04,00,00,00,
893765,0000041C,false,Rx,0,8,84,D0,E8,00,00,00,00,00,
894065,0000030C,false,Rx,0,8,00,00,0C,00,2C,00,A0,0F,
894319,00000422,false,Rx,0,8,FA,20,01,00,00,00,04,00,
894457,0000030D,false,Rx,0,8,00,00,00,00,FF,00,00,00,
894508,00000432,false,Rx,0,8,03,20,02,00,00,00,00,00,
894695,0000030E,false,Rx,0,8,00,00,28,05,21,00,00,0A,
895028,00000435,false,Rx,0,8,0E,10,00,50,00,00,00,00,
895445,00000442,false,Rx,0,8,CE,20,11,81,00,00,00,00,
895709,00000444,false,Rx,0,8,0B,60,20,50,55,50,00,00,
896075,000000A1,false,Rx,0,8,83,DE,3B,8A,D4,EC,A2,00,
896363,00000445,false,Rx,0,8,77,A0,00,00,00,00,00,18,
896454,000000A2,false,Rx,0,8,00,00,00,00,00,00,00,00,
896730,000000A3,false,Rx,0,8,00,40,01,00,00,00,00,00,
896832,000001AB,false,Rx,0,8,81,C6,28,40,70,90,00,00,
897099,000001AC,false,Rx,0,8,00,28,00,00,00,00,00,00,
897722,00000464,false,Rx,0,8,6C,30,F0,FF,38,7F,05,00,
904098,00000036,false,Rx,0,8,D0,4D,5A,51,00,00,25,05,
904190,00000037,false,Rx,0,8,05,00,00,10,00,40,00,00,
904579,00000038,false,Rx,0,8,04,00,00,00,B0,39,96,D4,
904935,00000039,false,Rx,0,8,00,00,00,00,00,00,00,00,
910604,0000011B,false,Rx,0,8,76,4B,5B,05,80,08,A8,02,
910697,0000012B,false,Rx,0,8,31,B1,5B,06,00,00,08,00,
911076,0000011C,false,Rx,0,8,00,05,20,00,22,00,01,01,
911151,0000012C,false,Rx,0,8,00,00,01,00,00,64,00,00,
913007,00000091,false,Rx,0,8,79,BC,6D,3A,00,00,00,00,
913087,00000092,false,Rx,0,8,2A,00,00,00,A0,02,00,00,
913350,00000093,false,Rx,0,8,00,00,00,00,00,00,00,00,
913561,00000094,false,Rx,0,8,00,00,00,00,00,00,00,00,
