Time Stamp,ID,Extended,Dir,Bus,LEN,D1,D2,D3,D4,D5,D6,D7,D8
8190959,000001AB,false,Rx,0,8,FC,E4,40,40,70,40,00,00,
8191113,000001AC,false,Rx,0,8,00,28,00,00,00,00,00,00,
8195844,000001E6,false,Rx,0,8,D6,57,9F,02,00,00,00,00,
8196188,00000643,false,Rx,1,8,00,FC,FF,FF,FF,FF,03,00,
8196455,000001BB,false,Rx,0,8,55,D8,9F,02,00,00,00,0A,
8196583,000001BC,false,Rx,0,8,32,00,00,00,02,00,00,00,
8196837,000001BD,false,Rx,0,8,00,00,00,00,00,00,00,00,
8196954,000001E7,false,Rx,0,8,00,00,22,03,20,01,00,00,
8198384,00000516,false,Rx,0,8,61,02,00,00,00,00,FF,FF,
8209345,00000036,false,Rx,0,8,0A,E0,63,51,00,00,25,01,
8209481,00000037,false,Rx,0,8,00,00,00,10,00,40,00,00,
8209912,00000038,false,Rx,0,8,04,00,00,00,F0,39,96,D4,
8210239,00000039,false,Rx,0,8,00,00,00,00,00,00,00,00,
8211742,000002E6,false,Rx,0,8,F8,E0,BA,01,00,00,00,15,
8211872,00000256,false,Rx,0,8,AD,66,BA,15,00,00,A0,00,
8212070,000002E7,false,Rx,0,8,0A,00,00,00,00,00,00,00,
8212292,00000257,false,Rx,0,8,00,95,35,11,79,07,00,95,
8212557,000002E8,false,Rx,0,8,00,00,00,00,00,00,00,00,
8212817,00000258,false,Rx,0,8,02,0F,1D,00,10,15,00,14,
8213053,000002E9,false,Rx,0,8,00,00,00,00,00,00,00,00,
8213307,00000259,false,Rx,0,8,35,05,8A,3C,50,02,00,00,
8213545,0000036F,false,Rx,0,8,47,11,01,00,00,00,00,00,
8213812,0000037F,false,Rx,0,8,FC,60,52,24,41,02,00,00,
8216334,0000011B,false,Rx,0,8,23,C1,39,05,80,08,A8,02,
8216477,0000012B,false,Rx,0,8,64,3B,39,06,00,00,08,00,
8216818,0000011C,false,Rx,0,8,00,05,20,00,22,00,01,01,
8217214,0000012C,false,Rx,0,8,00,00,01,00,00,64,00,00,
8217634,00000061,false,Rx,0,8,EE,D4,B2,00,00,00,00,00,
8218036,000001E1,false,Rx,0,8,C4,2F,A5,02,00,00,00,00,
8218329,00000062,false,Rx,0,8,02,02,00,02,40,FF,00,FF,
8218459,000001E2,false,Rx,0,8,00,00,00,00,00,00,00,00,
8218873,00000063,false,Rx,0,8,00,00,05,00,00,08,FD,00,
8219531,00000064,false,Rx,0,8,00,00,00,04,FF,FA,00,00,
8219917,000000A1,false,Rx,0,8,CB,6D,B2,01,00,00,00,00,
8220171,000000A2,false,Rx,0,8,00,00,00,00,00,00,00,00,
8220277,000000A3,false,Rx,0,8,00,40,01,00,00,00,00,00,
8222419,0000010B,false,Rx,0,8,C9,50,53,00,00,00,00,05,
8222546,0000010C,false,Rx,0,8,FF,F9,E7,1F,3A,38,39,39,
8222794,0000010D,false,Rx,0,8,ED,02,00,00,00,00,01,35,
8223086,0000010E,false,Rx,0,8,00,00,0A,00,00,C0,AB,57,
8225490,000004A3,false,Rx,1,8,80,00,48,0B,3E,00,00,00,
8225842,000004A4,false,Rx,1,8,FF,FF,FF,00,00,00,00,00,
8231248,00000121,false,Rx,0,8,F9,63,53,00,00,00,00,05,
8231399,00000122,false,Rx,0,8,FF,D9,67,1F,3A,39,3A,3A,
8231627,00000123,false,Rx,0,8,ED,02,00,00,00,00,01,35,
8232034,00000124,false,Rx,0,8,00,00,0A,00,00,00,20,40,
8237838,0000019B,false,Rx,0,8,F4,97,62,00,00,E4,00,00,
8238048,0000019C,false,Rx,0,8,40,20,00,00,00,00,0B,09,
8238340,0000019D,false,Rx,0,8,00,10,00,01,00,00,00,00,
8238577,0000019E,false,Rx,0,8,15,00,00,00,00,32,00,00,
8245484,00000396,false,Rx,0,8,04,39,5D,0F,08,02,00,02,
8245627,00000397,false,Rx,0,8,35,00,00,00,00,00,00,00,
8246086,00000398,false,Rx,0,8,00,00,00,00,00,00,00,00,
8246448,00000091,false,Rx,0,8,88,9D,BB,00,00,00,00,00,
8246619,00000092,false,Rx,0,8,00,00,00,00,00,00,00,00,
8246738,00000093,false,Rx,0,8,00,00,00,00,00,00,00,00,
8246843,00000415,false,Rx,0,8,40,13,10,00,08,01,00,00,
8247278,00000094,false,Rx,0,8,00,00,00,00,00,00,00,00,
8250082,00000146,false,Rx,0,8,E0,C8,A7,10,04,01,00,00,
8250225,00000147,false,Rx,0,8,00,04,7D,00,40,00,00,00,
8250681,00000148,false,Rx,0,8,00,00,00,00,00,70,50,05,
8251113,00000149,false,Rx,0,8,00,00,00,00,00,00,00,00,
8252915,000003AA,false,Rx,0,8,FF,00,D0,00,54,00,00,00,
8253715,000002D6,false,Rx,0,8,8D,DD,5D,00,00,00,00,00,
8253844,000001B1,false,Rx,0,8,CF,1D,A7,00,72,00,00,00,
8254025,000002D7,false,Rx,0,8,00,00,00,00,03,00,00,00,
8254154,000001B2,false,Rx,0,8,23,00,04,0E,EB,00,E3,1F,
8254917,000002D8,false,Rx,0,8,00,00,00,00,00,00,38,38,
8255345,000001B3,false,Rx,0,8,EB,1B,00,00,73,76,7A,75,
8256111,000002D9,false,Rx,0,8,00,00,00,00,00,00,00,00,
8256565,000001B4,false,Rx,0,8,75,77,17,00,00,40,01,00,
8256721,000002EB,false,Rx,0,8,F5,1C,5D,07,08,01,00,02,
8257122,000002EC,false,Rx,0,8,07,00,00,00,00,00,00,00,
8257508,000002ED,false,Rx,0,8,00,00,00,00,00,00,00,00,
8257760,000002EE,false,Rx,0,8,00,00,00,00,00,00,00,00,
8257897,00000236,false,Rx,0,8,A4,F7,BD,00,34,6C,34,6C,
8258159,00000151,false,Rx,0,8,89,4A,BD,B4,B4,00,28,10,
8258385,00000237,false,Rx,0,8,00,25,8A,00,00,3A,1D,00,
8258513,00000152,false,Rx,0,8,0F,0F,0F,00,16,00,00,00,
8258634,000001F6,false,Rx,0,8,C9,DF,BD,00,00,00,00,0E,
8258775,00000153,false,Rx,0,8,00,00,00,00,00,00,00,00,
8258872,000001F7,false,Rx,0,8,0E,00,84,03,00,00,00,00,
8258977,00000154,false,Rx,0,8,00,00,00,00,00,00,00,00,
8259229,000001F8,false,Rx,0,8,00,AE,01,90,01,00,00,00,
8259617,00000036,false,Rx,0,8,B2,E1,68,51,00,00,25,01,
8260244,000001F9,false,Rx,0,8,64,00,B4,B4,14,00,64,00,
8260573,00000037,false,Rx,0,8,00,00,00,10,00,40,00,00,
8260715,00000238,false,Rx,0,8,00,00,F7,00,00,00,00,00,
8260967,00000038,false,Rx,0,8,04,00,00,00,F0,39,96,D4,
8261331,00000239,false,Rx,0,8,00,00,00,00,01,00,00,00,
8262221,00000039,false,Rx,0,8,00,00,00,00,00,00,00,00,
8262656,0000025B,false,Rx,0,8,61,B3,BD,00,40,20,00,00,
8262783,000002FB,false,Rx,0,8,02,2C,BD,04,F7,0F,C2,C2,
8262903,00000111,false,Rx,0,8,47,3F,CA,01,00,00,00,00,
8262997,0000025C,false,Rx,0,8,00,00,0E,00,C5,60,0F,00,
8263371,00000112,false,Rx,0,8,00,00,00,00,00,00,00,00,
8263940,0000025D,false,Rx,0,8,00,B4,00,00,00,40,C0,70,
8264574,00000113,false,Rx,0,8,00,00,00,00,00,00,00,00,
8264983,0000025E,false,Rx,0,8,41,02,09,06,00,00,00,00,
8265636,00000114,false,Rx,0,8,00,00,00,00,00,00,00,00,
8266364,000002FC,false,Rx,0,8,01,00,0F,10,00,00,90,8B,
8266955,000002FD,false,Rx,0,8,00,00,00,00,00,1C,0B,EA,
8267088,000002FE,false,Rx,0,8,00,00,72,01,00,28,00,00,
8267486,00000326,false,Rx,0,8,C6,7D,BD,00,00,00,00,00,
8267730,00000327,false,Rx,0,8,00,00,00,00,05,00,00,00,
8267842,00000328,false,Rx,0,8,84,03,64,00,00,AE,01,00,
8268066,00000329,false,Rx,0,8,B4,90,01,00,00,00,00,00,
8268203,00000331,false,Rx,0,8,97,73,BD,F1,C8,A0,2C,97,
8268328,00000332,false,Rx,0,8,48,03,68,01,00,00,00,00,
8268448,00000333,false,Rx,0,8,00,00,00,1C,0C,40,20,B4,
8268620,00000334,false,Rx,0,8,B4,00,00,00,9A,7F,9A,7F,
8268730,0000011B,false,Rx,0,8,BC,A9,3E,05,80,08,A8,02,
8268844,00000161,false,Rx,0,8,4F,85,9F,03,00,00,00,02,
8269024,00000061,false,Rx,0,8,91,F8,B7,00,00,00,00,00,
8269149,0000012B,false,Rx,0,8,FB,53,3E,06,00,00,08,00,
8269321,00000062,false,Rx,0,8,02,02,00,02,40,FF,00,FF,
8269417,0000012C,false,Rx,0,8,00,00,01,00,00,64,00,00,
8269704,00000063,false,Rx,0,8,00,00,05,00,00,08,FD,00,
8270093,00000162,false,Rx,0,8,FF,FC,01,00,00,00,00,00,
8270520,00000064,false,Rx,0,8,00,00,00,04,FF,FA,00,00,
8271124,000000A1,false,Rx,0,8,C4,86,B7,01,00,00,00,00,
8271484,000000A2,false,Rx,0,8,00,00,00,00,00,00,00,00,
8271877,000000A3,false,Rx,0,8,00,40,01,00,00,00,00,00,
8272533,00000495,false,Rx,0,8,49,00,00,00,00,00,00,00,
8273085,0000011C,false,Rx,0,8,00,05,20,00,22,00,01,01,
8273269,00000226,false,Rx,0,8,60,86,0D,FF,DF,20,09,42,
8273447,00000227,false,Rx,0,8,02,AC,44,09,00,F2,2F,03,
8274278,000002FF,false,Rx,0,8,E2,01,00,F1,3F,00,00,00,
8274929,00000316,false,Rx,0,8,35,28,06,F0,0D,80,0A,00,
8275288,0000010B,false,Rx,0,8,40,A1,58,00,00,00,00,05,
8275902,00000317,false,Rx,0,8,00,00,05,00,00,00,00,00,
8276577,0000010C,false,Rx,0,8,FF,F9,E7,1F,3A,38,39,39,
8277208,000003A1,false,Rx,0,8,3C,82,26,00,FF,FF,FF,FF,
8277604,0000010D,false,Rx,0,8,EC,02,00,00,00,00,01,35,
8277795,000003A2,false,Rx,0,8,00,00,00,00,00,00,00,00,
8277884,0000010E,false,Rx,0,8,00,00,0A,00,00,C0,AB,57,
8278155,00000472,false,Rx,0,8,5C,EC,00,40,08,41,00,45,
8278470,00000473,false,Rx,0,8,5F,24,00,25,00,00,00,78,
8278636,00000474,false,Rx,0,8,31,C0,00,00,00,00,00,0E,
8279211,000001A1,false,Rx,0,8,49,AC,9F,FE,F7,7F,64,00,
8279835,000001A2,false,Rx,0,8,00,00,00,00,00,08,00,00,
8280662,000002BF,false,Rx,0,8,FF,FF,FF,00,00,00,00,00,
8281329,000001A3,false,Rx,0,8,FF,F3,3F,00,00,00,00,00,
8281496,0000047F,false,Rx,0,8,FF,FF,FF,FF,FF,FF,FF,FF,
8281871,000001A4,false,Rx,0,8,FE,07,00,00,00,00,00,00,
8282230,00000653,false,Rx,0,8,0A,19,03,01,02,2A,00,00,
8282643,00000121,false,Rx,0,8,41,62,58,00,00,00,00,05,
8283048,00000122,false,Rx,0,8,FF,D9,67,1F,3A,39,3A,3A,
8283424,00000123,false,Rx,0,8,ED,02,00,00,00,00,01,35,
8283679,00000124,false,Rx,0,8,00,00,0A,00,00,00,20,40,
8288016,0000019B,false,Rx,0,8,8B,BB,67,00,00,E4,00,00,
8288157,000000FF,false,Rx,0,8,CB,10,00,00,00,00,02,00,
8288528,0000019C,false,Rx,0,8,40,20,00,00,00,00,0B,09,
8288894,0000019D,false,Rx,0,8,00,10,00,01,00,00,00,00,
8289031,00000394,false,Rx,0,8,2A,22,1A,49,00,00,00,00,
8289282,0000019E,false,Rx,0,8,15,00,00,00,00,32,00,00,
8289391,000003C3,false,Rx,0,8,45,10,31,30,36,00,00,00,
8289568,000003E0,false,Rx,0,8,09,00,01,00,54,03,00,00,
8289816,000003E5,false,Rx,0,8,58,A0,01,00,00,00,00,00,
8290122,000003E6,false,Rx,0,8,18,50,00,00,00,00,00,00,
8290360,0000041A,false,Rx,0,8,92,70,12,00,50,40,00,00,
8290596,0000041B,false,Rx,0,8,D1,50,00,00,00,00,00,00,
8290875,000001AB,false,Rx,0,8,0A,CC,45,40,70,40,00,00,
8291094,000001AC,false,Rx,0,8,00,28,00,00,00,00,00,00,
8291728,0000041C,false,Rx,0,8,8C,A0,E8,00,00,00,00,00,
8292179,000001F1,false,Rx,0,8,EB,B2,25,01,00,00,28,00,
8292698,00000422,false,Rx,0,8,FA,20,01,00,00,00,04,00,
8293152,000001F2,false,Rx,0,8,00,00,00,00,00,00,00,00,
8293826,00000432,false,Rx,0,8,03,20,02,00,00,00,00,00,
8294198,00000435,false,Rx,0,8,49,E0,00,40,00,00,00,00,
8294387,00000442,false,Rx,0,8,CE,20,11,81,00,00,00,00,
8294487,00000444,false,Rx,0,8,74,A0,20,50,55,50,00,00,
8295124,00000445,false,Rx,0,8,DE,50,00,00,00,00,00,18,
8296190,00000561,false,Rx,0,8,63,02,00,00,00,00,FF,FF,
8296486,00000464,false,Rx,0,8,03,10,F0,FF,38,7F,05,00,
8297045,000000C5,false,Rx,1,8,00,00,00,00,00,00,00,00,
8297457,00000244,false,Rx,1,8,FF,FF,FF,FF,FF,FF,FF,FF,
8298325,0000033B,false,Rx,0,8,CF,20,BD,00,00,00,00,00,
8299085,000004B4,false,Rx,1,8,00,00,00,00,00,00,00,00,
8300317,0000033C,false,Rx,0,8,00,00,00,00,F0,00,00,00,
8300932,0000033D,false,Rx,0,8,00,00,00,00,00,00,00,00,
8301087,000004B5,false,Rx,1,8,08,00,F0,07,00,00,00,00,
8301197,0000033E,false,Rx,0,8,00,00,00,00,00,00,00,00,
8301387,000004B7,false,Rx,1,8,08,00,F0,07,00,00,00,00,
8301502,00000356,false,Rx,0,8,99,EF,5E,00,00,00,00,00,
8301599,000004CA,false,Rx,1,8,00,00,00,00,00,00,00,00,
8301772,00000357,false,Rx,0,8,00,00,00,00,00,4B,4D,48,
8301893,000004CC,false,Rx,1,8,08,00,00,06,00,00,03,00,
8302005,000004CE,false,Rx,1,8,14,01,FF,FF,FF,FF,FF,FF,
8302094,00000358,false,Rx,0,8,35,41,45,4D,52,37,33,4F,
8302289,00000359,false,Rx,0,8,51,4F,34,52,4A,35,33,00,
8302435,000004D7,false,Rx,1,8,23,01,00,00,00,00,00,00,
8303333,000004D8,false,Rx,1,8,41,10,F0,F0,40,F2,1E,CC,
8304121,000004DD,false,Rx,1,8,00,00,FE,00,04,00,00,00,
8304894,000004DF,false,Rx,1,8,FF,03,0C,3F,00,00,00,00,
8305362,000004E7,false,Rx,1,8,00,30,00,00,00,00,69,00,
8305472,000004E8,false,Rx,1,8,FF,FF,FF,05,FF,FF,FF,00,
8305588,000004E9,false,Rx,1,8,12,00,00,34,00,00,50,00,
8305703,000004EA,false,Rx,1,8,67,00,00,89,00,00,00,00,
8305817,000004EB,false,Rx,1,8,08,A8,2C,12,80,00,00,00,
8305917,000004EC,false,Rx,1,8,00,00,00,00,00,00,00,00,
8306030,000004ED,false,Rx,1,8,00,00,00,00,00,FF,FF,1F,
8306334,000004EE,false,Rx,1,8,FF,FF,00,00,00,00,00,00,
8306477,000004EF,false,Rx,1,8,60,00,60,00,29,14,00,00,
8306598,0000063D,false,Rx,1,8,00,80,00,00,00,00,00,00,
8306704,0000063E,false,Rx,1,8,FF,FF,FF,FF,FF,FF,FF,FF,
8306864,0000063F,false,Rx,1,8,00,10,00,C4,FF,00,00,00,
8306992,00000640,false,Rx,1,8,FF,FF,FF,00,FF,FF,FF,00,
8307122,00000641,false,Rx,1,8,FF,FF,FF,FF,0F,FF,FF,FF,
8307242,00000646,false,Rx,1,8,00,00,00,80,01,00,00,00,
8309558,00000036,false,Rx,0,8,CD,CD,6D,51,00,00,25,01,
8309893,00000037,false,Rx,0,8,00,00,00,10,00,40,00,00,
8310272,00000038,false,Rx,0,8,04,00,00,00,F0,39,96,D4,
8310429,00000039,false,Rx,0,8,00,00,00,00,00,00,00,00,
8310720,00000448,false,Rx,0,8,7F,00,00,00,00,00,00,00,
8311207,00000475,false,Rx,0,8,12,00,00,00,00,00,00,00,
8311826,00000496,false,Rx,0,8,12,00,00,00,00,00,00,00,
8312339,000003B6,false,Rx,0,8,53,37,5D,00,00,00,00,3A,
8312555,000003B7,false,Rx,0,8,3A,00,00,00,00,00,00,00,
8312945,000003B8,false,Rx,0,8,E8,02,00,00,00,00,69,0E,
8313125,000003B9,false,Rx,0,8,00,00,00,00,00,00,00,00,
8313522,0000036F,false,Rx,0,8,91,21,01,00,00,00,00,00,
8313719,0000037F,false,Rx,0,8,45,70,52,24,41,02,00,00,
8316358,0000011B,false,Rx,0,8,F9,79,43,05,80,08,A8,02,
8316516,0000011C,false,Rx,0,8,00,05,20,00,22,00,01,01,
8317173,0000012B,false,Rx,0,8,BE,83,43,06,00,00,08,00,
8317338,00000061,false,Rx,0,8,29,F9,BC,00,00,00,00,00,
8317673,0000012C,false,Rx,0,8,00,00,01,00,00,64,00,00,
8318071,00000062,false,Rx,0,8,02,02,00,02,40,FF,00,FF,
8318478,00000063,false,Rx,0,8,00,00,05,00,00,08,FD,00,
8318936,00000064,false,Rx,0,8,00,00,00,04,FF,FA,00,00,
8319291,000000A1,false,Rx,0,8,F8,77,BC,01,00,00,00,00,
8319434,000000A2,false,Rx,0,8,00,00,00,00,00,00,00,00,
8319705,00000401,false,Rx,0,8,79,00,10,00,00,00,00,00,
8320173,000000A3,false,Rx,0,8,00,40,01,00,00,00,00,00,
8322582,0000010B,false,Rx,0,8,0E,7D,5D,00,00,00,00,05,
8322721,0000010C,false,Rx,0,8,FF,F9,E7,1F,3A,38,39,39,
8322958,0000010D,false,Rx,0,8,ED,02,00,00,00,00,01,35,
8323072,0000010E,false,Rx,0,8,00,00,0A,00,00,C0,AB,57,
8331297,00000121,false,Rx,0,8,3E,4E,5D,00,00,00,00,05,
8331426,00000122,false,Rx,0,8,FF,D9,67,1F,3A,39,3A,3A,
8331654,00000123,false,Rx,0,8,ED,02,00,00,00,00,01,35,
8331888,00000124,false,Rx,0,8,00,00,0A,00,00,00,20,40,
8333073,00000405,false,Rx,0,8,0C,50,00,00,00,01,00,00,
8333222,00000410,false,Rx,0,8,97,10,4A,3C,5F,6A,FF,FF,
8333522,00000411,false,Rx,0,8,CF,51,50,50,00,00,44,04,
8333785,00000412,false,Rx,0,8,B3,20,00,00,00,00,00,00,
8334039,00000413,false,Rx,0,8,ED,80,00,41,00,00,00,00,
8334278,00000414,false,Rx,0,8,26,20,00,00,28,00,00,00,
8334580,00000416,false,Rx,0,8,55,00,00,00,00,00,00,00,
8335017,00000417,false,Rx,0,8,5F,20,00,00,00,00,00,00,
8335109,00000418,false,Rx,0,8,76,50,00,00,12,0C,00,00,
8335443,00000419,false,Rx,0,8,4A,60,6D,D5,85,89,76,00,
8338190,0000019B,false,Rx,0,8,33,BA,6C,00,00,E4,00,00,
8338321,0000019C,false,Rx,0,8,40,20,00,00,00,00,0B,09,
8338735,0000019D,false,Rx,0,8,00,10,00,01,00,00,00,00,
8339067,0000019E,false,Rx,0,8,15,00,00,00,00,32,00,00,
8341896,0000030B,false,Rx,0,8,20,7F,BE,00,04,00,00,00,
8342047,00000382,false,Rx,0,8,22,3D,00,00,00,01,08,00,
8342238,0000030C,false,Rx,0,8,00,00,0C,00,2C,00,A0,0F,
8342451,0000030D,false,Rx,0,8,00,00,00,00,38,00,00,00,
8342710,0000030E,false,Rx,0,8,00,00,28,05,21,00,00,00,
8345593,00000251,false,Rx,0,8,BA,59,BC,00,00,00,00,00,
8346118,00000252,false,Rx,0,8,00,00,00,00,03,00,00,00,
8346243,00000253,false,Rx,0,8,00,00,00,42,42,00,80,38,
8346608,00000091,false,Rx,0,8,7B,03,BC,00,00,00,00,00,
8346957,000001E6,false,Rx,0,8,BB,0B,A2,02,00,00,00,00,
8347284,00000092,false,Rx,0,8,00,00,00,00,00,00,00,00,
8347756,000001E7,false,Rx,0,8,00,00,22,03,20,01,00,00,
8348242,00000093,false,Rx,0,8,00,00,00,00,00,00,00,00,
8348641,000001BB,false,Rx,0,8,96,5B,A2,02,00,00,00,0A,
8348948,00000094,false,Rx,0,8,00,00,00,00,00,00,00,00,
8349247,000001BC,false,Rx,0,8,32,00,00,00,02,00,00,00,
8349383,000001BD,false,Rx,0,8,00,00,00,00,00,00,00,00,
8350215,00000146,false,Rx,0,8,58,C9,AC,10,04,01,00,00,
8350615,00000147,false,Rx,0,8,00,04,7D,00,40,00,00,00,
8350996,00000148,false,Rx,0,8,00,00,00,00,00,70,50,05,
8351250,00000149,false,Rx,0,8,00,00,00,00,00,00,00,00,
8353844,000001B1,false,Rx,0,8,77,1C,AC,00,72,00,00,00,
8353982,000001B2,false,Rx,0,8,23,00,04,0E,EB,00,E3,1F,
8354127,000001B3,false,Rx,0,8,EB,1B,00,00,73,76,7A,75,
8354371,000001B4,false,Rx,0,8,75,77,17,00,00,40,01,00,
8359328,00000036,false,Rx,0,8,89,7D,72,51,00,00,25,01,
8359498,00000037,false,Rx,0,8,00,00,00,10,00,40,00,00,
8359768,00000038,false,Rx,0,8,04,00,00,00,F0,39,96,D4,
8360069,00000039,false,Rx,0,8,00,00,00,00,00,00,00,00,
8360574,00000380,false,Rx,0,8,AD,D7,FF,00,00,00,00,01,
8362897,00000383,false,Rx,0,8,C1,AA,00,00,02,00,00,00,
8363694,000003B0,false,Rx,0,8,72,37,FF,C7,00,00,03,C0,
8365721,000003B1,false,Rx,0,8,9B,3C,FF,40,00,00,20,00,
8365863,00000161,false,Rx,0,8,99,19,A4,03,00,00,00,02,
8366167,0000011B,false,Rx,0,8,31,80,48,05,80,08,A8,02,
8366301,00000162,false,Rx,0,8,FF,FC,01,00,00,00,00,00,
8366983,0000011C,false,Rx,0,8,00,05,20,00,22,00,01,01,
8367326,0000012B,false,Rx,0,8,76,7A,48,06,00,00,08,00,
8367618,00000061,false,Rx,0,8,3D,41,C1,00,00,00,00,00,
8367762,0000012C,false,Rx,0,8,00,00,01,00,00,64,00,00,
8368061,00000062,false,Rx,0,8,02,02,00,02,40,FF,00,FF,
8368245,000001E1,false,Rx,0,8,B7,16,A8,02,00,00,00,00,
8368333,00000063,false,Rx,0,8,00,00,05,00,00,08,FD,00,
8368466,000001E2,false,Rx,0,8,00,00,00,00,00,00,00,00,
8368791,00000064,false,Rx,0,8,00,00,00,04,FF,FA,00,00,
8369199,000000A1,false,Rx,0,8,56,E5,C1,01,00,00,00,00,
8369821,000000A2,false,Rx,0,8,00,00,00,00,00,00,00,00,
8370210,000000A3,false,Rx,0,8,00,40,01,00,00,00,00,00,
8370793,000002AB,false,Rx,0,8,42,E9,BF,0C,0C,00,00,00,
8371189,000002AC,false,Rx,0,8,00,FF,FF,00,00,40,00,50,
8371803,000002AD,false,Rx,0,8,00,01,00,40,FF,FF,FF,0F,
8372139,000002AE,false,Rx,0,8,01,00,FF,3F,01,01,00,00,
8372301,000002B6,false,Rx,0,8,6F,9E,BF,01,00,00,00,40,
8372752,000002B7,false,Rx,0,8,67,01,A6,00,00,04,00,00,
8373019,000003B2,false,Rx,0,8,36,15,FF,02,29,2F,34,00,
8373265,000002B8,false,Rx,0,8,DA,D1,0E,00,00,00,00,00,
8373386,000002B9,false,Rx,0,8,0A,00,00,00,00,00,00,00,
8373572,000002C1,false,Rx,0,8,D8,D6,60,21,00,41,00,A5,
8373700,0000010B,false,Rx,0,8,E1,54,62,00,00,00,00,05,
8374015,000002C2,false,Rx,0,8,2C,00,00,00,00,00,00,00,
8374397,0000010C,false,Rx,0,8,FF,F9,E7,1F,3A,38,39,39,
8375032,000002C3,false,Rx,0,8,00,00,00,00,00,00,00,00,
8375397,0000010D,false,Rx,0,8,ED,02,00,00,00,00,01,35,
8375770,000002C4,false,Rx,0,8,00,00,00,00,00,00,00,00,
8376408,0000010E,false,Rx,0,8,00,00,0A,00,00,C0,AB,57,
8376962,000002E1,false,Rx,0,8,61,CC,BF,00,00,00,00,40,
8377323,000002E2,false,Rx,0,8,FD,00,00,00,00,14,00,04,
8377743,000002E3,false,Rx,0,8,00,00,00,00,00,00,72,01,
8378133,000002E4,false,Rx,0,8,02,00,00,00,00,00,00,00,
8378553,000001A1,false,Rx,0,8,9F,F0,A4,FE,F7,7F,64,00,
8378957,000001A2,false,Rx,0,8,00,00,00,00,00,08,00,00,
8379158,000001A3,false,Rx,0,8,FF,F3,3F,00,00,00,00,00,
8379251,000001A4,false,Rx,0,8,FE,07,00,00,00,00,00,00,
8379331,00000427,false,Rx,0,8,1D,86,FF,00,80,0A,00,00,
8380047,0000042A,false,Rx,0,8,F4,DE,FF,01,00,10,00,00,
8381558,00000121,false,Rx,0,8,D1,67,62,00,00,00,00,05,
8382001,00000122,false,Rx,0,8,FF,D9,67,1F,3A,39,3A,3A,
8382331,00000563,false,Rx,1,8,65,02,00,00,00,00,FF,FF,
8382648,00000123,false,Rx,0,8,ED,02,00,00,00,00,01,35,
8382807,00000124,false,Rx,0,8,00,00,0A,00,00,00,20,40,
8383220,00000384,false,Rx,0,8,9C,14,01,00,00,FF,00,21,
8386991,00000487,false,Rx,1,8,00,00,00,00,00,00,00,00,
8387255,000001FB,false,Rx,0,8,63,B1,54,00,00,00,00,00,
8387435,00000642,false,Rx,1,8,FF,FF,FF,FF,FF,FF,00,00,
8387804,000001FC,false,Rx,0,8,00,00,00,00,00,00,00,00,
8387984,000001FD,false,Rx,0,8,00,1A,03,00,00,00,00,00,
8388318,000001FE,false,Rx,0,8,00,00,00,00,00,00,00,00,
8388602,0000019B,false,Rx,0,8,FB,B8,71,00,00,E4,00,00,
8388712,0000019C,false,Rx,0,8,40,20,00,00,00,00,0B,09,
8388868,0000019D,false,Rx,0,8,00,10,00,01,00,00,00,00,
8389214,0000019E,false,Rx,0,8,15,00,00,00,00,32,00,00,
8391732,000001AB,false,Rx,0,8,10,B5,4A,40,70,40,00,00,
8392180,000001AC,false,Rx,0,8,00,28,00,00,00,00,00,00,
8409355,00000036,false,Rx,0,8,F6,51,77,51,00,00,25,01,
8409497,00000037,false,Rx,0,8,00,00,00,10,00,40,00,00,
8409908,00000038,false,Rx,0,8,04,00,00,00,F0,39,96,D4,
8410359,00000039,false,Rx,0,8,00,00,00,00,00,00,00,00,
8411914,000002E6,false,Rx,0,8,4D,27,BC,01,00,00,00,15,
8412065,00000256,false,Rx,0,8,97,7F,BC,15,00,00,C0,00,
8412449,000002E7,false,Rx,0,8,0A,00,00,00,00,00,00,00,
8412825,00000257,false,Rx,0,8,00,95,35,13,79,07,00,95,
8413233,000002E8,false,Rx,0,8,00,00,00,00,00,00,00,00,
8413647,00000258,false,Rx,0,8,02,0F,1D,00,10,15,00,14,
8413985,000002E9,false,Rx,0,8,00,00,00,00,00,00,00,00,
8414167,00000259,false,Rx,0,8,41,05,8A,3C,50,02,00,00,
8414706,0000036F,false,Rx,0,8,28,31,01,00,00,00,00,00,
8414818,0000037F,false,Rx,0,8,EC,80,52,24,41,02,00,00,
8416346,0000011B,false,Rx,0,8,C7,A8,4D,05,80,08,A8,02,
8416465,0000012B,false,Rx,0,8,80,52,4D,06,00,00,08,00,
8416722,0000011C,false,Rx,0,8,00,05,20,00,22,00,01,01,
8416822,0000012C,false,Rx,0,8,00,00,01,00,00,64,00,00,
8417104,00000061,false,Rx,0,8,CE,DF,C6,00,00,00,00,00,
8417387,00000062,false,Rx,0,8,02,02,00,02,40,FF,00,FF,
8417582,00000063,false,Rx,0,8,00,00,05,00,00,08,FD,00,
8417853,00000064,false,Rx,0,8,00,00,00,04,FF,FA,00,00,
8418126,000000A1,false,Rx,0,8,5F,60,C6,01,00,00,00,00,
8418554,000000A2,false,Rx,0,8,00,00,00,00,00,00,00,00,
8418907,000000A3,false,Rx,0,8,00,40,01,00,00,00,00,00,
8422849,0000010B,false,Rx,0,8,AF,88,67,00,00,00,00,05,
8423003,0000010C,false,Rx,0,8,FF,F9,E7,1F,3A,38,39,39,
8423415,0000010D,false,Rx,0,8,EC,02,00,00,00,00,01,35,
8423775,0000010E,false,Rx,0,8,00,00,0A,00,00,C0,AB,57,
8429103,000004A3,false,Rx,1,8,80,00,48,0B,3E,00,00,00,
8429262,000004A4,false,Rx,1,8,FF,FF,FF,00,00,00,00,00,
8431310,00000121,false,Rx,0,8,AE,4B,67,00,00,00,00,05,
8431438,00000122,false,Rx,0,8,FF,D9,67,1F,3A,39,3A,3A,
8431613,00000123,false,Rx,0,8,ED,02,00,00,00,00,01,35,
8431874,00000124,false,Rx,0,8,00,00,0A,00,00,00,20,40,
8437843,0000019B,false,Rx,0,8,08,26,76,00,00,E4,00,00,
8438278,0000019C,false,Rx,0,8,40,20,00,00,00,00,0B,09,
8438377,0000019D,false,Rx,0,8,00,10,00,01,00,00,00,00,
8438531,0000019E,false,Rx,0,8,15,00,00,00,00,32,00,00,
8441323,000001F1,false,Rx,0,8,98,8B,28,01,00,00,28,00,
8441525,000001F2,false,Rx,0,8,00,00,00,00,00,00,00,00,
8445502,00000396,false,Rx,0,8,B7,67,5E,0F,08,02,00,02,
8445626,00000397,false,Rx,0,8,00,00,00,00,00,00,00,00,
8446064,00000091,false,Rx,0,8,3D,5A,BD,00,00,00,00,00,
8446289,00000398,false,Rx,0,8,00,00,00,00,00,00,00,00,
8446387,00000092,false,Rx,0,8,00,00,00,00,00,00,00,00,
8446868,00000093,false,Rx,0,8,00,00,00,00,00,00,00,00,
8447452,00000094,false,Rx,0,8,00,00,00,00,00,00,00,00,
8449976,00000146,false,Rx,0,8,90,CB,B1,10,04,01,00,00,
8450124,00000147,false,Rx,0,8,00,04,7D,00,40,00,00,00,
8450400,00000148,false,Rx,0,8,00,00,00,00,00,70,50,05,
8450825,00000149,false,Rx,0,8,00,00,00,00,00,00,00,00,
8452808,000003AA,false,Rx,0,8,FF,00,D0,00,54,00,00,00,
8453725,000002D6,false,Rx,0,8,47,36,5E,00,00,00,00,00,
8454120,000001B1,false,Rx,0,8,BF,1E,B1,00,72,00,00,00,
8454293,000002D7,false,Rx,0,8,00,00,00,00,03,00,00,00,
8454449,000001B2,false,Rx,0,8,23,00,04,0E,EB,00,E3,1F,
8454712,000002D8,false,Rx,0,8,00,00,00,00,00,00,38,38,
8455057,000001B3,false,Rx,0,8,EB,1B,00,00,73,76,7A,75,
8455674,000002D9,false,Rx,0,8,00,00,00,00,00,00,00,00,
8456043,000001B4,false,Rx,0,8,75,77,17,00,00,40,01,00,
8456403,000002EB,false,Rx,0,8,7B,82,5E,07,08,01,00,02,
8456533,000002EC,false,Rx,0,8,00,00,00,00,00,00,00,00,
8456674,000002ED,false,Rx,0,8,00,00,00,00,00,00,00,00,
8456762,000002EE,false,Rx,0,8,00,00,00,00,00,00,00,00,
8457568,00000236,false,Rx,0,8,28,45,BF,00,34,6C,34,6C,
8458201,00000237,false,Rx,0,8,00,25,8A,00,00,3A,1D,00,
8458518,00000238,false,Rx,0,8,00,00,F7,00,00,00,00,00,
8459082,00000151,false,Rx,0,8,05,F8,BF,B4,B4,00,28,10,
8459472,00000239,false,Rx,0,8,00,00,00,00,01,00,00,00,
8459921,00000152,false,Rx,0,8,0F,0F,0F,00,16,00,00,00,
8460317,000001F6,false,Rx,0,8,45,6D,BF,00,00,00,00,0E,
8460803,00000153,false,Rx,0,8,00,00,00,00,00,00,00,00,
8461220,000001F7,false,Rx,0,8,0E,00,84,03,00,00,00,00,
8461572,00000036,false,Rx,0,8,4E,50,7C,51,00,00,25,01,
8461958,00000154,false,Rx,0,8,00,00,00,00,00,00,00,00,
8462385,00000037,false,Rx,0,8,00,00,00,10,00,40,00,00,
8462604,000001F8,false,Rx,0,8,00,AE,01,90,01,00,00,00,
8462808,00000038,false,Rx,0,8,04,00,00,00,F0,39,96,D4,
8462944,000001F9,false,Rx,0,8,64,00,B4,B4,14,00,64,00,
8463501,00000039,false,Rx,0,8,00,00,00,00,00,00,00,00,
8463942,0000025B,false,Rx,0,8,0C,19,BF,00,40,20,00,00,
8464535,00000111,false,Rx,0,8,01,66,CB,01,00,00,00,00,
8464886,0000025C,false,Rx,0,8,00,00,0E,00,C5,60,0F,00,
8465243,00000112,false,Rx,0,8,00,00,00,00,00,00,00,00,
8465740,0000025D,false,Rx,0,8,00,B4,00,00,00,40,C0,70,
8466134,00000113,false,Rx,0,8,00,00,00,00,00,00,00,00,
8466601,0000025E,false,Rx,0,8,07,02,09,01,00,00,00,00,
8466884,00000114,false,Rx,0,8,00,00,00,00,00,00,00,00,
8467198,000002FB,false,Rx,0,8,0C,7A,BF,04,F7,0F,C2,C2,
8467385,000002FC,false,Rx,0,8,02,00,0F,10,00,00,90,8B,
8467710,000002FD,false,Rx,0,8,00,00,00,00,00,1C,0B,EA,
8468152,000002FE,false,Rx,0,8,00,00,72,01,00,28,00,00,
8468760,00000326,false,Rx,0,8,4A,CF,BF,00,00,00,00,00,
8469010,00000327,false,Rx,0,8,00,00,00,00,05,00,00,00,
8469239,00000328,false,Rx,0,8,84,03,64,00,00,AE,01,00,
8469599,00000329,false,Rx,0,8,B4,90,01,00,00,00,00,00,
8470222,00000331,false,Rx,0,8,1B,C1,BF,F1,C8,A0,2C,97,
8470626,00000332,false,Rx,0,8,48,03,68,01,00,00,00,00,
8470934,00000333,false,Rx,0,8,00,00,00,1C,0C,40,20,B4,
8471267,00000161,false,Rx,0,8,EA,20,A9,03,00,00,00,02,
8471423,0000011B,false,Rx,0,8,D7,F2,52,05,80,08,A8,02,
8471574,0000012B,false,Rx,0,8,90,08,52,06,00,00,08,00,
8471671,00000061,false,Rx,0,8,C3,19,CB,00,00,00,00,00,
8471768,0000012C,false,Rx,0,8,00,00,01,00,00,64,00,00,
8472008,00000062,false,Rx,0,8,02,02,00,02,40,FF,00,FF,
8472413,00000162,false,Rx,0,8,FF,FC,01,00,00,00,00,00,
8472831,00000063,false,Rx,0,8,00,00,05,00,00,08,FD,00,
8473474,00000334,false,Rx,0,8,B4,00,00,00,9A,7F,9A,7F,
8473867,00000064,false,Rx,0,8,00,00,00,04,FF,FA,00,00,
8474465,000000A1,false,Rx,0,8,69,23,CB,01,00,00,00,00,
8475110,000000A2,false,Rx,0,8,00,00,00,00,00,00,00,00,
8475434,000000A3,false,Rx,0,8,00,40,01,00,00,00,00,00,
8475700,00000495,false,Rx,0,8,49,00,00,00,00,00,00,00,
8475812,0000011C,false,Rx,0,8,00,05,20,00,22,00,01,01,
8476337,00000226,false,Rx,0,8,09,C6,0F,FF,DF,20,09,42,
8476978,00000227,false,Rx,0,8,02,AC,44,09,00,F2,2F,03,
8477336,000002FF,false,Rx,0,8,E2,01,00,F1,3F,00,00,00,
8477688,00000316,false,Rx,0,8,11,80,07,F0,0D,80,0A,00,
8477847,0000010B,false,Rx,0,8,17,89,6C,00,00,00,00,05,
8478522,00000317,false,Rx,0,8,00,00,05,00,00,00,00,00,
8478857,0000010C,false,Rx,0,8,FF,F9,E7,1F,3A,38,39,39,
8479246,000003A1,false,Rx,0,8,18,2A,27,00,FF,FF,FF,FF,
8479517,0000010D,false,Rx,0,8,EC,02,00,00,00,00,01,35,
8479652,000003A2,false,Rx,0,8,00,00,00,00,00,00,00,00,
8479778,0000010E,false,Rx,0,8,00,00,0A,00,00,C0,AB,57,
8479934,00000472,false,Rx,0,8,5C,EC,00,40,08,41,00,45,
8480052,00000473,false,Rx,0,8,5F,24,00,25,00,00,00,78,
8480225,00000474,false,Rx,0,8,31,C0,00,00,00,00,00,0E,
8480378,000001A1,false,Rx,0,8,92,36,A9,FE,F7,7F,64,00,
8480699,000001A2,false,Rx,0,8,00,00,00,00,00,08,00,00,
8480943,000002BF,false,Rx,0,8,FF,FF,FF,00,00,00,00,00,
8481275,000001A3,false,Rx,0,8,FF,F3,3F,00,00,00,00,00,
8481396,0000047F,false,Rx,0,8,FF,FF,FF,FF,FF,FF,FF,FF,
8481580,000001A4,false,Rx,0,8,FE,07,00,00,00,00,00,00,
8481683,00000653,false,Rx,0,8,0A,19,03,01,02,2A,00,00,
8481812,0000048B,false,Rx,0,8,58,CF,EF,1E,01,00,00,00,
8482018,00000565,false,Rx,0,8,66,02,00,00,00,00,FF,FF,
8482135,0000048C,false,Rx,0,8,00,00,00,00,00,00,00,00,
8482313,00000121,false,Rx,0,8,16,4A,6C,00,00,00,00,05,
8482424,00000122,false,Rx,0,8,FF,D9,67,1F,3A,39,3A,3A,
8482591,00000123,false,Rx,0,8,ED,02,00,00,00,00,01,35,
8482688,00000124,false,Rx,0,8,00,00,0A,00,00,00,20,40,
8487977,0000019B,false,Rx,0,8,05,E0,7B,00,00,E4,00,00,
8488128,000000FF,false,Rx,0,8,CB,10,00,00,00,00,02,00,
8488514,0000019C,false,Rx,0,8,40,20,00,00,00,00,0B,09,
8488884,0000019D,false,Rx,0,8,00,10,00,01,00,00,00,00,
8489332,00000394,false,Rx,0,8,2A,22,1A,49,00,00,00,00,
8489713,0000019E,false,Rx,0,8,15,00,00,00,00,32,00,00,
8489833,000001AB,false,Rx,0,8,E6,9D,4F,40,70,40,00,00,
8490234,000003C3,false,Rx,0,8,45,10,31,30,36,00,00,00,
8490621,000001AC,false,Rx,0,8,00,28,00,00,00,00,00,00,
8490819,000003E0,false,Rx,0,8,09,00,01,00,54,03,00,00,
8490928,000003E5,false,Rx,0,8,58,A0,01,00,00,00,00,00,
8491266,000003E6,false,Rx,0,8,18,50,00,00,00,00,00,00,
8491903,0000041A,false,Rx,0,8,92,70,12,00,50,40,00,00,
8492288,0000041B,false,Rx,0,8,D1,50,00,00,00,00,00,00,
8492889,0000041C,false,Rx,0,8,8C,A0,E8,00,00,00,00,00,
8493289,00000422,false,Rx,0,8,FA,20,01,00,00,00,04,00,
8493770,00000432,false,Rx,0,8,03,20,02,00,00,00,00,00,
8494131,00000442,false,Rx,0,8,CE,20,11,81,00,00,00,00,
8494420,00000435,false,Rx,0,8,49,E0,00,40,00,00,00,00,
8494542,00000444,false,Rx,0,8,74,A0,20,50,55,50,00,00,
8494903,00000445,false,Rx,0,8,DE,50,00,00,00,00,00,18,
8495296,00000464,false,Rx,0,8,03,10,F0,FF,38,7F,05,00,
8495904,000001E6,false,Rx,0,8,24,63,A5,02,00,00,00,00,
8496272,000001BB,false,Rx,0,8,9F,DE,A5,02,00,00,00,0A,
8496595,000001BC,false,Rx,0,8,32,00,00,00,02,00,00,00,
8496757,0000033B,false,Rx,0,8,43,92,BF,00,00,00,00,00,
8496957,000001BD,false,Rx,0,8,00,00,00,00,00,00,00,00,
8497477,0000033C,false,Rx,0,8,00,00,00,00,F0,00,00,00,
8498101,000001E7,false,Rx,0,8,00,00,22,03,20,01,00,00,
8498472,0000033D,false,Rx,0,8,00,00,00,00,00,00,00,00,
8498879,0000033E,false,Rx,0,8,00,00,00,00,00,00,00,00,
8499024,00000356,false,Rx,0,8,DF,B6,5F,00,00,00,00,00,
8499417,00000357,false,Rx,0,8,00,00,00,00,00,4B,4D,48,
8499590,00000358,false,Rx,0,8,35,41,45,4D,52,37,33,4F,
8499689,00000359,false,Rx,0,8,51,4F,34,52,4A,35,33,00,
8500698,000000C5,false,Rx,1,8,00,00,00,00,00,00,00,00,
8501114,00000244,false,Rx,1,8,FF,FF,FF,FF,FF,FF,FF,FF,
8501579,0000041F,false,Rx,1,8,00,0C,00,00,00,00,00,00,
8502048,000004B4,false,Rx,1,8,00,00,00,00,00,00,00,00,
8502270,000004B5,false,Rx,1,8,08,00,F0,07,00,00,00,00,
8502410,000004B7,false,Rx,1,8,08,00,F0,07,00,00,00,00,
8502697,000004CA,false,Rx,1,8,00,00,00,00,00,00,00,00,
8502946,000004CC,false,Rx,1,8,08,00,00,06,00,00,03,00,
8503213,000004CE,false,Rx,1,8,14,01,FF,FF,FF,FF,FF,FF,
8503912,000004D7,false,Rx,1,8,23,01,00,00,00,00,00,00,
8504512,000004D8,false,Rx,1,8,41,10,F0,F0,40,F2,1E,CC,
8504875,000004DD,false,Rx,1,8,00,00,FE,00,04,00,00,00,
8504998,000004DF,false,Rx,1,8,FF,03,0C,3F,00,00,00,00,
8505194,000004E7,false,Rx,1,8,00,30,00,00,00,00,69,00,
8505317,000004E8,false,Rx,1,8,FF,FF,FF,05,FF,FF,FF,00,
8505535,000004E9,false,Rx,1,8,12,00,00,34,00,00,50,00,
8505700,000004EA,false,Rx,1,8,67,00,00,89,00,00,00,00,
8505792,000004EB,false,Rx,1,8,08,A8,2C,12,80,00,00,00,
8505940,000004EC,false,Rx,1,8,00,00,00,00,00,00,00,00,
8506142,000004ED,false,Rx,1,8,00,00,00,00,00,FF,FF,1F,
8506539,000004EE,false,Rx,1,8,FF,FF,00,00,00,00,00,00,
8507410,000004EF,false,Rx,1,8,60,00,60,00,29,14,00,00,
8508013,0000063D,false,Rx,1,8,00,80,00,00,00,00,00,00,
8508182,0000063E,false,Rx,1,8,FF,FF,FF,FF,FF,FF,FF,FF,
8508485,0000063F,false,Rx,1,8,00,10,00,C4,FF,00,00,00,
8508609,00000640,false,Rx,1,8,FF,FF,FF,00,FF,FF,FF,00,
8508728,00000641,false,Rx,1,8,FF,FF,FF,FF,0F,FF,FF,FF,
8508843,00000646,false,Rx,1,8,00,00,00,80,01,00,00,00,
8509402,00000036,false,Rx,0,8,B4,AE,81,51,00,00,25,01,
8509977,00000037,false,Rx,0,8,00,00,00,10,00,40,00,00,
8510166,00000038,false,Rx,0,8,04,00,00,00,F0,39,96,D4,
8510953,00000039,false,Rx,0,8,00,00,00,00,00,00,00,00,
8511097,00000448,false,Rx,0,8,7F,00,00,00,00,00,00,00,
8511807,00000475,false,Rx,0,8,12,00,00,00,00,00,00,00,
8512153,00000496,false,Rx,0,8,12,00,00,00,00,00,00,00,
8512375,000003B6,false,Rx,0,8,99,DC,5E,00,00,00,00,3A,
8512761,000003B7,false,Rx,0,8,3A,00,00,00,00,00,00,00,
8513184,000003B8,false,Rx,0,8,E8,02,00,00,00,00,69,0E,
8513625,000003B9,false,Rx,0,8,00,00,00,00,00,00,00,00,
8513976,0000036F,false,Rx,0,8,20,41,01,00,00,00,00,00,
8514094,0000037F,false,Rx,0,8,55,90,52,24,41,02,00,00,
8516344,0000011B,false,Rx,0,8,21,DA,57,05,80,08,A8,02,
8516484,0000012B,false,Rx,0,8,66,20,57,06,00,00,08,00,
8516707,0000011C,false,Rx,0,8,00,05,20,00,22,00,01,01,
8516847,0000012C,false,Rx,0,8,00,00,01,00,00,64,00,00,
8517138,00000061,false,Rx,0,8,BE,DC,D0,00,00,00,00,00,
8517446,000001E1,false,Rx,0,8,FA,FE,AB,02,00,00,00,00,
8517568,00000062,false,Rx,0,8,02,02,00,02,40,FF,00,FF,
8517833,000001E2,false,Rx,0,8,00,00,00,00,00,00,00,00,
8518137,00000063,false,Rx,0,8,00,00,05,00,00,08,FD,00,
8518358,00000064,false,Rx,0,8,00,00,00,04,FF,FA,00,00,
8518601,000000A1,false,Rx,0,8,06,92,D0,01,00,00,00,00,
8518839,00000401,false,Rx,0,8,79,00,10,00,00,00,00,00,
8519092,000000A2,false,Rx,0,8,00,00,00,00,00,00,00,00,
8519538,000000A3,false,Rx,0,8,00,40,01,00,00,00,00,00,
8522312,0000010B,false,Rx,0,8,EE,7B,71,00,00,00,00,05,
8522462,0000010C,false,Rx,0,8,FF,F9,E7,1F,3A,38,39,39,
8522775,0000010D,false,Rx,0,8,ED,02,00,00,00,00,01,35,
8523216,0000010E,false,Rx,0,8,00,00,0A,00,00,C0,AB,57,
8531341,00000121,false,Rx,0,8,DE,48,71,00,00,00,00,05,
8531482,00000122,false,Rx,0,8,FF,D9,67,1F,3A,39,3A,3A,
8531849,00000123,false,Rx,0,8,ED,02,00,00,00,00,01,35,
8532165,00000124,false,Rx,0,8,00,00,0A,00,00,00,20,40,
8533230,00000405,false,Rx,0,8,0C,50,00,00,00,01,00,00,
8533361,00000410,false,Rx,0,8,97,10,4A,3C,5F,6A,FF,FF,
8533554,00000411,false,Rx,0,8,CF,51,50,50,00,00,44,04,
8534010,00000412,false,Rx,0,8,B3,20,00,00,00,00,00,00,
8534137,00000413,false,Rx,0,8,ED,80,00,41,00,00,00,00,
8534416,00000414,false,Rx,0,8,26,20,00,00,28,00,00,00,
8534657,00000416,false,Rx,0,8,55,00,00,00,00,00,00,00,
8534959,00000417,false,Rx,0,8,5F,20,00,00,00,00,00,00,
8535369,00000418,false,Rx,0,8,76,50,00,00,12,0C,00,00,
8535496,00000419,false,Rx,0,8,4A,60,6D,D5,85,89,76,00,
8537864,0000019B,false,Rx,0,8,4A,D9,80,00,00,E4,00,00,
8538041,0000019C,false,Rx,0,8,40,20,00,00,00,00,0B,09,
8538312,0000019D,false,Rx,0,8,00,10,00,01,00,00,00,00,
8538569,0000019E,false,Rx,0,8,15,00,00,00,00,32,00,00,
8541719,0000030B,false,Rx,0,8,FE,2C,C0,00,04,00,00,00,
8541871,00000382,false,Rx,0,8,22,3D,00,00,00,01,08,00,
8542147,0000030C,false,Rx,0,8,00,00,0C,00,2C,00,A0,0F,
8542583,0000030D,false,Rx,0,8,00,00,00,00,38,00,00,00,
8542675,0000030E,false,Rx,0,8,00,00,28,05,21,00,00,00,
8544686,00000251,false,Rx,0,8,BC,37,BE,00,00,00,00,00,
8545104,00000252,false,Rx,0,8,00,00,00,00,03,00,00,00,
8545215,00000253,false,Rx,0,8,00,00,00,42,42,00,80,38,
8545615,00000091,false,Rx,0,8,F7,B1,BE,00,00,00,00,00,
8545850,00000092,false,Rx,0,8,00,00,00,00,00,00,00,00,
8546131,00000093,false,Rx,0,8,00,00,00,00,00,00,00,00,
8546400,00000094,false,Rx,0,8,00,00,00,00,00,00,00,00,
8550463,00000146,false,Rx,0,8,63,55,B6,10,04,01,00,00,
8550588,00000147,false,Rx,0,8,00,04,7D,00,40,00,00,00,
8551016,00000148,false,Rx,0,8,00,00,00,00,00,70,50,05,
8551279,00000149,false,Rx,0,8,00,00,00,00,00,00,00,00,
8553798,000001B1,false,Rx,0,8,4C,80,B6,00,72,00,00,00,
8553941,000001B2,false,Rx,0,8,23,00,04,0E,EB,00,E3,1F,
8554218,000001B3,false,Rx,0,8,EB,1B,00,00,73,76,7A,75,
8554325,000001B4,false,Rx,0,8,75,77,17,00,00,40,01,00,
8559413,0000034B,false,Rx,0,8,57,6E,13,31,D8,0D,05,01,
8559555,00000036,false,Rx,0,8,47,30,86,51,00,00,25,01,
8559763,0000034C,false,Rx,0,8,00,00,00,00,00,00,00,00,
8559925,00000037,false,Rx,0,8,00,00,00,10,00,40,00,00,
8560182,0000034D,false,Rx,0,8,00,00,00,00,00,00,00,00,
8560650,00000038,false,Rx,0,8,04,00,00,00,F0,39,96,D4,
8560988,0000034E,false,Rx,0,8,00,00,00,00,00,00,00,00,
8561356,00000039,false,Rx,0,8,00,00,00,00,00,00,00,00,
8561986,00000380,false,Rx,0,8,AD,D7,FF,00,00,00,00,01,
8562790,00000383,false,Rx,0,8,C1,AA,00,00,02,00,00,00,
8563534,000003B0,false,Rx,0,8,72,37,FF,C7,00,00,03,C0,
8565564,000003B1,false,Rx,0,8,9B,3C,FF,40,00,00,20,00,
8565872,00000161,false,Rx,0,8,75,48,AE,03,00,00,00,02,
8566149,0000011B,false,Rx,0,8,E9,23,5C,05,80,08,A8,02,
8566349,00000162,false,Rx,0,8,FF,FC,01,00,00,00,00,00,
8566710,00000061,false,Rx,0,8,C1,F0,D5,00,00,00,00,00,
8567069,0000012B,false,Rx,0,8,AE,D9,5C,06,00,00,08,00,
8567676,00000062,false,Rx,0,8,02,02,00,02,40,FF,00,FF,
8568024,0000012C,false,Rx,0,8,00,00,01,00,00,64,00,00,
8568170,00000063,false,Rx,0,8,00,00,05,00,00,08,FD,00,
8568567,00000064,false,Rx,0,8,00,00,00,04,FF,FA,00,00,
8568794,000000A1,false,Rx,0,8,09,79,D5,01,00,00,00,00,
8568915,000000A2,false,Rx,0,8,00,00,00,00,00,00,00,00,
8569108,000000A3,false,Rx,0,8,00,40,01,00,00,00,00,00,
8569219,0000011C,false,Rx,0,8,00,05,20,00,22,00,01,01,
8569947,000002AB,false,Rx,0,8,9C,BA,C1,0C,0C,00,00,00,
8570224,000002AC,false,Rx,0,8,00,FF,FF,00,00,40,00,50,
8570502,000002AD,false,Rx,0,8,00,01,00,40,FF,FF,FF,0F,
8570779,000002AE,false,Rx,0,8,01,00,FF,3F,01,01,00,00,
8571070,000002B6,false,Rx,0,8,B1,CD,C1,01,00,00,00,40,
8571469,000003B2,false,Rx,0,8,36,15,FF,02,29,2F,34,00,
8571584,000002B7,false,Rx,0,8,67,01,A6,00,00,04,00,00,
8571751,00000566,false,Rx,0,8,16,02,00,00,00,00,FF,FF,
8572092,000002B8,false,Rx,0,8,DA,D1,0E,00,00,00,00,00,
8572236,0000010B,false,Rx,0,8,2C,15,76,00,00,00,00,05,
8572598,000002B9,false,Rx,0,8,0A,00,00,00,00,00,00,00,
8572932,0000010C,false,Rx,0,8,FF,F9,E7,1F,3A,38,39,39,
8573549,000002C1,false,Rx,0,8,FF,23,61,21,00,41,00,A5,
8574145,0000010D,false,Rx,0,8,EC,02,00,00,00,00,01,35,
8574569,000002C2,false,Rx,0,8,2D,00,00,00,00,00,00,00,
8574893,0000010E,false,Rx,0,8,00,00,0A,00,00,C0,AB,57,
8575283,000002C3,false,Rx,0,8,00,00,00,00,00,00,00,00,
8575909,000002C4,false,Rx,0,8,00,00,00,00,00,00,00,00,
8576089,000002E1,false,Rx,0,8,BF,9F,C1,00,00,00,00,40,
8576199,000002E2,false,Rx,0,8,FD,00,00,00,00,14,00,04,
8576516,000002E3,false,Rx,0,8,00,00,00,00,00,00,72,01,
8576705,000002E4,false,Rx,0,8,02,00,00,00,00,00,00,00,
8576798,000001A1,false,Rx,0,8,61,A8,AE,FE,F7,7F,64,00,
8576883,000001A2,false,Rx,0,8,00,00,00,00,00,08,00,00,
8577008,000001A3,false,Rx,0,8,FF,F3,3F,00,00,00,00,00,
8577214,000001A4,false,Rx,0,8,FE,07,00,00,00,00,00,00,
8577674,00000427,false,Rx,0,8,1D,86,FF,00,80,0A,00,00,
8579913,0000042A,false,Rx,0,8,F4,DE,FF,01,00,10,00,00,
8581435,00000121,false,Rx,0,8,2D,D6,76,00,00,00,00,05,
8581580,00000122,false,Rx,0,8,FF,D9,67,1F,3A,39,3A,3A,
8581965,00000123,false,Rx,0,8,ED,02,00,00,00,00,01,35,
8582235,00000124,false,Rx,0,8,00,00,0A,00,00,00,20,40,
8582640,00000384,false,Rx,0,8,9C,14,01,00,00,FF,00,21,
8586640,000001FB,false,Rx,0,8,EF,03,56,00,00,00,00,00,
8586782,000001FC,false,Rx,0,8,00,00,00,00,00,00,00,00,
8587065,000001FD,false,Rx,0,8,00,1A,03,00,00,00,00,00,
8587235,000001FE,false,Rx,0,8,00,00,00,00,00,00,00,00,
8587802,0000019B,false,Rx,0,8,35,F5,85,00,00,E4,00,00,
8588081,0000019C,false,Rx,0,8,40,20,00,00,00,00,0B,09,
8588279,0000019D,false,Rx,0,8,00,10,00,01,00,00,00,00,
8588539,0000019E,false,Rx,0,8,15,00,00,00,00,32,00,00,
8589080,000001AB,false,Rx,0,8,24,47,54,40,70,40,00,00,
8589290,000001AC,false,Rx,0,8,00,28,00,00,00,00,00,00,
8591360,000001F1,false,Rx,0,8,D5,63,2B,01,00,00,28,00,
8591547,000001F2,false,Rx,0,8,00,00,00,00,00,00,00,00,
8592518,00000487,false,Rx,1,8,00,00,00,00,00,00,00,00,
8592794,00000642,false,Rx,1,8,FF,FF,FF,FF,FF,FF,00,00,
8609454,00000036,false,Rx,0,8,4A,F6,8B,51,00,00,25,01,
8609589,00000037,false,Rx,0,8,00,00,00,10,00,40,00,00,
8610007,00000038,false,Rx,0,8,04,00,00,00,F0,39,96,D4,
8610345,00000039,false,Rx,0,8,00,00,00,00,00,00,00,00,
8611955,000002E6,false,Rx,0,8,C1,95,BE,01,00,00,00,15,
8612118,00000256,false,Rx,0,8,E3,C6,BE,15,00,00,E0,00,
8612499,000002E7,false,Rx,0,8,0A,00,00,00,00,00,00,00,
8612878,00000257,false,Rx,0,8,00,95,35,16,79,07,00,95,
8613305,000002E8,false,Rx,0,8,00,00,00,00,00,00,00,00,
8613631,00000258,false,Rx,0,8,02,10,1D,00,10,15,00,14,
8613834,000002E9,false,Rx,0,8,00,00,00,00,00,00,00,00,
8614513,00000259,false,Rx,0,8,51,05,8B,3C,50,02,00,00,
8614847,0000036F,false,Rx,0,8,99,51,01,00,00,00,00,00,
8615250,0000037F,false,Rx,0,8,83,A0,52,24,41,02,00,00,
8616423,0000011B,false,Rx,0,8,84,7F,61,05,80,08,A8,02,
8616579,0000012B,false,Rx,0,8,C3,85,61,06,00,00,08,00,
8617212,00000061,false,Rx,0,8,40,84,DA,00,00,00,00,00,
8617369,0000012C,false,Rx,0,8,00,00,01,00,00,64,00,00,
8617741,00000062,false,Rx,0,8,02,02,00,02,40,FF,00,FF,
8618129,00000063,false,Rx,0,8,00,00,05,00,00,08,FD,00,
8618548,00000064,false,Rx,0,8,00,00,00,04,FF,FA,00,00,
8618908,000000A1,false,Rx,0,8,39,54,DA,01,00,00,00,00,
8619298,000000A2,false,Rx,0,8,00,00,00,00,00,00,00,00,
8619458,000000A3,false,Rx,0,8,00,40,01,00,00,00,00,00,
8619873,0000011C,false,Rx,0,8,00,05,20,00,22,00,01,01,
8622471,0000010B,false,Rx,0,8,21,D3,7B,00,00,00,00,05,
8622614,0000010C,false,Rx,0,8,FF,F9,E7,1F,3A,38,39,39,
8623015,0000010D,false,Rx,0,8,EC,02,00,00,00,00,01,35,
8623322,0000010E,false,Rx,0,8,00,00,0A,00,00,C0,AB,57,
8631364,00000121,false,Rx,0,8,20,10,7B,00,00,00,00,05,
8631510,00000122,false,Rx,0,8,FF,D9,67,1F,3A,39,3A,3A,
8631875,00000123,false,Rx,0,8,ED,02,00,00,00,00,01,35,
8632225,00000124,false,Rx,0,8,00,00,0A,00,00,00,20,40,
8632634,000004A3,false,Rx,1,8,80,00,48,0B,3E,00,00,00,
8633019,000004A4,false,Rx,1,8,FF,FF,FF,00,00,00,00,00,
8637899,0000019B,false,Rx,0,8,B4,81,8A,00,00,E4,00,00,
8638066,0000019C,false,Rx,0,8,40,20,00,00,00,00,0B,09,
8638331,0000019D,false,Rx,0,8,00,10,00,01,00,00,00,00,
8638577,0000019E,false,Rx,0,8,15,00,00,00,00,32,00,00,
8645539,00000396,false,Rx,0,8,28,CE,5F,0F,08,01,00,02,
8645657,00000397,false,Rx,0,8,04,00,00,00,00,00,00,00,
8646146,00000091,false,Rx,0,8,B1,E8,BF,00,00,00,00,00,
8646510,000001E6,false,Rx,0,8,57,5A,A8,02,00,00,00,00,
8646723,00000092,false,Rx,0,8,00,00,00,00,00,00,00,00,
8646836,000001E7,false,Rx,0,8,00,00,22,03,20,01,00,00,
8646950,00000093,false,Rx,0,8,00,00,00,00,00,00,00,00,
8647277,000001BB,false,Rx,0,8,A9,9D,A8,02,00,00,00,0A,
8647713,00000094,false,Rx,0,8,00,00,00,00,00,00,00,00,
8648370,000001BC,false,Rx,0,8,32,00,00,00,02,00,00,00,
8649059,00000398,false,Rx,0,8,00,00,00,00,00,00,00,00,
8649328,000001BD,false,Rx,0,8,00,00,00,00,00,00,00,00,
8650390,00000146,false,Rx,0,8,6E,93,BB,10,04,01,00,00,
8650544,00000147,false,Rx,0,8,00,04,7D,00,40,00,00,00,
8650861,00000148,false,Rx,0,8,00,00,00,00,00,70,50,05,
8651065,00000149,false,Rx,0,8,00,00,00,00,00,00,00,00,
8652851,000003AA,false,Rx,0,8,FF,00,D0,00,54,00,00,00,
8653734,000002D6,false,Rx,0,8,01,6F,5F,00,00,00,00,00,
8653904,000001B1,false,Rx,0,8,41,46,BB,00,72,00,00,00,
8654284,000002D7,false,Rx,0,8,00,00,00,00,03,00,00,00,
8654453,000001B2,false,Rx,0,8,23,00,04,0E,EB,00,E3,1F,
8654633,000002D8,false,Rx,0,8,00,00,00,00,00,00,38,38,
8654750,000001B3,false,Rx,0,8,EB,1B,00,00,73,76,7A,75,
8655334,000002D9,false,Rx,0,8,00,00,00,00,00,00,00,00,
8655735,000001B4,false,Rx,0,8,75,77,17,00,00,40,01,00,
8656323,000002EB,false,Rx,0,8,23,C9,5F,07,08,01,00,02,
8656625,000002EC,false,Rx,0,8,17,00,00,00,00,00,00,00,
8656875,000002ED,false,Rx,0,8,00,00,00,00,00,00,00,00,
8657050,000002EE,false,Rx,0,8,00,00,00,00,00,00,00,00,
8657770,00000236,false,Rx,0,8,F6,16,C1,00,34,6C,34,6C,
8658168,00000237,false,Rx,0,8,00,25,8A,00,00,3A,1D,00,
8658855,00000151,false,Rx,0,8,DB,AB,C1,B4,B4,00,28,10,
8659270,000001F6,false,Rx,0,8,9B,3E,C1,00,00,00,00,0E,
8659437,00000152,false,Rx,0,8,0F,0F,0F,00,16,00,00,00,
8659862,000001F7,false,Rx,0,8,0E,00,84,03,00,00,00,00,
8660257,00000153,false,Rx,0,8,00,00,00,00,00,00,00,00,
8660490,000001F8,false,Rx,0,8,00,AE,01,90,01,00,00,00,
8660646,00000154,false,Rx,0,8,00,00,00,00,00,00,00,00,
8660966,00000036,false,Rx,0,8,37,33,90,51,00,00,25,01,
8661392,000001F9,false,Rx,0,8,64,00,B4,B4,14,00,64,00,
8662005,00000037,false,Rx,0,8,00,00,00,10,00,40,00,00,
8662339,00000238,false,Rx,0,8,00,00,F7,00,00,00,00,00,
8662722,00000038,false,Rx,0,8,04,00,00,00,F0,39,96,D4,
8663139,00000239,false,Rx,0,8,00,00,00,00,01,00,00,00,
8663497,00000039,false,Rx,0,8,00,00,00,00,00,00,00,00,
8663941,0000025B,false,Rx,0,8,33,52,C1,00,40,20,00,00,
8664302,00000111,false,Rx,0,8,F2,F8,CC,01,00,00,00,00,
8664424,0000025C,false,Rx,0,8,00,00,0E,00,C5,60,0F,00,
8664970,00000112,false,Rx,0,8,00,00,00,00,00,00,00,00,
8665177,0000025D,false,Rx,0,8,00,B4,00,00,00,40,C0,70,
8665332,00000113,false,Rx,0,8,00,00,00,00,00,00,00,00,
8665434,0000025E,false,Rx,0,8,41,02,09,06,00,00,00,00,
8665650,00000114,false,Rx,0,8,00,00,00,00,00,00,00,00,
8665805,000002FB,false,Rx,0,8,D2,29,C1,04,F7,0F,C2,C2,
8666131,000002FC,false,Rx,0,8,02,00,0F,10,00,00,90,8B,
8666763,000002FD,false,Rx,0,8,00,00,00,00,00,1C,0B,EA,
8667158,000002FE,false,Rx,0,8,00,00,72,01,00,28,00,00,
8667564,00000326,false,Rx,0,8,94,9C,C1,00,00,00,00,00,
8668236,00000327,false,Rx,0,8,00,00,00,00,05,00,00,00,
8668864,00000328,false,Rx,0,8,84,03,64,00,00,AE,01,00,
8669208,00000329,false,Rx,0,8,B4,90,01,00,00,00,00,00,
8669480,00000331,false,Rx,0,8,C5,92,C1,F1,C8,A0,2C,97,
8669587,00000332,false,Rx,0,8,48,03,68,01,00,00,00,00,
8669946,00000333,false,Rx,0,8,00,00,00,1C,0C,40,20,B4,
8670297,00000334,false,Rx,0,8,B4,00,00,00,9A,7F,9A,7F,
8670416,0000011B,false,Rx,0,8,1B,17,66,05,80,08,A8,02,
8670984,00000161,false,Rx,0,8,0C,52,B3,03,00,00,00,02,
8671409,0000011C,false,Rx,0,8,00,05,20,00,22,00,01,01,
8671991,0000012B,false,Rx,0,8,5C,ED,66,06,00,00,08,00,
8672308,00000061,false,Rx,0,8,3F,A8,DF,00,00,00,00,00,
8672757,0000012C,false,Rx,0,8,00,00,01,00,00,64,00,00,
8673190,00000062,false,Rx,0,8,02,02,00,02,40,FF,00,FF,
8673572,00000162,false,Rx,0,8,FF,FC,01,00,00,00,00,00,
8673933,00000063,false,Rx,0,8,00,00,05,00,00,08,FD,00,
8674066,000001E1,false,Rx,0,8,0C,D6,AE,02,00,00,00,00,
8674683,00000064,false,Rx,0,8,00,00,00,04,FF,FA,00,00,
8674793,000001E2,false,Rx,0,8,00,00,00,00,00,00,00,00,
8675158,000000A1,false,Rx,0,8,36,BF,DF,01,00,00,00,00,
8675758,00000516,false,Rx,0,8,61,02,00,00,00,00,FF,FF,
8676046,000000A2,false,Rx,0,8,00,00,00,00,00,00,00,00,
8676209,00000226,false,Rx,0,8,3D,34,11,FF,DF,20,09,42,
8676583,000000A3,false,Rx,0,8,00,40,01,00,00,00,00,00,
8676823,00000227,false,Rx,0,8,02,AC,44,09,00,F2,2F,03,
8676968,00000495,false,Rx,0,8,49,00,00,00,00,00,00,00,
8677117,000002FF,false,Rx,0,8,E2,01,00,F1,3F,00,00,00,
8677220,00000316,false,Rx,0,8,0B,F9,08,F0,0D,80,0A,00,
8677534,00000317,false,Rx,0,8,00,00,05,00,00,00,00,00,
8677915,0000010B,false,Rx,0,8,6E,EA,80,00,00,00,00,05,
8678506,00000472,false,Rx,0,8,5C,EC,00,40,08,41,00,45,
8678958,0000010C,false,Rx,0,8,FF,F9,E7,1F,3A,38,39,39,
8679093,000003A1,false,Rx,0,8,02,53,28,00,FF,FF,FF,FF,
8679233,0000010D,false,Rx,0,8,EC,02,00,00,00,00,01,35,
8679563,000003A2,false,Rx,0,8,00,00,00,00,00,00,00,00,
8680162,0000010E,false,Rx,0,8,00,00,0A,00,00,C0,AB,57,
8680536,00000473,false,Rx,0,8,5F,24,00,25,00,00,00,78,
8680880,00000474,false,Rx,0,8,31,C0,00,00,00,00,00,0E,
8681548,000001A1,false,Rx,0,8,A9,AA,B3,FE,F7,7F,64,00,
8681968,000001A2,false,Rx,0,8,00,00,00,00,00,08,00,00,
8682393,000002BF,false,Rx,0,8,FF,FF,FF,00,00,00,00,00,
8682865,000001A3,false,Rx,0,8,FF,F3,3F,00,00,00,00,00,
8683292,0000047F,false,Rx,0,8,FF,FF,FF,FF,FF,FF,FF,FF,
8683647,000001A4,false,Rx,0,8,FE,07,00,00,00,00,00,00,
8684071,00000653,false,Rx,0,8,0A,19,03,01,02,2A,00,00,
8684315,00000121,false,Rx,0,8,6F,29,80,00,00,00,00,05,
8684418,00000122,false,Rx,0,8,FF,D9,67,1F,3A,39,3A,3A,
8684597,00000123,false,Rx,0,8,ED,02,00,00,00,00,01,35,
8685201,00000124,false,Rx,0,8,00,00,0A,00,00,00,20,40,
8687761,000000FF,false,Rx,0,8,CB,10,00,00,00,00,02,00,
8687898,0000019B,false,Rx,0,8,CB,AD,8F,00,00,E4,00,00,
8688234,0000019C,false,Rx,0,8,40,20,00,00,00,00,0B,09,
8688657,0000019D,false,Rx,0,8,00,10,00,01,00,00,00,00,
8688802,0000019E,false,Rx,0,8,15,00,00,00,00,32,00,00,
8689253,00000394,false,Rx,0,8,2A,22,1A,49,00,00,00,00,
8689343,000001AB,false,Rx,0,8,57,7E,59,40,70,40,00,00,
8689445,000003C3,false,Rx,0,8,45,10,31,30,36,00,00,00,
8689563,000001AC,false,Rx,0,8,00,28,00,00,00,00,00,00,
8689894,000003E0,false,Rx,0,8,09,00,01,00,54,03,00,00,
8690452,000003E5,false,Rx,0,8,58,A0,01,00,00,00,00,00,
8690728,000003E6,false,Rx,0,8,18,50,00,00,00,00,00,00,
8691503,0000041A,false,Rx,0,8,92,70,12,00,50,40,00,00,
8692135,0000041B,false,Rx,0,8,D1,50,00,00,00,00,00,00,
8692505,0000041C,false,Rx,0,8,8C,A0,E8,00,00,00,00,00,
8692859,00000422,false,Rx,0,8,FA,20,01,00,00,00,04,00,
8693285,00000432,false,Rx,0,8,03,20,02,00,00,00,00,00,
8693682,00000435,false,Rx,0,8,49,E0,00,40,00,00,00,00,
8694080,00000442,false,Rx,0,8,CE,20,11,81,00,00,00,00,
8694345,00000444,false,Rx,0,8,74,A0,20,50,55,50,00,00,
8694495,00000445,false,Rx,0,8,DE,50,00,00,00,00,00,18,
8694881,00000464,false,Rx,0,8,03,10,F0,FF,38,7F,05,00,
8696508,0000033B,false,Rx,0,8,9D,C1,C1,00,00,00,00,00,
8696646,0000033C,false,Rx,0,8,00,00,00,00,F0,00,00,00,
8697098,0000033D,false,Rx,0,8,00,00,00,00,00,00,00,00,
8697461,0000033E,false,Rx,0,8,00,00,00,00,00,00,00,00,
8698304,00000356,false,Rx,0,8,30,9F,60,00,00,00,00,00,
8698461,00000357,false,Rx,0,8,00,00,00,00,00,4B,4D,48,
8698890,00000358,false,Rx,0,8,35,41,45,4D,52,37,33,4F,
8699292,00000359,false,Rx,0,8,51,4F,34,52,4A,35,33,00,
8702577,000000C5,false,Rx,1,8,00,00,00,00,00,00,00,00,
8702865,00000244,false,Rx,1,8,FF,FF,FF,FF,FF,FF,FF,FF,
8703177,000004B4,false,Rx,1,8,00,00,00,00,00,00,00,00,
8703709,000004B5,false,Rx,1,8,08,00,F0,07,00,00,00,00,
8704261,000004B7,false,Rx,1,8,08,00,F0,07,00,00,00,00,
8705027,000004CA,false,Rx,1,8,00,00,00,00,00,00,00,00,
8705583,000004CC,false,Rx,1,8,08,00,00,06,00,00,03,00,
8706140,000004CE,false,Rx,1,8,14,01,FF,FF,FF,FF,FF,FF,
8706938,000004D7,false,Rx,1,8,23,01,00,00,00,00,00,00,
8707237,000004D8,false,Rx,1,8,41,10,F0,F0,40,F2,1E,CC,
8707669,000004DD,false,Rx,1,8,00,00,FE,00,04,00,00,00,
8708507,000004DF,false,Rx,1,8,FF,03,0C,3F,00,00,00,00,
8709130,000004E7,false,Rx,1,8,00,30,00,00,00,00,69,00,
8709511,000004E8,false,Rx,1,8,FF,FF,FF,05,FF,FF,FF,00,
8709629,000004E9,false,Rx,1,8,12,00,00,34,00,00,50,00,
8709750,000004EA,false,Rx,1,8,67,00,00,89,00,00,00,00,
8709853,000004EB,false,Rx,1,8,08,A8,2C,12,80,00,00,00,
8709949,000004EC,false,Rx,1,8,00,00,00,00,00,00,00,00,
8710077,000004ED,false,Rx,1,8,00,00,00,00,00,FF,FF,1F,
8710195,000004EE,false,Rx,1,8,FF,FF,00,00,00,00,00,00,
8710340,000004EF,false,Rx,1,8,60,00,60,00,29,14,00,00,
8710481,0000063D,false,Rx,1,8,00,80,00,00,00,00,00,00,
8710620,0000063E,false,Rx,1,8,FF,FF,FF,FF,FF,FF,FF,FF,
8710739,0000063F,false,Rx,1,8,00,10,00,C4,FF,00,00,00,
8710846,00000640,false,Rx,1,8,FF,FF,FF,00,FF,FF,FF,00,
8710942,00000641,false,Rx,1,8,FF,FF,FF,FF,0F,FF,FF,FF,
8711192,00000036,false,Rx,0,8,48,1F,95,51,00,00,25,01,
8711374,00000646,false,Rx,1,8,00,00,00,80,01,00,00,00,
8711719,00000037,false,Rx,0,8,00,00,00,10,00,40,00,00,
8711874,00000038,false,Rx,0,8,04,00,00,00,F0,39,96,D4,
8712193,00000039,false,Rx,0,8,00,00,00,00,00,00,00,00,
8712656,00000448,false,Rx,0,8,7F,00,00,00,00,00,00,00,
8713014,00000475,false,Rx,0,8,12,00,00,00,00,00,00,00,
8713378,00000496,false,Rx,0,8,12,00,00,00,00,00,00,00,
8713518,000003B6,false,Rx,0,8,DF,85,5F,00,00,00,00,3A,
8713947,000003B7,false,Rx,0,8,3A,00,00,00,00,00,00,00,
8714525,0000036F,false,Rx,0,8,4F,61,01,00,00,00,00,00,
8714928,000003B8,false,Rx,0,8,E8,02,00,00,00,00,69,0E,
8715340,0000037F,false,Rx,0,8,3A,B0,52,24,41,02,00,00,
8715744,000003B9,false,Rx,0,8,00,00,00,00,00,00,00,00,
8716541,0000011B,false,Rx,0,8,68,2E,6B,05,80,08,A8,02,
8716975,00000061,false,Rx,0,8,E9,F4,E4,00,00,00,00,00,
8717163,0000012B,false,Rx,0,8,2F,D4,6B,06,00,00,08,00,
8717531,00000062,false,Rx,0,8,02,02,00,02,40,FF,00,FF,
8717846,0000012C,false,Rx,0,8,00,00,01,00,00,64,00,00,
8717988,00000063,false,Rx,0,8,00,00,05,00,00,08,FD,00,
8718566,00000064,false,Rx,0,8,00,00,00,04,FF,FA,00,00,
8718806,000000A1,false,Rx,0,8,FF,8E,E4,01,00,00,00,00,
8718927,000000A2,false,Rx,0,8,00,00,00,00,00,00,00,00,
8719298,000000A3,false,Rx,0,8,00,40,01,00,00,00,00,00,
8719695,0000011C,false,Rx,0,8,00,05,20,00,22,00,01,01,
8720260,00000401,false,Rx,0,8,79,00,10,00,00,00,00,00,
8722540,0000010B,false,Rx,0,8,20,36,85,00,00,00,00,05,
8722697,0000010C,false,Rx,0,8,FF,F9,E7,1F,3A,38,39,39,
8723085,0000010D,false,Rx,0,8,ED,02,00,00,00,00,01,35,
8723291,0000010E,false,Rx,0,8,00,00,0A,00,00,C0,AB,57,
8731345,00000121,false,Rx,0,8,10,05,85,00,00,00,00,05,
8731496,00000122,false,Rx,0,8,FF,D9,67,1F,3A,39,3A,3A,
8731849,00000123,false,Rx,0,8,ED,02,00,00,00,00,01,35,
8732159,00000124,false,Rx,0,8,00,00,0A,00,00,00,20,40,
8733002,000004E8,false,Rx,1,8,FF,FF,FF,05,FF,FF,FF,00,
8733256,00000405,false,Rx,0,8,0C,50,00,00,00,01,00,00,
8733370,00000410,false,Rx,0,8,97,10,4A,3C,5F,6A,FF,FF,
8733758,00000411,false,Rx,0,8,CF,51,50,50,00,00,44,04,
8734017,00000412,false,Rx,0,8,B3,20,00,00,00,00,00,00,
8734264,00000413,false,Rx,0,8,ED,80,00,41,00,00,00,00,
8734519,00000414,false,Rx,0,8,26,20,00,00,28,00,00,00,
8734798,00000416,false,Rx,0,8,55,00,00,00,00,00,00,00,
8735071,00000417,false,Rx,0,8,5F,20,00,00,00,00,00,00,
8735522,00000418,false,Rx,0,8,76,50,00,00,12,0C,00,00,
8735629,0000048F,false,Rx,0,8,AD,10,41,00,05,00,00,00,
8735899,00000419,false,Rx,0,8,4A,60,6D,D5,85,89,76,00,
8737841,0000019B,false,Rx,0,8,B6,68,94,00,00,E4,00,00,
8737991,0000019C,false,Rx,0,8,40,20,00,00,00,00,0B,09,
8738299,0000019D,false,Rx,0,8,00,10,00,01,00,00,00,00,
8738564,0000019E,false,Rx,0,8,15,00,00,00,00,32,00,00,
8741287,000001F1,false,Rx,0,8,23,4B,2E,01,00,00,28,00,
8741701,000001F2,false,Rx,0,8,00,00,00,00,00,00,00,00,
8741801,0000030B,false,Rx,0,8,21,66,C2,00,04,00,00,00,
8742046,00000382,false,Rx,0,8,22,3D,00,00,00,01,08,00,
8742242,0000030C,false,Rx,0,8,00,00,0C,00,2C,00,A0,0F,
8742504,0000030D,false,Rx,0,8,00,00,00,00,38,00,00,00,
8742797,0000030E,false,Rx,0,8,00,00,28,05,21,00,00,FE,
8744741,00000251,false,Rx,0,8,17,FC,C0,00,00,00,00,00,
8745370,00000252,false,Rx,0,8,00,00,00,00,03,00,00,00,
8745557,00000253,false,Rx,0,8,00,00,00,42,42,00,80,38,
8745944,00000091,false,Rx,0,8,29,E2,C0,00,00,00,00,00,
8746303,00000092,false,Rx,0,8,00,00,00,00,00,00,00,00,
8746492,00000093,false,Rx,0,8,00,00,00,00,00,00,00,00,
8746583,00000094,false,Rx,0,8,00,00,00,00,00,00,00,00,
8750793,00000146,false,Rx,0,8,CF,EC,C0,10,04,01,00,00,
8751216,00000147,false,Rx,0,8,00,04,7D,00,40,00,00,00,
8751376,00000148,false,Rx,0,8,00,00,00,00,00,70,50,05,
8751741,00000149,false,Rx,0,8,00,00,00,00,00,00,00,00,
8753826,000001B1,false,Rx,0,8,E0,39,C0,00,72,00,00,00,
8753967,000001B2,false,Rx,0,8,23,00,04,0E,EB,00,E3,1F,
8754179,000001B3,false,Rx,0,8,EB,1B,00,00,73,76,7A,75,
8754648,000001B4,false,Rx,0,8,75,77,17,00,00,40,01,00,
8759574,00000036,false,Rx,0,8,C9,6B,9A,51,00,00,25,01,
8759715,00000037,false,Rx,0,8,00,00,00,10,00,40,00,00,
8760115,00000038,false,Rx,0,8,04,00,00,00,F0,39,96,D4,
8760448,00000039,false,Rx,0,8,00,00,00,00,00,00,00,00,
8760973,00000380,false,Rx,0,8,AD,D7,FF,00,00,00,00,01,
8763762,000004E8,false,Rx,1,8,FF,FF,FF,05,FF,FF,FF,00,
8763988,00000383,false,Rx,0,8,C1,AA,00,00,02,00,00,00,
8764098,000003B0,false,Rx,0,8,72,37,FF,C7,00,00,03,C0,
8765789,000003B1,false,Rx,0,8,9B,3C,FF,40,00,00,20,00,
8765929,00000161,false,Rx,0,8,C4,AB,B8,03,00,00,00,02,
8766341,0000011B,false,Rx,0,8,AA,F4,70,05,80,08,A8,02,
8766707,00000162,false,Rx,0,8,FF,FC,01,00,00,00,00,00,
8767145,0000011C,false,Rx,0,8,00,05,20,00,22,00,01,01,
8767558,0000012B,false,Rx,0,8,ED,0E,70,06,00,00,08,00,
8767905,00000061,false,Rx,0,8,E4,32,E9,00,00,00,00,00,
8768070,0000012C,false,Rx,0,8,00,00,01,00,00,64,00,00,
8768709,00000062,false,Rx,0,8,02,02,00,02,40,FF,00,FF,
8769104,00000063,false,Rx,0,8,00,00,05,00,00,08,FD,00,
8769511,00000064,false,Rx,0,8,00,00,00,04,FF,FA,00,00,
8769761,000000A1,false,Rx,0,8,C9,CD,E9,01,00,00,00,00,
8769917,000000A2,false,Rx,0,8,00,00,00,00,00,00,00,00,
8770260,000000A3,false,Rx,0,8,00,40,01,00,00,00,00,00,
8770483,00000561,false,Rx,0,8,63,02,00,00,00,00,FF,FF,
8770605,000002AB,false,Rx,0,8,10,08,C3,0C,0C,00,00,00,
8770766,000002AC,false,Rx,0,8,00,FF,FF,00,00,40,00,50,
8770909,000002AD,false,Rx,0,8,00,01,00,40,FF,FF,FF,0F,
8771015,000003B2,false,Rx,0,8,36,15,FF,02,29,2F,34,00,
8771224,000002AE,false,Rx,0,8,01,00,FF,3F,01,01,00,00,
8771343,000002B6,false,Rx,0,8,3D,7F,C3,01,00,00,00,40,
8771551,000002B7,false,Rx,0,8,67,01,A6,00,00,04,00,00,
8771751,000002B8,false,Rx,0,8,DA,D1,0E,00,00,00,00,00,
8772001,000002B9,false,Rx,0,8,0A,00,00,00,00,00,00,00,
8772618,0000010B,false,Rx,0,8,90,B2,8A,00,00,00,00,05,
8773239,000002C1,false,Rx,0,8,35,C8,62,21,00,41,00,A5,
8773427,0000010C,false,Rx,0,8,FF,F9,E7,1F,3A,38,39,39,
8773508,000002C2,false,Rx,0,8,2D,00,00,00,00,00,00,00,
8773636,0000010D,false,Rx,0,8,EC,02,00,00,00,00,01,35,
8773992,000002C3,false,Rx,0,8,00,00,00,00,00,00,00,00,
8774365,0000010E,false,Rx,0,8,00,00,0A,00,00,C0,AB,57,
8775010,000002C4,false,Rx,0,8,00,00,00,00,00,00,00,00,
8775579,000002E1,false,Rx,0,8,33,2D,C3,00,00,00,00,40,
8775980,000002E2,false,Rx,0,8,FD,00,00,00,00,14,00,04,
8776406,000002E3,false,Rx,0,8,00,00,00,00,00,00,72,01,
8777063,000002E4,false,Rx,0,8,02,00,00,00,00,00,00,00,
8777645,000001A1,false,Rx,0,8,11,AB,B8,FE,F7,7F,64,00,
8778418,000001A2,false,Rx,0,8,00,00,00,00,00,08,00,00,
8779027,000001A3,false,Rx,0,8,FF,F3,3F,00,00,00,00,00,
8779389,000001A4,false,Rx,0,8,FE,07,00,00,00,00,00,00,
8779687,00000427,false,Rx,0,8,1D,86,FF,00,80,0A,00,00,
8779792,00000485,false,Rx,0,8,00,40,11,02,00,00,00,00,
8780137,0000042A,false,Rx,0,8,F4,DE,FF,01,00,10,00,00,
8781379,00000121,false,Rx,0,8,91,71,8A,00,00,00,00,05,
8781522,00000122,false,Rx,0,8,FF,D9,67,1F,3A,39,3A,3A,
8781866,00000123,false,Rx,0,8,ED,02,00,00,00,00,01,35,
8782054,00000124,false,Rx,0,8,00,00,0A,00,00,00,20,40,
8783003,00000384,false,Rx,0,8,9C,14,01,00,00,FF,00,21,
8786671,000001FB,false,Rx,0,8,28,2E,58,00,00,00,00,00,
8786811,000001FC,false,Rx,0,8,00,00,00,00,00,00,00,00,
8787255,000001FD,false,Rx,0,8,00,1A,03,00,00,00,00,00,
8787574,000001FE,false,Rx,0,8,00,00,00,00,00,00,00,00,
8788118,0000019B,false,Rx,0,8,BB,AE,99,00,00,E4,00,00,
8788485,0000019C,false,Rx,0,8,40,20,00,00,00,00,0B,09,
8789173,0000019D,false,Rx,0,8,00,10,00,01,00,00,00,00,
8789611,0000019E,false,Rx,0,8,15,00,00,00,00,32,00,00,
8789754,000001AB,false,Rx,0,8,C8,16,5E,40,70,40,00,00,
8790097,000001AC,false,Rx,0,8,00,28,00,00,00,00,00,00,
8794073,00000487,false,Rx,1,8,00,00,00,00,00,00,00,00,
8794230,00000642,false,Rx,1,8,FF,FF,FF,FF,FF,FF,00,00,
8795809,000001E6,false,Rx,0,8,1A,B2,AB,02,00,00,00,00,
8795939,000001BB,false,Rx,0,8,AC,C4,AB,02,00,00,00,0A,
8796614,000001BC,false,Rx,0,8,32,00,00,00,02,00,00,00,
8796817,000001BD,false,Rx,0,8,00,00,00,00,00,00,00,00,
8797244,000001E7,false,Rx,0,8,00,00,22,03,20,01,00,00,
8804251,000004E8,false,Rx,1,8,FF,FF,FF,05,FF,FF,FF,00,
8809345,00000036,false,Rx,0,8,B6,47,9F,51,00,00,25,01,
8809487,00000037,false,Rx,0,8,00,00,00,10,00,40,00,00,
8809894,00000038,false,Rx,0,8,04,00,00,00,F0,39,96,D4,
8810237,00000039,false,Rx,0,8,00,00,00,00,00,00,00,00,
8811911,000002E6,false,Rx,0,8,1F,C6,C0,01,00,00,00,15,
8812049,00000256,false,Rx,0,8,F0,AB,C0,15,00,00,C0,00,
8812392,000002E7,false,Rx,0,8,0A,00,00,00,00,00,00,00,
8812757,00000257,false,Rx,0,8,00,95,35,13,79,07,00,95,
8812913,000002E8,false,Rx,0,8,00,00,00,00,00,00,00,00,
8813605,00000258,false,Rx,0,8,02,10,1D,00,10,15,00,14,
8813988,000002E9,false,Rx,0,8,00,00,00,00,00,00,00,00,
8814279,00000259,false,Rx,0,8,43,05,8A,3C,50,02,00,00,
8814388,0000036F,false,Rx,0,8,F6,71,01,00,00,00,00,00,
8814831,0000037F,false,Rx,0,8,32,C0,52,24,41,02,00,00,
8816414,0000011B,false,Rx,0,8,5C,DC,75,05,80,08,A8,02,
8816538,0000012B,false,Rx,0,8,1B,26,75,06,00,00,08,00,
8816847,00000061,false,Rx,0,8,17,AC,EE,00,00,00,00,00,
8817002,0000012C,false,Rx,0,8,00,00,01,00,00,64,00,00,
8817727,00000062,false,Rx,0,8,02,02,00,02,40,FF,00,FF,
8818202,000001E1,false,Rx,0,8,1C,8C,B1,02,00,00,00,00,
8818848,00000063,false,Rx,0,8,00,00,05,00,00,08,FD,00,
8819052,000001E2,false,Rx,0,8,00,00,00,00,00,00,00,00,
8819475,00000064,false,Rx,0,8,00,00,00,04,FF,FA,00,00,
8819841,000000A1,false,Rx,0,8,C0,48,EE,01,00,00,00,00,
8820069,000000A2,false,Rx,0,8,00,00,00,00,00,00,00,00,
8820172,000000A3,false,Rx,0,8,00,40,01,00,00,00,00,00,
8820293,0000011C,false,Rx,0,8,00,05,20,00,22,00,01,01,
8822605,0000010B,false,Rx,0,8,DE,6E,8F,00,00,00,00,05,
8822775,0000010C,false,Rx,0,8,FF,F9,E7,1F,3A,38,39,39,
8823156,0000010D,false,Rx,0,8,ED,02,00,00,00,00,01,35,
8823614,0000010E,false,Rx,0,8,00,00,0A,00,00,C0,AB,57,
8831345,00000121,false,Rx,0,8,EE,5D,8F,00,00,00,00,05,
8831497,00000122,false,Rx,0,8,FF,D9,67,1F,3A,39,3A,3A,
8831917,00000123,false,Rx,0,8,ED,02,00,00,00,00,01,35,
8832260,00000124,false,Rx,0,8,00,00,0A,00,00,00,20,40,
8834131,000004A3,false,Rx,1,8,80,00,48,0B,3E,00,00,00,
8834279,000004A4,false,Rx,1,8,FF,FF,FF,00,00,00,00,00,
8838080,0000019B,false,Rx,0,8,48,30,9E,00,00,E4,00,00,
8838239,0000019C,false,Rx,0,8,40,20,00,00,00,00,0B,09,
8838890,0000019D,false,Rx,0,8,00,10,00,01,00,00,00,00,
8839045,0000019E,false,Rx,0,8,15,00,00,00,00,32,00,00,
8844833,00000415,false,Rx,0,8,40,13,10,00,08,01,00,00,
8845322,00000396,false,Rx,0,8,03,26,60,0F,08,01,00,02,
8845487,00000397,false,Rx,0,8,25,00,00,00,00,00,00,00,
8845771,00000091,false,Rx,0,8,6F,BB,C1,00,00,00,00,00,
8846220,00000398,false,Rx,0,8,00,00,00,00,00,00,00,00,
8846348,00000092,false,Rx,0,8,00,00,00,00,00,00,00,00,
8846691,00000093,false,Rx,0,8,00,00,00,00,00,00,00,00,
8847028,00000094,false,Rx,0,8,00,00,00,00,00,00,00,00,
8850074,00000146,false,Rx,0,8,B0,C0,C5,10,04,01,00,00,
8850215,00000147,false,Rx,0,8,00,04,7D,00,40,00,00,00,
8850598,00000148,false,Rx,0,8,00,00,00,00,00,70,50,05,
8850795,00000149,false,Rx,0,8,00,00,00,00,00,00,00,00,
8852949,000003AA,false,Rx,0,8,FF,00,D0,00,54,00,00,00,
8853617,000002D6,false,Rx,0,8,EE,46,60,00,00,00,00,00,
8853798,000001B1,false,Rx,0,8,AE,E5,C5,00,72,00,00,00,
8854260,000002D7,false,Rx,0,8,00,00,00,00,03,00,00,00,
8854634,000001B2,false,Rx,0,8,23,00,04,0E,EB,00,E3,1F,
8854999,000002D8,false,Rx,0,8,00,00,00,00,00,00,38,38,
8855273,000001B3,false,Rx,0,8,EA,1B,00,00,73,76,7A,75,
8855378,000002D9,false,Rx,0,8,00,00,00,00,00,00,00,00,
8855487,000001B4,false,Rx,0,8,75,77,17,00,00,40,01,00,
8855699,000002EB,false,Rx,0,8,D7,4A,60,07,08,00,00,02,
8855910,000002EC,false,Rx,0,8,02,00,00,00,00,00,00,00,
8856026,000002ED,false,Rx,0,8,00,00,00,00,00,00,00,00,
8856182,000002EE,false,Rx,0,8,00,00,00,00,00,00,00,00,
8857398,00000151,false,Rx,0,8,57,19,C3,B4,B4,00,28,10,
8857642,000001F6,false,Rx,0,8,17,8C,C3,00,00,00,00,0E,
8858127,00000152,false,Rx,0,8,0F,0F,0F,00,16,00,00,00,
8858506,000001F7,false,Rx,0,8,0E,00,84,03,00,00,00,00,
8859098,00000153,false,Rx,0,8,00,00,00,00,00,00,00,00,
8859519,000001F8,false,Rx,0,8,00,AE,01,90,01,00,00,00,
8859768,00000154,false,Rx,0,8,00,00,00,00,00,00,00,00,
8859865,000001F9,false,Rx,0,8,64,00,B4,B4,14,00,64,00,
8860161,00000036,false,Rx,0,8,60,1B,A4,51,00,00,25,01,
8860380,00000236,false,Rx,0,8,7A,A4,C3,00,34,6C,34,6C,
8860490,00000037,false,Rx,0,8,00,00,00,10,00,40,00,00,
8860577,00000237,false,Rx,0,8,00,25,8A,00,00,3A,1D,00,
8860695,00000038,false,Rx,0,8,04,00,00,00,F0,39,96,D4,
8860903,00000238,false,Rx,0,8,00,00,F7,00,00,00,00,00,
8861120,00000039,false,Rx,0,8,00,00,00,00,00,00,00,00,
8861304,00000239,false,Rx,0,8,00,00,00,00,01,00,00,00,
8861611,00000111,false,Rx,0,8,B4,A1,CD,01,00,00,00,00,
8861829,0000025B,false,Rx,0,8,70,51,C3,00,40,20,00,00,
8862011,00000112,false,Rx,0,8,00,00,00,00,00,00,00,00,
8862644,0000025C,false,Rx,0,8,00,00,0E,00,C5,60,0F,00,
8863259,00000113,false,Rx,0,8,00,00,00,00,00,00,00,00,
8863678,0000025D,false,Rx,0,8,00,B4,00,00,00,40,C0,70,
8864285,00000114,false,Rx,0,8,00,00,00,00,00,00,00,00,
8864727,0000025E,false,Rx,0,8,42,02,09,06,00,00,00,00,
8865352,000002FB,false,Rx,0,8,3F,37,C3,04,F7,0F,C2,C2,
8865635,000002FC,false,Rx,0,8,03,00,0F,10,00,00,90,8B,
8865986,000002FD,false,Rx,0,8,00,00,00,00,00,1C,0B,EA,
8866222,000002FE,false,Rx,0,8,00,00,72,01,00,28,00,00,
8866317,00000326,false,Rx,0,8,18,2E,C3,00,00,00,00,00,
8866432,00000327,false,Rx,0,8,00,00,00,00,05,00,00,00,
8866631,00000328,false,Rx,0,8,84,03,64,00,00,AE,01,00,
8866777,00000329,false,Rx,0,8,B4,90,01,00,00,00,00,00,
8866965,00000331,false,Rx,0,8,49,20,C3,F1,C8,A0,2C,97,
8867083,00000332,false,Rx,0,8,48,03,68,01,00,00,00,00,
8867291,00000333,false,Rx,0,8,00,00,00,1C,0C,40,20,B4,
8867399,00000161,false,Rx,0,8,32,83,BD,03,00,00,00,02,
8867593,0000011B,false,Rx,0,8,46,A5,7A,05,80,08,A8,02,
8867711,0000012B,false,Rx,0,8,01,5F,7A,06,00,00,08,00,
8867911,00000061,false,Rx,0,8,DF,AE,F3,00,00,00,00,00,
8868014,0000012C,false,Rx,0,8,00,00,01,00,00,64,00,00,
8868126,00000062,false,Rx,0,8,02,02,00,02,40,FF,00,FF,
8868320,00000162,false,Rx,0,8,FF,FC,01,00,00,00,00,00,
8868688,00000063,false,Rx,0,8,00,00,05,00,00,08,FD,00,
8868991,00000334,false,Rx,0,8,B4,00,00,00,9A,7F,9A,7F,
8869932,00000064,false,Rx,0,8,00,00,00,04,FF,FA,00,00,
8870377,000000A1,false,Rx,0,8,A5,4B,F3,01,00,00,00,00,
8870844,000000A2,false,Rx,0,8,00,00,00,00,00,00,00,00,
8870963,00000495,false,Rx,0,8,49,00,00,00,00,00,00,00,
8871249,00000563,false,Rx,1,8,65,02,00,00,00,00,FF,FF,
8871433,000000A3,false,Rx,0,8,00,40,01,00,00,00,00,00,
8871552,0000011C,false,Rx,0,8,00,05,20,00,22,00,01,01,
8871654,00000226,false,Rx,0,8,54,74,13,FF,DF,20,09,42,
8871816,00000227,false,Rx,0,8,02,AC,44,09,00,F2,2F,03,
8871908,00000316,false,Rx,0,8,2F,51,09,F0,0D,80,0A,00,
8872055,00000317,false,Rx,0,8,00,00,05,00,00,00,00,00,
8872620,0000010B,false,Rx,0,8,A3,AB,94,00,00,00,00,05,
8873005,000003A1,false,Rx,0,8,26,FB,29,00,FF,FF,FF,FF,
8873440,0000010C,false,Rx,0,8,FF,F9,E7,1F,3A,38,39,39,
8874009,000002FF,false,Rx,0,8,E2,01,00,F1,3F,00,00,00,
8874245,0000010D,false,Rx,0,8,ED,02,00,00,00,00,01,35,
8874368,000003A2,false,Rx,0,8,00,00,00,00,00,00,00,00,
8874487,0000010E,false,Rx,0,8,00,00,0A,00,00,C0,AB,57,
8874700,000003CB,false,Rx,0,8,36,14,00,F4,00,00,00,00,
8874816,00000472,false,Rx,0,8,5C,EC,00,40,08,41,00,45,
8875025,000003CC,false,Rx,0,8,36,31,34,30,33,34,31,00,
8875133,00000473,false,Rx,0,8,5F,24,00,25,00,00,00,78,
8875383,00000474,false,Rx,0,8,31,C0,00,00,00,00,00,0E,
8876418,000001A1,false,Rx,0,8,6E,87,BD,FE,F7,7F,64,00,
8877084,000002BF,false,Rx,0,8,FF,FF,FF,00,00,00,00,00,
8877413,000001A2,false,Rx,0,8,00,00,00,00,00,08,00,00,
8877749,0000047F,false,Rx,0,8,FF,FF,FF,FF,FF,FF,FF,FF,
8878057,000001A3,false,Rx,0,8,FF,F3,3F,00,00,00,00,00,
8878234,00000653,false,Rx,0,8,0A,19,03,01,02,2A,00,00,
8878329,000001A4,false,Rx,0,8,FE,07,00,00,00,00,00,00,
8878433,00000419,false,Rx,0,8,B5,70,6C,D5,85,89,76,00,
8881806,00000121,false,Rx,0,8,93,98,94,00,00,00,00,05,
8881953,00000122,false,Rx,0,8,FF,D9,67,1F,3A,39,3A,3A,
8882049,00000123,false,Rx,0,8,ED,02,00,00,00,00,01,35,
8882168,00000124,false,Rx,0,8,00,00,0A,00,00,00,20,40,
8887574,000000FF,false,Rx,0,8,CB,10,00,00,00,00,02,00,
8887755,0000019B,false,Rx,0,8,2B,AB,A3,00,00,E4,00,00,
8888164,0000019C,false,Rx,0,8,40,20,00,00,00,00,0B,09,
8888613,00000394,false,Rx,0,8,2A,22,1A,49,00,00,00,00,
8889013,0000019D,false,Rx,0,8,00,10,00,01,00,00,00,00,
8889294,000003C3,false,Rx,0,8,45,10,31,30,36,00,00,00,
8889748,0000019E,false,Rx,0,8,15,00,00,00,00,32,00,00,
8890114,000003E0,false,Rx,0,8,09,00,01,00,54,03,00,00,
8890285,000001AB,false,Rx,0,8,A5,4A,63,40,70,40,00,00,
8890368,000001AC,false,Rx,0,8,00,28,00,00,00,00,00,00,
8890467,000003E5,false,Rx,0,8,58,A0,01,00,00,00,00,00,
8890576,000003E6,false,Rx,0,8,18,50,00,00,00,00,00,00,
8891050,0000041A,false,Rx,0,8,92,70,12,00,50,40,00,00,
8891275,000001F1,false,Rx,0,8,33,11,31,01,00,00,28,00,
8891519,0000041B,false,Rx,0,8,D1,50,00,00,00,00,00,00,
8891954,000001F2,false,Rx,0,8,00,00,00,00,00,00,00,00,
8892128,0000041C,false,Rx,0,8,8C,A0,E8,00,00,00,00,00,
8892311,00000422,false,Rx,0,8,FA,20,01,00,00,00,04,00,
8892748,00000432,false,Rx,0,8,03,20,02,00,00,00,00,00,
8893198,00000435,false,Rx,0,8,49,E0,00,40,00,00,00,00,
8893490,00000442,false,Rx,0,8,CE,20,11,81,00,00,00,00,
8893984,00000444,false,Rx,0,8,74,A0,20,50,55,50,00,00,
8894185,00000445,false,Rx,0,8,DE,50,00,00,00,00,00,18,
8894895,00000464,false,Rx,0,8,03,10,F0,FF,38,7F,05,00,
8896273,0000033B,false,Rx,0,8,11,73,C3,00,00,00,00,00,
8896475,0000033C,false,Rx,0,8,00,00,00,00,F0,00,00,00,
8896775,0000033D,false,Rx,0,8,00,00,00,00,00,00,00,00,
8897097,0000033E,false,Rx,0,8,00,00,00,00,00,00,00,00,
8897605,00000356,false,Rx,0,8,76,C6,61,00,00,00,00,00,
8897863,00000357,false,Rx,0,8,00,00,00,00,00,4B,4D,48,
8898293,00000358,false,Rx,0,8,35,41,45,4D,52,37,33,4F,
8898399,00000359,false,Rx,0,8,51,4F,34,52,4A,35,33,00,
8906599,000000C5,false,Rx,1,8,00,00,00,00,00,00,00,00,
8906891,00000244,false,Rx,1,8,FF,FF,FF,FF,FF,FF,FF,FF,
8907183,000004B4,false,Rx,1,8,00,00,00,00,00,00,00,00,
8907547,000004B5,false,Rx,1,8,08,00,F0,07,00,00,00,00,
8907932,000004B7,false,Rx,1,8,08,00,F0,07,00,00,00,00,
8908068,000004CA,false,Rx,1,8,00,00,00,00,00,00,00,00,
8908209,000004CC,false,Rx,1,8,08,00,00,06,00,00,03,00,
8908323,000004CE,false,Rx,1,8,14,01,FF,FF,FF,FF,FF,FF,
8908617,000004D7,false,Rx,1,8,23,01,00,00,00,00,00,00,
8908865,000004D8,false,Rx,1,8,41,10,F0,F0,40,F2,1E,CC,
8909108,000004DD,false,Rx,1,8,00,00,FE,00,04,00,00,00,
8909406,00000036,false,Rx,0,8,6D,DD,A9,51,00,00,25,01,
8909665,000004DF,false,Rx,1,8,FF,03,0C,3F,00,00,00,00,
8909877,000004E7,false,Rx,1,8,00,30,00,00,00,00,69,00,
8910237,00000037,false,Rx,0,8,00,00,00,10,00,40,00,00,
8910399,000004E8,false,Rx,1,8,FF,FF,FF,05,FF,FF,FF,00,
8910637,00000038,false,Rx,0,8,04,00,00,00,F0,39,96,D4,
8910850,000004E9,false,Rx,1,8,12,00,00,34,00,00,50,00,
8910964,000004EA,false,Rx,1,8,67,00,00,89,00,00,00,00,
8911069,00000039,false,Rx,0,8,00,00,00,00,00,00,00,00,
8911240,00000448,false,Rx,0,8,7F,00,00,00,00,00,00,00,
8911354,000004EB,false,Rx,1,8,08,A8,2C,13,80,00,00,00,
8912055,000004EC,false,Rx,1,8,00,00,00,00,00,00,00,00,
8912845,00000475,false,Rx,0,8,12,00,00,00,00,00,00,00,
8913449,000004ED,false,Rx,1,8,00,00,00,00,00,FF,FF,1F,
8913885,000003B6,false,Rx,0,8,30,AC,60,00,00,00,00,3A,
8914275,00000496,false,Rx,0,8,12,00,00,00,00,00,00,00,
8914409,000004EE,false,Rx,1,8,FF,FF,00,00,00,00,00,00,
8914635,000003B7,false,Rx,0,8,3A,00,00,00,00,00,00,00,
8914820,000004EF,false,Rx,1,8,60,00,60,00,29,14,00,00,
8914929,0000036F,false,Rx,0,8,5F,81,01,00,00,00,00,00,
8915041,000004F0,false,Rx,1,8,4A,15,2C,12,64,1A,03,02,
8915166,000003B8,false,Rx,0,8,E8,02,00,00,00,00,69,0E,
8915283,000004F1,false,Rx,1,8,00,C0,00,00,00,00,00,00,
8915398,0000037F,false,Rx,0,8,8B,D0,52,24,41,02,00,00,
8915501,000003B9,false,Rx,0,8,00,00,00,00,00,00,00,00,
8915608,000004F2,false,Rx,1,8,02,FF,DD,FF,03,01,00,00,
8915779,000004F3,false,Rx,1,8,00,00,00,00,F0,00,00,00,
8915904,000004F9,false,Rx,1,8,E0,FF,FF,FF,FF,FF,FF,FF,
8916115,0000063D,false,Rx,1,8,00,80,00,00,00,00,00,00,
8916510,0000063E,false,Rx,1,8,FF,FF,FF,FF,FF,FF,FF,FF,
8917105,0000063F,false,Rx,1,8,00,10,00,C4,FF,00,00,00,
8917761,0000011B,false,Rx,0,8,B0,8D,7F,05,80,08,A8,02,
8918156,00000640,false,Rx,1,8,FF,FF,FF,00,FF,FF,FF,00,
8918387,00000061,false,Rx,0,8,67,AF,F8,00,00,00,00,00,
8918543,0000012B,false,Rx,0,8,F7,77,7F,06,00,00,08,00,
8918951,00000641,false,Rx,1,8,FF,FF,FF,FF,0F,FF,FF,FF,
8919402,00000062,false,Rx,0,8,02,02,00,02,40,FF,00,FF,
8919576,0000012C,false,Rx,0,8,00,00,01,00,00,64,00,00,
8919951,00000646,false,Rx,1,8,00,00,00,80,01,00,00,00,
8920350,00000063,false,Rx,0,8,00,00,05,00,00,08,FD,00,
8920482,00000064,false,Rx,0,8,00,00,00,04,FF,FA,00,00,
8920890,00000419,false,Rx,0,8,B5,70,6C,D5,85,89,76,00,
8921227,000000A1,false,Rx,0,8,99,BA,F8,01,00,00,00,00,
8921653,000000A2,false,Rx,0,8,00,00,00,00,00,00,00,00,
8921802,00000401,false,Rx,0,8,79,00,10,00,00,00,00,00,
8922178,000000A3,false,Rx,0,8,00,40,01,00,00,00,00,00,
8922303,0000011C,false,Rx,0,8,00,05,20,00,22,00,01,01,
8922442,0000010B,false,Rx,0,8,AE,6D,99,00,00,00,00,05,
8922549,0000010C,false,Rx,0,8,FF,F9,E7,1F,3A,38,39,39,
8923182,0000010D,false,Rx,0,8,ED,02,00,00,00,00,01,35,
8923804,0000010E,false,Rx,0,8,00,00,0A,00,00,C0,AB,57,
8931375,00000121,false,Rx,0,8,9E,5E,99,00,00,00,00,05,
8931521,00000122,false,Rx,0,8,FF,D9,67,1F,3A,39,3A,3A,
8931717,00000123,false,Rx,0,8,ED,02,00,00,00,00,01,35,
8931921,00000124,false,Rx,0,8,00,00,0A,00,00,00,20,40,
8933229,00000405,false,Rx,0,8,0C,50,00,00,00,01,00,00,
8933379,00000410,false,Rx,0,8,97,10,4A,3C,5F,6A,FF,FF,
8933670,00000411,false,Rx,0,8,CF,51,50,50,00,00,44,04,
8934197,00000412,false,Rx,0,8,B3,20,00,00,00,00,00,00,
8934528,00000413,false,Rx,0,8,ED,80,00,41,00,00,00,00,
8934642,00000414,false,Rx,0,8,26,20,00,00,28,00,00,00,
8935333,00000416,false,Rx,0,8,55,00,00,00,00,00,00,00,
8935677,00000417,false,Rx,0,8,5F,20,00,00,00,00,00,00,
8935804,00000418,false,Rx,0,8,76,50,00,00,12,0C,00,00,
8938008,0000019B,false,Rx,0,8,93,AA,A8,00,00,E4,00,00,
8938151,0000019C,false,Rx,0,8,40,20,00,00,00,00,0B,09,
8938414,0000019D,false,Rx,0,8,00,10,00,01,00,00,00,00,
8938604,0000019E,false,Rx,0,8,15,00,00,00,00,32,00,00,
8941758,0000030B,false,Rx,0,8,A7,37,C4,00,04,00,00,00,
8941895,00000382,false,Rx,0,8,22,3D,00,00,00,01,08,00,
8942161,0000030C,false,Rx,0,8,00,00,0C,00,2C,00,A0,0F,
8942568,0000030D,false,Rx,0,8,00,00,00,00,38,00,00,00,
8942667,0000030E,false,Rx,0,8,00,00,28,05,21,00,00,02,
8944674,00000251,false,Rx,0,8,11,92,C2,00,00,00,00,00,
8945119,00000252,false,Rx,0,8,00,00,00,00,03,00,00,00,
8945228,00000253,false,Rx,0,8,00,00,00,42,42,00,80,38,
8945592,00000091,false,Rx,0,8,A5,50,C2,00,00,00,00,00,
8945863,000001E6,false,Rx,0,8,EC,9A,AE,02,00,00,00,00,
8946083,00000092,false,Rx,0,8,00,00,00,00,00,00,00,00,
8946318,000001BB,false,Rx,0,8,A3,2F,AE,02,00,00,00,0A,
8946607,00000093,false,Rx,0,8,00,00,00,00,00,00,00,00,
8946853,000001BC,false,Rx,0,8,32,00,00,00,02,00,00,00,
8947090,00000094,false,Rx,0,8,00,00,00,00,00,00,00,00,
8947309,000001BD,false,Rx,0,8,00,00,00,00,00,00,00,00,
8947750,000001E7,false,Rx,0,8,00,00,22,03,20,01,00,00,
8950094,00000146,false,Rx,0,8,31,B4,CA,10,04,01,00,00,
8950604,00000147,false,Rx,0,8,00,04,7D,00,40,00,00,00,
8951035,00000148,false,Rx,0,8,00,00,00,00,00,70,50,05,
8951178,00000149,false,Rx,0,8,00,00,00,00,00,00,00,00,
8953920,000001B1,false,Rx,0,8,1E,61,CA,00,72,00,00,00,
8954082,000001B2,false,Rx,0,8,23,00,04,0E,EB,00,E3,1F,
8954457,000001B3,false,Rx,0,8,EB,1B,00,00,73,76,7A,75,
8954897,000001B4,false,Rx,0,8,75,77,17,00,00,40,01,00,
8958225,00000419,false,Rx,0,8,B5,70,6C,D5,85,89,76,00,
8959243,00000036,false,Rx,0,8,9E,43,AE,51,00,00,25,01,
8959415,00000037,false,Rx,0,8,00,00,00,10,00,40,00,00,
8959705,00000038,false,Rx,0,8,04,00,00,00,F0,39,96,D4,
8960085,00000039,false,Rx,0,8,00,00,00,00,00,00,00,00,
8960596,00000380,false,Rx,0,8,AD,D7,FF,00,00,00,00,01,
8963835,00000383,false,Rx,0,8,C1,AA,00,00,02,00,00,00,
8963967,000003B0,false,Rx,0,8,72,37,FF,C7,00,00,03,C0,
8965686,000003B1,false,Rx,0,8,9B,3C,FF,40,00,00,20,00,
8965999,00000161,false,Rx,0,8,1E,13,C2,03,00,00,00,02,
8966224,0000011B,false,Rx,0,8,3F,95,84,05,80,08,A8,02,
8966428,00000162,false,Rx,0,8,FF,FC,01,00,00,00,00,00,
8966620,00000061,false,Rx,0,8,18,83,FD,00,00,00,00,00,
8966887,0000012B,false,Rx,0,8,78,6F,84,06,00,00,08,00,
8967144,00000062,false,Rx,0,8,02,02,00,02,40,FF,00,FF,
8967400,0000012C,false,Rx,0,8,00,00,01,00,00,64,00,00,
8967666,00000063,false,Rx,0,8,00,00,05,00,00,08,FD,00,
8967819,000001E1,false,Rx,0,8,EA,A4,B4,02,00,00,00,00,
8968147,00000064,false,Rx,0,8,00,00,00,04,FF,FA,00,00,
8968788,000001E2,false,Rx,0,8,00,00,00,00,00,00,00,00,
8969436,000000A1,false,Rx,0,8,96,51,FD,01,00,00,00,00,
8969883,00000565,false,Rx,0,8,66,02,00,00,00,00,FF,FF,
8970406,000000A2,false,Rx,0,8,00,00,00,00,00,00,00,00,
8970545,000000A3,false,Rx,0,8,00,40,01,00,00,00,00,00,
8970749,0000011C,false,Rx,0,8,00,05,20,00,22,00,01,01,
8970949,000002AB,false,Rx,0,8,A5,CF,C5,0C,0C,00,00,00,
8971554,000002AC,false,Rx,0,8,00,FF,FF,00,00,40,00,50,
8972215,000002AD,false,Rx,0,8,00,01,00,40,FF,FF,FF,0F,
8972603,000002AE,false,Rx,0,8,01,00,FF,3F,01,01,00,00,
8972967,000003B2,false,Rx,0,8,36,15,FF,02,29,2F,34,00,
8973323,000002B6,false,Rx,0,8,88,B8,C5,01,00,00,00,40,
8973728,000002B7,false,Rx,0,8,67,01,A6,00,00,04,00,00,
8974136,000002B8,false,Rx,0,8,DA,D1,0E,00,00,00,00,00,
8974286,000002B9,false,Rx,0,8,0A,00,00,00,00,00,00,00,
8974658,0000010B,false,Rx,0,8,6C,03,9E,00,00,00,00,05,
8975027,000002C1,false,Rx,0,8,73,91,63,21,00,41,00,A5,
8975611,0000010C,false,Rx,0,8,FF,F9,E7,1F,3A,38,39,39,
8976035,000002C2,false,Rx,0,8,2D,00,00,00,00,00,00,00,
8976405,0000010D,false,Rx,0,8,EC,02,00,00,00,00,01,35,
8976601,000002C3,false,Rx,0,8,00,00,00,00,00,00,00,00,
8976870,0000010E,false,Rx,0,8,00,00,0A,00,00,C0,AB,57,
8977525,000002C4,false,Rx,0,8,00,00,00,00,00,00,00,00,
8977903,000002E1,false,Rx,0,8,86,EA,C5,00,00,00,00,40,
8978260,000002E2,false,Rx,0,8,FD,00,00,00,00,14,00,04,
8978630,000002E3,false,Rx,0,8,00,00,00,00,00,00,72,01,
8979043,000002E4,false,Rx,0,8,02,00,00,00,00,00,00,00,
8979447,000001A1,false,Rx,0,8,F6,8D,C2,FE,F7,7F,64,00,
8979815,000001A2,false,Rx,0,8,00,00,00,00,00,08,00,00,
8980182,000001A3,false,Rx,0,8,FF,F3,3F,00,00,00,00,00,
8980595,000001A4,false,Rx,0,8,FE,07,00,00,00,00,00,00,
8980909,00000427,false,Rx,0,8,1D,86,FF,00,80,0A,00,00,
8981090,0000042A,false,Rx,0,8,F4,DE,FF,01,00,10,00,00,
8981770,00000121,false,Rx,0,8,6D,C0,9E,00,00,00,00,05,
8982100,00000122,false,Rx,0,8,FF,D9,67,1F,3A,39,3A,3A,
8982444,00000123,false,Rx,0,8,ED,02,00,00,00,00,01,35,
8982874,00000124,false,Rx,0,8,00,00,0A,00,00,00,20,40,
8983298,00000384,false,Rx,0,8,9C,14,01,00,00,FF,00,21,
8986825,000001FB,false,Rx,0,8,A4,9C,5A,00,00,00,00,00,
8987277,000001FC,false,Rx,0,8,00,00,00,00,00,00,00,00,
8987410,000001FD,false,Rx,0,8,00,1A,03,00,00,00,00,00,
8987804,000001FE,false,Rx,0,8,00,00,00,00,00,00,00,00,
8988130,000004F0,false,Rx,1,8,4A,15,2C,13,64,1A,03,02,
8988467,0000019B,false,Rx,0,8,EC,86,AD,00,00,E4,00,00,
8988892,0000019C,false,Rx,0,8,40,20,00,00,00,00,0B,09,
8989540,0000019D,false,Rx,0,8,00,10,00,01,00,00,00,00,
8989712,0000019E,false,Rx,0,8,15,00,00,00,00,32,00,00,
8989885,000001AB,false,Rx,0,8,6D,B3,68,40,70,40,00,00,
8990115,000001AC,false,Rx,0,8,00,28,00,00,00,00,00,00,
8997613,00000487,false,Rx,1,8,00,00,00,00,00,00,00,00,
8997754,00000642,false,Rx,1,8,FF,FF,FF,FF,FF,FF,00,00,
8998071,00000645,false,Rx,1,8,2B,36,06,F9,EC,32,56,00,
9009348,00000036,false,Rx,0,8,56,41,B3,51,00,00,25,01,
9009481,00000037,false,Rx,0,8,00,00,00,10,00,40,00,00,
9009915,00000038,false,Rx,0,8,04,00,00,00,F0,39,96,D4,
9010239,00000039,false,Rx,0,8,00,00,00,00,00,00,00,00,
9011913,000002E6,false,Rx,0,8,93,74,C2,01,00,00,00,15,
9012329,00000256,false,Rx,0,8,EE,C1,C2,15,00,00,A0,00,
9012662,000002E7,false,Rx,0,8,0A,00,00,00,00,00,00,00,
9013189,00000257,false,Rx,0,8,00,95,35,11,79,07,00,95,
9013613,000002E8,false,Rx,0,8,00,00,00,00,00,00,00,00,
9013791,00000258,false,Rx,0,8,02,11,1D,00,10,15,00,14,
9014170,000002E9,false,Rx,0,8,00,00,00,00,00,00,00,00,
9014553,00000259,false,Rx,0,8,35,05,89,3C,50,02,00,00,
9014819,0000036F,false,Rx,0,8,E6,91,01,00,00,00,00,00,
9014987,0000037F,false,Rx,0,8,5D,E0,52,24,41,02,00,00,
9016853,0000011B,false,Rx,0,8,4C,AC,89,05,80,08,A8,02,
9017006,00000061,false,Rx,0,8,6E,CF,02,00,00,00,00,00,
9017388,0000012B,false,Rx,0,8,0B,56,89,06,00,00,08,00,
9017663,00000062,false,Rx,0,8,02,02,00,02,40,FF,00,FF,
9017821,0000012C,false,Rx,0,8,00,00,01,00,00,64,00,00,
9018167,00000063,false,Rx,0,8,00,00,05,00,00,08,FD,00,
9018809,00000064,false,Rx,0,8,00,00,00,04,FF,FA,00,00,
9019164,000000A1,false,Rx,0,8,E4,8F,02,01,00,00,00,00,
9019483,000000A2,false,Rx,0,8,00,00,00,00,00,00,00,00,
9019610,000000A3,false,Rx,0,8,00,40,01,00,00,00,00,00,
9019969,0000011C,false,Rx,0,8,00,05,20,00,22,00,01,01,
9022581,0000010B,false,Rx,0,8,3E,68,A3,00,00,00,00,05,
9022744,0000010C,false,Rx,0,8,FF,F9,E7,1F,3A,38,39,39,
9023161,0000010D,false,Rx,0,8,ED,02,00,00,00,00,01,35,
9023507,0000010E,false,Rx,0,8,00,00,0A,00,00,C0,AB,57,
9027782,000004F0,false,Rx,1,8,4A,15,2C,13,64,1A,03,02,
9031354,00000121,false,Rx,0,8,0E,5B,A3,00,00,00,00,05,
9031505,00000122,false,Rx,0,8,FF,D9,67,1F,3A,39,3A,3A,
9031872,00000123,false,Rx,0,8,ED,02,00,00,00,00,01,35,
9032201,00000124,false,Rx,0,8,00,00,0A,00,00,00,20,40,
9037621,000004A3,false,Rx,1,8,80,00,48,0B,3E,00,00,00,
9037856,000004A4,false,Rx,1,8,FF,FF,FF,00,00,00,00,00,
9038097,0000019B,false,Rx,0,8,A8,36,B2,00,00,E4,00,00,
9038574,0000019C,false,Rx,0,8,40,20,00,00,00,00,0B,09,
9038714,00000419,false,Rx,0,8,52,80,6C,D5,81,89,76,00,
9039008,0000019D,false,Rx,0,8,00,10,00,01,00,00,00,00,
9039284,0000019E,false,Rx,0,8,15,00,00,00,00,32,00,00,
9041277,000001F1,false,Rx,0,8,C5,39,34,01,00,00,28,00,
9041477,000001F2,false,Rx,0,8,00,00,00,00,00,00,00,00,
9045316,00000396,false,Rx,0,8,BA,8B,61,0F,08,02,00,02,
9045519,00000397,false,Rx,0,8,0C,00,00,00,00,00,00,00,
9045749,00000091,false,Rx,0,8,E3,09,C3,00,00,00,00,00,
9046012,00000398,false,Rx,0,8,00,00,00,00,00,00,00,00,
9046274,00000092,false,Rx,0,8,00,00,00,00,00,00,00,00,
9046530,00000093,false,Rx,0,8,00,00,00,00,00,00,00,00,
9046809,00000094,false,Rx,0,8,00,00,00,00,00,00,00,00,
9049907,00000146,false,Rx,0,8,4E,98,CF,10,04,01,00,00,
9050090,00000147,false,Rx,0,8,00,04,7D,00,40,00,00,00,
9050395,00000148,false,Rx,0,8,00,00,00,00,00,70,50,05,
9050830,00000149,false,Rx,0,8,00,00,00,00,00,00,00,00,
9052653,000003AA,false,Rx,0,8,FF,00,D0,00,54,00,00,00,
9053656,000002D6,false,Rx,0,8,A8,1F,61,00,00,00,00,00,
9053802,000001B1,false,Rx,0,8,61,4D,CF,00,72,00,00,00,
9054294,000002D7,false,Rx,0,8,00,00,00,00,03,00,00,00,
9054653,000001B2,false,Rx,0,8,23,00,04,0E,EB,00,E3,1F,
9054973,000002D8,false,Rx,0,8,00,00,00,00,00,00,38,38,
9055126,000001B3,false,Rx,0,8,EB,1B,00,00,73,76,7A,75,
9055788,000002D9,false,Rx,0,8,00,00,00,00,00,00,00,00,
9056177,000001B4,false,Rx,0,8,75,77,17,00,00,40,01,00,
9056539,000002EB,false,Rx,0,8,94,AB,61,07,08,01,00,02,
9056741,000002EC,false,Rx,0,8,00,00,00,00,00,00,00,00,
9056844,000002ED,false,Rx,0,8,00,00,00,00,00,00,00,00,
9056948,000002EE,false,Rx,0,8,00,00,00,00,00,00,00,00,
9057989,00000151,false,Rx,0,8,E2,DE,C5,B4,B4,00,28,10,
9058425,000001F6,false,Rx,0,8,A2,4B,C5,00,00,00,00,0E,
9058786,00000152,false,Rx,0,8,0F,0F,0F,00,16,00,00,00,
9059191,000001F7,false,Rx,0,8,0E,00,84,03,00,00,00,00,
9059600,00000153,false,Rx,0,8,00,00,00,00,00,00,00,00,
9060008,000001F8,false,Rx,0,8,00,AE,01,90,01,00,00,00,
9060381,00000154,false,Rx,0,8,00,00,00,00,00,00,00,00,
9060729,000001F9,false,Rx,0,8,64,00,B4,B4,14,00,64,00,
9060872,00000036,false,Rx,0,8,EE,40,B8,51,00,00,25,01,
9061294,00000236,false,Rx,0,8,CF,63,C5,00,34,6C,34,6C,
9061903,00000037,false,Rx,0,8,00,00,00,10,00,40,00,00,
9062293,00000237,false,Rx,0,8,00,25,8A,00,00,3A,1D,00,
9062616,00000038,false,Rx,0,8,04,00,00,00,F0,39,96,D4,
9062770,00000238,false,Rx,0,8,00,00,F7,00,00,00,00,00,
9063152,00000039,false,Rx,0,8,00,00,00,00,00,00,00,00,
9063292,00000239,false,Rx,0,8,00,00,00,00,01,00,00,00,
9063407,00000111,false,Rx,0,8,7E,4A,CE,01,00,00,00,00,
9063727,0000025B,false,Rx,0,8,0A,27,C5,00,40,20,00,00,
9064135,00000112,false,Rx,0,8,00,00,00,00,00,00,00,00,
9064776,0000025C,false,Rx,0,8,00,00,0E,00,C5,60,0F,00,
9065179,00000113,false,Rx,0,8,00,00,00,00,00,00,00,00,
9065537,0000025D,false,Rx,0,8,00,B4,00,00,00,40,C0,70,
9066105,00000114,false,Rx,0,8,00,00,00,00,00,00,00,00,
9066524,0000025E,false,Rx,0,8,41,02,09,06,00,00,00,00,
9066898,000002FB,false,Rx,0,8,EB,5C,C5,04,F7,0F,C2,C2,
9067267,00000566,false,Rx,0,8,16,02,00,00,00,00,FF,FF,
9067830,000002FC,false,Rx,0,8,02,00,0F,10,00,00,90,8B,
9068316,000002FD,false,Rx,0,8,00,00,00,00,00,1C,0B,EA,
9068699,000002FE,false,Rx,0,8,00,00,72,01,00,28,00,00,
9069091,00000326,false,Rx,0,8,AD,E9,C5,00,00,00,00,00,
9069468,00000327,false,Rx,0,8,00,00,00,00,05,00,00,00,
9069679,00000328,false,Rx,0,8,84,03,64,00,00,AE,01,00,
9069791,00000329,false,Rx,0,8,B4,90,01,00,00,00,00,00,
9069915,00000331,false,Rx,0,8,FC,E7,C5,F1,C8,A0,2C,97,
9070240,00000332,false,Rx,0,8,48,03,68,01,00,00,00,00,
9070519,00000161,false,Rx,0,8,E8,3B,C7,03,00,00,00,02,
9071307,0000011B,false,Rx,0,8,D3,C4,8E,05,80,08,A8,02,
9071915,0000012B,false,Rx,0,8,94,3E,8E,06,00,00,08,00,
9072307,00000061,false,Rx,0,8,11,E3,07,00,00,00,00,00,
9072534,0000012C,false,Rx,0,8,00,00,01,00,00,64,00,00,
9072732,00000062,false,Rx,0,8,02,02,00,02,40,FF,00,FF,
9073086,00000162,false,Rx,0,8,FF,FC,01,00,00,00,00,00,
9073707,00000063,false,Rx,0,8,00,00,05,00,00,08,FD,00,
9074170,000004F0,false,Rx,1,8,4A,15,2C,13,64,1A,03,02,
9074537,00000333,false,Rx,0,8,00,00,00,1C,0C,40,20,B4,
9074689,00000064,false,Rx,0,8,00,00,00,04,FF,FA,00,00,
9075097,00000334,false,Rx,0,8,B4,00,00,00,9A,7F,9A,7F,
9075517,000000A1,false,Rx,0,8,EB,64,07,01,00,00,00,00,
9075872,00000495,false,Rx,0,8,49,00,00,00,00,00,00,00,
9075999,000000A2,false,Rx,0,8,00,00,00,00,00,00,00,00,
9076299,00000226,false,Rx,0,8,EF,B4,15,FF,DF,20,09,42,
9076657,000000A3,false,Rx,0,8,00,40,01,00,00,00,00,00,
9077073,00000227,false,Rx,0,8,02,AC,44,09,00,F2,2F,03,
9077686,0000011C,false,Rx,0,8,00,05,20,00,22,00,01,01,
9078017,000002FF,false,Rx,0,8,E2,01,00,F1,3F,00,00,00,
9078371,00000316,false,Rx,0,8,62,B9,0A,F0,0D,80,0A,00,
9078813,00000317,false,Rx,0,8,00,00,05,00,00,00,00,00,
9079195,0000010B,false,Rx,0,8,86,69,A8,00,00,00,00,05,
9079569,000003A1,false,Rx,0,8,6B,13,2A,00,FF,FF,FF,FF,
9079691,0000010C,false,Rx,0,8,FF,F9,E7,1F,3A,38,39,39,
9080110,000003A2,false,Rx,0,8,00,00,00,00,00,00,00,00,
9080296,0000010D,false,Rx,0,8,ED,02,00,00,00,00,01,35,
9080412,00000472,false,Rx,0,8,5C,EC,00,40,08,41,00,45,
9080768,0000010E,false,Rx,0,8,00,00,0A,00,00,C0,AB,57,
9081418,00000473,false,Rx,0,8,5F,24,00,25,00,00,00,78,
9081801,00000474,false,Rx,0,8,31,C0,00,00,00,00,00,0E,
9082359,000001A1,false,Rx,0,8,89,A1,C7,FE,F7,7F,64,00,
9082765,000002BF,false,Rx,0,8,FF,FF,FF,00,00,00,00,00,
9082890,000001A2,false,Rx,0,8,00,00,00,00,00,08,00,00,
9083556,0000047F,false,Rx,0,8,FF,FF,FF,FF,FF,FF,FF,FF,
9083926,000001A3,false,Rx,0,8,FF,F3,3F,00,00,00,00,00,
9084230,00000653,false,Rx,0,8,0A,19,03,01,02,2A,00,00,
9084563,000001A4,false,Rx,0,8,FE,07,00,00,00,00,00,00,
9084682,00000419,false,Rx,0,8,52,80,6C,D5,81,89,76,00,
9084820,00000121,false,Rx,0,8,B6,5A,A8,00,00,00,00,05,
9085349,00000122,false,Rx,0,8,FF,D9,67,1F,3A,39,3A,3A,
9085787,00000123,false,Rx,0,8,ED,02,00,00,00,00,01,35,
9086348,00000124,false,Rx,0,8,00,00,0A,00,00,00,20,40,
9087477,000000FF,false,Rx,0,8,CB,10,00,00,00,00,02,00,
9088180,0000019B,false,Rx,0,8,D7,1A,B7,00,00,E4,00,00,
9088305,00000394,false,Rx,0,8,2A,22,1A,49,00,00,00,00,
9088659,0000019C,false,Rx,0,8,40,20,00,00,00,00,0B,09,
9089020,000003C3,false,Rx,0,8,45,10,31,30,36,00,00,00,
9089465,0000019D,false,Rx,0,8,00,10,00,01,00,00,00,00,
9089847,000001AB,false,Rx,0,8,9B,9B,6D,40,70,40,00,00,
9090276,0000019E,false,Rx,0,8,15,00,00,00,00,32,00,00,
9090639,000001AC,false,Rx,0,8,00,28,00,00,00,00,00,00,
9090791,000003E0,false,Rx,0,8,09,00,01,00,54,03,00,00,
9091212,000003E5,false,Rx,0,8,58,A0,01,00,00,00,00,00,
9091330,000003E6,false,Rx,0,8,18,50,00,00,00,00,00,00,
9091437,0000041A,false,Rx,0,8,92,70,12,00,50,40,00,00,
9091560,0000041B,false,Rx,0,8,D1,50,00,00,00,00,00,00,
9091906,0000041C,false,Rx,0,8,8C,A0,E8,00,00,00,00,00,
9092146,00000422,false,Rx,0,8,FA,20,01,00,00,00,04,00,
9092251,00000432,false,Rx,0,8,03,20,02,00,00,00,00,00,
9092849,00000435,false,Rx,0,8,49,E0,00,40,00,00,00,00,
9093471,00000442,false,Rx,0,8,CE,20,11,81,00,00,00,00,
9093786,00000444,false,Rx,0,8,74,A0,20,50,55,50,00,00,
9094154,00000445,false,Rx,0,8,DE,50,00,00,00,00,00,18,
9094559,00000464,false,Rx,0,8,03,10,F0,FF,38,7F,05,00,
9095989,000001E6,false,Rx,0,8,FC,C0,B1,02,00,00,00,00,
9096193,000001BB,false,Rx,0,8,C0,42,B1,02,00,00,00,0A,
9096301,000001BC,false,Rx,0,8,32,00,00,00,02,00,00,00,
9096385,0000033B,false,Rx,0,8,A4,B4,C5,00,00,00,00,00,
9096683,000001BD,false,Rx,0,8,00,00,00,00,00,00,00,00,
9096904,0000033C,false,Rx,0,8,00,00,00,00,F0,00,00,00,
9097160,000001E7,false,Rx,0,8,00,00,22,03,20,01,00,00,
9097794,0000033D,false,Rx,0,8,00,00,00,00,00,00,00,00,
9098202,00000356,false,Rx,0,8,BC,2D,62,00,00,00,00,00,
9098822,0000033E,false,Rx,0,8,00,00,00,00,00,00,00,00,
9099040,00000357,false,Rx,0,8,00,00,00,00,00,4B,4D,48,
9099282,00000358,false,Rx,0,8,35,41,45,4D,52,37,33,4F,
9099836,00000359,false,Rx,0,8,51,4F,34,52,4A,35,33,00,
9109383,00000036,false,Rx,0,8,91,6C,BD,51,00,00,25,01,
9109512,00000037,false,Rx,0,8,00,00,00,10,00,40,00,00,
9109649,000000C5,false,Rx,1,8,00,00,00,00,00,00,00,00,
9109739,00000038,false,Rx,0,8,04,00,00,00,F0,39,96,D4,
9109841,00000244,false,Rx,1,8,FF,FF,FF,FF,FF,FF,FF,FF,
9109939,00000039,false,Rx,0,8,00,00,00,00,00,00,00,00,
9110140,000003E4,false,Rx,1,8,FE,00,00,00,00,00,00,00,
9110940,0000041F,false,Rx,1,8,00,0C,00,00,00,00,00,00,
9111850,00000448,false,Rx,0,8,7F,00,00,00,00,00,00,00,
9112647,000004B4,false,Rx,1,8,00,00,00,00,00,00,00,00,
9113250,000004B5,false,Rx,1,8,08,00,F0,07,00,00,00,00,
9113635,00000475,false,Rx,0,8,12,00,00,00,00,00,00,00,
9113836,000004B7,false,Rx,1,8,08,00,F0,07,00,00,00,00,
9114039,00000496,false,Rx,0,8,12,00,00,00,00,00,00,00,
9114233,000003B6,false,Rx,0,8,47,05,61,00,00,00,00,3A,
9115141,000004CA,false,Rx,1,8,00,00,00,00,00,00,00,00,
9115704,000003B7,false,Rx,0,8,3A,00,00,00,00,00,00,00,
9115846,000004CC,false,Rx,1,8,08,00,00,06,00,00,03,00,
9115983,000003B8,false,Rx,0,8,E9,02,00,00,00,00,69,0E,
9116447,000004CE,false,Rx,1,8,14,01,FF,FF,FF,FF,FF,FF,
9116941,000004D7,false,Rx,1,8,23,01,00,00,00,00,00,00,
9117644,0000036F,false,Rx,0,8,30,A1,01,00,00,00,00,00,
9118420,000004D8,false,Rx,1,8,41,10,F0,F0,40,F2,1E,CC,
9119325,000003B9,false,Rx,0,8,00,00,00,00,00,00,00,00,
9119782,0000037F,false,Rx,0,8,4D,00,52,24,41,02,00,00,
9119921,000004DD,false,Rx,1,8,00,00,FE,00,04,00,00,00,
9120169,000004DF,false,Rx,1,8,FF,03,0C,3F,00,00,00,00,
9120327,000004E7,false,Rx,1,8,00,30,00,00,00,00,69,00,
9120454,000004E8,false,Rx,1,8,FF,FF,FF,05,FF,FF,FF,00,
9120579,000004E9,false,Rx,1,8,12,00,00,34,00,00,50,00,
9120738,000004EA,false,Rx,1,8,67,00,00,89,00,00,00,00,
9120877,000004EB,false,Rx,1,8,08,A8,2C,13,80,00,00,00,
9121131,0000011B,false,Rx,0,8,AA,DE,93,05,80,08,A8,02,
9121266,000004EC,false,Rx,1,8,00,00,00,00,00,00,00,00,
9121640,00000061,false,Rx,0,8,A9,E2,0C,00,00,00,00,00,
9121794,0000012B,false,Rx,0,8,ED,24,93,06,00,00,08,00,
9122189,000004ED,false,Rx,1,8,00,00,00,00,00,FF,FF,1F,
9122597,00000062,false,Rx,0,8,02,02,00,02,40,FF,00,FF,
9122784,000004EE,false,Rx,1,8,FF,FF,00,00,00,00,00,00,
9123205,0000012C,false,Rx,0,8,00,00,01,00,00,64,00,00,
9123350,000004EF,false,Rx,1,8,60,00,60,00,29,14,00,00,
9123729,00000063,false,Rx,0,8,00,00,05,00,00,08,FD,00,
9123895,0000063D,false,Rx,1,8,00,80,00,00,00,00,00,00,
9124246,000001E1,false,Rx,0,8,A7,4C,B7,02,00,00,00,00,
9124411,00000064,false,Rx,0,8,00,00,00,04,FF,FA,00,00,
9124831,0000063E,false,Rx,1,8,FF,FF,FF,FF,FF,FF,FF,FF,
9125253,000001E2,false,Rx,0,8,00,00,00,00,00,00,00,00,
9125432,0000063F,false,Rx,1,8,00,10,00,C4,FF,00,00,00,
9125824,000000A1,false,Rx,0,8,D7,95,0C,01,00,00,00,00,
9126000,00000640,false,Rx,1,8,FF,FF,FF,00,FF,FF,FF,00,
9126253,00000419,false,Rx,0,8,52,80,6C,D5,81,89,76,00,
9126385,00000641,false,Rx,1,8,FF,FF,FF,FF,0F,FF,FF,FF,
9126606,000000A2,false,Rx,0,8,00,00,00,00,00,00,00,00,
9127056,00000646,false,Rx,1,8,00,00,00,80,01,00,00,00,
9127499,000000A3,false,Rx,0,8,00,40,01,00,00,00,00,00,
9127666,00000401,false,Rx,0,8,79,00,10,00,00,00,00,00,
9127976,0000011C,false,Rx,0,8,00,05,20,00,22,00,01,01,
9128373,0000010B,false,Rx,0,8,F9,45,AD,00,00,00,00,05,
9128813,0000010C,false,Rx,0,8,FF,F9,E7,1F,3A,38,39,39,
9129176,0000010D,false,Rx,0,8,ED,02,00,00,00,00,01,35,
9129917,0000010E,false,Rx,0,8,00,00,0A,00,00,C0,AB,57,
9131421,00000121,false,Rx,0,8,C9,76,AD,00,00,00,00,05,
9131553,00000122,false,Rx,0,8,FF,D9,67,1F,3A,39,3A,3A,
9131887,00000123,false,Rx,0,8,ED,02,00,00,00,00,01,35,
9132246,00000124,false,Rx,0,8,00,00,0A,00,00,00,20,40,
9133331,00000405,false,Rx,0,8,0C,50,00,00,00,01,00,00,
9133481,00000410,false,Rx,0,8,97,10,4A,3C,5F,6A,FF,FF,
9133798,00000411,false,Rx,0,8,CF,51,50,50,00,00,44,04,
9134138,00000412,false,Rx,0,8,B3,20,00,00,00,00,00,00,
9134481,00000413,false,Rx,0,8,ED,80,00,41,00,00,00,00,
9134956,00000414,false,Rx,0,8,26,20,00,00,28,00,00,00,
9135356,00000416,false,Rx,0,8,55,00,00,00,00,00,00,00,
9135749,00000417,false,Rx,0,8,5F,20,00,00,00,00,00,00,
9136149,00000418,false,Rx,0,8,76,50,00,00,12,0C,00,00,
9138598,0000019B,false,Rx,0,8,6F,1B,BC,00,00,E4,00,00,
9139097,0000019C,false,Rx,0,8,40,20,00,00,00,00,0B,09,
9139221,0000019D,false,Rx,0,8,00,10,00,01,00,00,00,00,
9139585,0000019E,false,Rx,0,8,15,00,00,00,00,32,00,00,
9141889,0000030B,false,Rx,0,8,2B,85,C6,00,04,00,00,00,
9142038,00000382,false,Rx,0,8,22,3D,00,00,00,01,08,00,
9142234,0000030C,false,Rx,0,8,00,00,0C,00,2C,00,A0,0F,
9142436,0000030D,false,Rx,0,8,00,00,00,00,38,00,00,00,
9142662,0000030E,false,Rx,0,8,00,00,28,05,21,00,00,02,
9143427,00000419,false,Rx,0,8,52,80,6C,D5,81,89,76,00,
9144901,00000251,false,Rx,0,8,1B,20,C4,00,00,00,00,00,
9145025,00000252,false,Rx,0,8,00,00,00,00,03,00,00,00,
9145262,00000253,false,Rx,0,8,00,00,00,42,42,00,80,38,
9145628,00000091,false,Rx,0,8,10,97,C4,00,00,00,00,00,
9145833,00000092,false,Rx,0,8,00,00,00,00,00,00,00,00,
9146129,00000093,false,Rx,0,8,00,00,00,00,00,00,00,00,
9146374,00000094,false,Rx,0,8,00,00,00,00,00,00,00,00,
9149930,00000146,false,Rx,0,8,33,5D,D4,10,04,01,00,00,
9150103,00000147,false,Rx,0,8,00,04,7D,00,40,00,00,00,
9150383,00000148,false,Rx,0,8,00,00,00,00,00,70,50,05,
9150674,00000149,false,Rx,0,8,00,00,00,00,00,00,00,00,
9153646,000001B1,false,Rx,0,8,1C,88,D4,00,72,00,00,00,
9153794,000001B2,false,Rx,0,8,23,00,04,0E,EB,00,E3,1F,
9154071,000001B3,false,Rx,0,8,EB,1B,00,00,73,76,7A,75,
9154449,000001B4,false,Rx,0,8,75,77,17,00,00,40,01,00,
9159409,00000036,false,Rx,0,8,09,66,C2,51,00,00,25,01,
9159552,00000037,false,Rx,0,8,00,00,00,10,00,40,00,00,
9159950,00000038,false,Rx,0,8,04,00,00,00,F0,39,96,D4,
9160276,00000039,false,Rx,0,8,00,00,00,00,00,00,00,00,
9161209,00000380,false,Rx,0,8,AD,D7,FF,00,00,00,00,01,
9162938,00000383,false,Rx,0,8,C1,AA,00,00,02,00,00,00,
9163623,00000516,false,Rx,0,8,61,02,00,00,00,00,FF,FF,
9163753,000003B0,false,Rx,0,8,72,37,FF,C7,00,00,03,C0,
9165666,000003B1,false,Rx,0,8,9B,3C,FF,40,00,00,20,00,
9166154,00000161,false,Rx,0,8,20,C2,CC,03,00,00,00,02,
9166306,0000011B,false,Rx,0,8,62,27,98,05,80,08,A8,02,
9166663,00000162,false,Rx,0,8,FF,FC,01,00,00,00,00,00,
9167058,00000061,false,Rx,0,8,61,E0,11,00,00,00,00,00,
9167456,0000012B,false,Rx,0,8,25,DD,98,06,00,00,08,00,
9167863,00000062,false,Rx,0,8,02,02,00,02,40,FF,00,FF,
9168247,0000012C,false,Rx,0,8,00,00,01,00,00,64,00,00,
9168419,00000063,false,Rx,0,8,00,00,05,00,00,08,FD,00,
9168508,00000064,false,Rx,0,8,00,00,00,04,FF,FA,00,00,
9169011,000000A1,false,Rx,0,8,B2,96,11,01,00,00,00,00,
9169640,000000A2,false,Rx,0,8,00,00,00,00,00,00,00,00,
9170048,000000A3,false,Rx,0,8,00,40,01,00,00,00,00,00,
9170187,0000011C,false,Rx,0,8,00,05,20,00,22,00,01,01,
9170430,000002AB,false,Rx,0,8,29,7D,C7,0C,0C,00,00,00,
9170556,000002AC,false,Rx,0,8,00,FF,FF,00,00,40,00,50,
9170910,000002AD,false,Rx,0,8,00,01,00,40,FF,FF,FF,0F,
9171523,000002AE,false,Rx,0,8,01,00,FF,3F,01,01,00,00,
9172211,000002B6,false,Rx,0,8,04,0A,C7,01,00,00,00,40,
9172573,000003B2,false,Rx,0,8,36,15,FF,02,29,2F,34,00,
9172805,000002B7,false,Rx,0,8,67,01,A6,00,00,04,00,00,
9173260,000002B8,false,Rx,0,8,DA,D1,0E,00,00,00,00,00,
9173712,000002B9,false,Rx,0,8,0A,00,00,00,00,00,00,00,
9174136,0000010B,false,Rx,0,8,BD,F5,B2,00,00,00,00,05,
9174545,000002C1,false,Rx,0,8,80,0F,64,21,00,41,00,A5,
9174885,0000010C,false,Rx,0,8,FF,F9,E7,1F,3A,38,39,39,
9175267,000002C2,false,Rx,0,8,2D,00,00,00,00,00,00,00,
9175701,0000010D,false,Rx,0,8,ED,02,00,00,00,00,01,35,
9176089,000002C3,false,Rx,0,8,00,00,00,00,00,00,00,00,
9176330,0000010E,false,Rx,0,8,00,00,0A,00,00,C0,AB,57,
9176518,000002C4,false,Rx,0,8,00,00,00,00,00,00,00,00,
9176860,000002E1,false,Rx,0,8,0A,58,C7,00,00,00,00,40,
9177234,000002E2,false,Rx,0,8,FD,00,00,00,00,14,00,04,
9177832,000002E3,false,Rx,0,8,00,00,00,00,00,00,72,01,
9178206,000002E4,false,Rx,0,8,02,00,00,00,00,00,00,00,
9178338,000001A1,false,Rx,0,8,31,A0,CC,FE,F7,7F,64,00,
9178484,000001A2,false,Rx,0,8,00,00,00,00,00,08,00,00,
9178576,000001A3,false,Rx,0,8,FF,F3,3F,00,00,00,00,00,
9178672,000001A4,false,Rx,0,8,FE,07,00,00,00,00,00,00,
9178802,00000427,false,Rx,0,8,1D,86,FF,00,80,0A,00,00,
9180125,0000042A,false,Rx,0,8,F4,DE,FF,01,00,10,00,00,
9181689,00000121,false,Rx,0,8,8D,C6,B2,00,00,00,00,05,
9182161,00000122,false,Rx,0,8,FF,D9,67,1F,3A,39,3A,3A,
9182312,00000123,false,Rx,0,8,ED,02,00,00,00,00,01,35,
9182654,00000124,false,Rx,0,8,00,00,0A,00,00,00,20,40,
9182841,00000384,false,Rx,0,8,9C,14,01,00,00,FF,00,21,
9187456,000001FB,false,Rx,0,8,11,5B,5C,00,00,00,00,00,
9187594,000001FC,false,Rx,0,8,00,00,00,00,00,00,00,00,
9188069,0000019B,false,Rx,0,8,7B,A3,C1,00,00,E4,00,00,
9188444,000001FD,false,Rx,0,8,00,1A,03,00,00,00,00,00,
9188686,0000019C,false,Rx,0,8,40,20,00,00,00,00,0B,09,
9188809,000001AB,false,Rx,0,8,8B,C1,72,40,70,40,00,00,
9188922,0000019D,false,Rx,0,8,00,10,00,01,00,00,00,00,
9189149,000001AC,false,Rx,0,8,00,28,00,00,00,00,00,00,
9189276,0000019E,false,Rx,0,8,15,00,00,00,00,32,00,00,
9189681,000001FE,false,Rx,0,8,00,00,00,00,00,00,00,00,
9191599,000001F1,false,Rx,0,8,88,D1,37,01,00,00,28,00,
9191743,000001F2,false,Rx,0,8,00,00,00,00,00,00,00,00,
9200664,00000487,false,Rx,1,8,00,00,00,00,00,00,00,00,
9200844,00000642,false,Rx,1,8,FF,FF,FF,FF,FF,FF,00,00,
9209344,00000036,false,Rx,0,8,76,4A,C7,51,00,00,25,01,
9209485,00000037,false,Rx,0,8,00,00,00,10,00,40,00,00,
9209892,00000038,false,Rx,0,8,04,00,00,00,F0,39,96,D4,
9210229,00000039,false,Rx,0,8,00,00,00,00,00,00,00,00,
9211254,00000643,false,Rx,1,8,00,FC,FF,FF,FF,FF,03,00,
9212015,000002E6,false,Rx,0,8,26,B3,C4,01,00,00,00,15,
9212157,00000256,false,Rx,0,8,C3,EB,C4,15,00,00,D0,00,
9212540,000002E7,false,Rx,0,8,0A,00,00,00,00,00,00,00,
9212907,00000257,false,Rx,0,8,00,95,35,16,79,07,00,95,
9213073,000002E8,false,Rx,0,8,00,00,00,00,00,00,00,00,
9213731,00000258,false,Rx,0,8,02,0F,1D,00,10,15,00,14,
9214109,000002E9,false,Rx,0,8,00,00,00,00,00,00,00,00,
9214463,00000259,false,Rx,0,8,4C,05,8A,3C,50,02,00,00,
9214835,0000036F,false,Rx,0,8,89,B1,01,00,00,00,00,00,
9215286,0000037F,false,Rx,0,8,F4,10,52,24,41,02,00,00,
9216873,0000011B,false,Rx,0,8,94,0F,9D,05,80,08,A8,02,
9217030,00000061,false,Rx,0,8,92,7E,16,00,00,00,00,00,
9217407,0000012B,false,Rx,0,8,D3,F5,9D,06,00,00,08,00,
9217736,00000062,false,Rx,0,8,02,02,00,02,40,FF,00,FF,
9218191,0000012C,false,Rx,0,8,00,00,01,00,00,64,00,00,
9218523,00000063,false,Rx,0,8,00,00,05,00,00,08,FD,00,
9218915,00000064,false,Rx,0,8,00,00,00,04,FF,FA,00,00,
9219268,000000A1,false,Rx,0,8,BB,13,16,01,00,00,00,00,
9219418,000000A2,false,Rx,0,8,00,00,00,00,00,00,00,00,
9219817,000000A3,false,Rx,0,8,00,40,01,00,00,00,00,00,
9220393,0000011C,false,Rx,0,8,00,05,20,00,22,00,01,01,
9222532,0000010B,false,Rx,0,8,F3,29,B7,00,00,00,00,05,
9222669,0000010C,false,Rx,0,8,FF,F9,E7,1F,3A,38,39,39,
9223026,0000010D,false,Rx,0,8,EC,02,00,00,00,00,01,35,
9223334,0000010E,false,Rx,0,8,00,00,0A,00,00,C0,AB,57,
9231418,00000121,false,Rx,0,8,F2,EA,B7,00,00,00,00,05,
9231796,00000122,false,Rx,0,8,FF,D9,67,1F,3A,39,3A,3A,
9232187,00000123,false,Rx,0,8,ED,02,00,00,00,00,01,35,
9232335,00000124,false,Rx,0,8,00,00,0A,00,00,00,20,40,
9238021,0000019B,false,Rx,0,8,88,3D,C6,00,00,E4,00,00,
9238161,0000019C,false,Rx,0,8,40,20,00,00,00,00,0B,09,
9238536,00000419,false,Rx,0,8,F7,90,6C,D5,7D,89,76,00,
9238865,0000019D,false,Rx,0,8,00,10,00,01,00,00,00,00,
9239004,0000019E,false,Rx,0,8,15,00,00,00,00,32,00,00,
9240851,000004A3,false,Rx,1,8,80,00,48,0B,3E,00,00,00,
9240991,000004A4,false,Rx,1,8,FF,FF,FF,00,00,00,00,00,
9245518,00000396,false,Rx,0,8,BF,D2,62,0F,08,02,00,02,
9245656,00000397,false,Rx,0,8,0C,00,00,00,00,00,00,00,
9245901,00000091,false,Rx,0,8,56,CE,C5,00,00,00,00,00,
9246061,000001E6,false,Rx,0,8,0A,E8,B4,02,00,00,00,00,
9246308,00000092,false,Rx,0,8,00,00,00,00,00,00,00,00,
9246607,000001BB,false,Rx,0,8,CF,A9,B4,02,00,00,00,0A,
9246748,00000093,false,Rx,0,8,00,00,00,00,00,00,00,00,
9247053,000001BC,false,Rx,0,8,32,00,00,00,02,00,00,00,
9247281,00000094,false,Rx,0,8,00,00,00,00,00,00,00,00,
9247570,000001BD,false,Rx,0,8,00,00,00,00,00,00,00,00,
9247806,00000398,false,Rx,0,8,00,00,00,00,00,00,00,00,
9248003,000001E7,false,Rx,0,8,00,00,22,03,20,01,00,00,
9249913,00000146,false,Rx,0,8,3E,9B,D9,10,04,01,00,00,
9250079,00000147,false,Rx,0,8,00,04,7D,00,40,00,00,00,
9250360,00000148,false,Rx,0,8,00,00,00,00,00,70,50,05,
9250638,00000149,false,Rx,0,8,00,00,00,00,00,00,00,00,
9252642,000003AA,false,Rx,0,8,FF,00,D0,00,54,00,00,00,
9253543,000002D6,false,Rx,0,8,62,F4,62,00,00,00,00,00,
9253695,000001B1,false,Rx,0,8,11,4E,D9,00,72,00,00,00,
9253959,000002D7,false,Rx,0,8,00,00,00,00,03,00,00,00,
9254392,000001B2,false,Rx,0,8,23,00,04,0E,EB,00,E3,1F,
9254482,000002D8,false,Rx,0,8,00,00,00,00,00,00,38,38,
9254675,000001B3,false,Rx,0,8,EB,1B,00,00,73,76,7A,75,
9254931,000002D9,false,Rx,0,8,00,00,00,00,00,00,00,00,
9255180,000001B4,false,Rx,0,8,75,77,17,00,00,40,01,00,
9255427,000002EB,false,Rx,0,8,5E,40,62,07,08,01,00,02,
9255697,000002EC,false,Rx,0,8,00,00,00,00,00,00,00,00,
9255943,000002ED,false,Rx,0,8,00,00,00,00,00,00,00,00,
9256213,000002EE,false,Rx,0,8,00,00,00,00,00,00,00,00,
9257855,00000151,false,Rx,0,8,6E,6C,C7,B4,B4,00,28,10,
9258078,000001F6,false,Rx,0,8,2E,F9,C7,00,00,00,00,0E,
9258219,00000152,false,Rx,0,8,0F,0F,0F,00,16,00,00,00,
