Time Stamp,ID,Extended,Dir,Bus,LEN,D1,D2,D3,D4,D5,D6,D7,D8
5978045,00000419,false,Rx,0,8,FB,C0,94,CF,7D,65,84,00,
5988806,0000010B,false,Rx,0,8,13,BC,EA,00,00,00,00,01,
5988905,0000010C,false,Rx,0,8,FF,01,00,00,43,48,44,44,
5989202,0000010D,false,Rx,0,8,0D,00,00,00,00,00,01,35,
5989402,0000010E,false,Rx,0,8,00,00,0A,00,00,00,00,00,
5995033,00000121,false,Rx,0,8,B3,16,EB,00,00,00,00,01,
5995209,00000122,false,Rx,0,8,FF,01,00,00,43,44,43,43,
5995461,00000123,false,Rx,0,8,0D,00,00,00,00,00,01,35,
5995715,00000124,false,Rx,0,8,00,00,0A,00,00,00,00,00,
5996072,00000036,false,Rx,0,8,AF,3B,EB,01,10,00,20,05,
5996313,00000037,false,Rx,0,8,05,00,00,10,00,40,00,00,
5996603,00000038,false,Rx,0,8,01,00,00,00,60,39,06,00,
5996830,00000039,false,Rx,0,8,00,00,00,00,00,00,00,00,
6000007,000003AA,false,Rx,0,8,FF,00,D0,00,54,00,00,00,
6005935,00000487,false,Rx,1,8,00,00,00,00,00,00,00,00,
6006092,00000642,false,Rx,1,8,FF,FF,FF,FF,FF,FF,00,00,
6006448,00000645,false,Rx,1,8,7F,86,07,39,EF,3B,56,00,
6008706,00000495,false,Rx,0,8,49,00,00,00,00,00,00,00,
6017939,00000419,false,Rx,0,8,FB,C0,94,CF,7D,65,84,00,
6018033,000000A1,false,Rx,0,8,AE,9C,D0,8A,D4,EC,A2,00,
6018378,000000A2,false,Rx,0,8,00,00,00,00,00,00,00,00,
6018873,000000A3,false,Rx,0,8,00,40,01,00,00,00,00,00,
6019101,00000448,false,Rx,0,8,7F,00,00,00,00,00,00,00,
6032871,0000036F,false,Rx,0,8,89,B1,01,00,00,00,00,00,
6032949,0000037F,false,Rx,0,8,83,A0,52,24,41,02,00,00,
6036940,000002AB,false,Rx,0,8,99,64,E5,0C,0C,00,00,00,
6037045,000002AC,false,Rx,0,8,00,FF,FF,00,00,40,00,50,
6037423,000002AD,false,Rx,0,8,00,01,00,40,FF,FF,FF,0F,
6037557,000002AE,false,Rx,0,8,1E,0C,FF,3F,00,01,00,00,
6037913,000002B6,false,Rx,0,8,15,6B,E5,00,00,00,00,40,
6038059,000002B7,false,Rx,0,8,93,01,C1,08,00,04,00,00,
6038394,000002B8,false,Rx,0,8,B2,61,11,00,00,00,00,00,
6038617,000002B9,false,Rx,0,8,0A,00,00,00,00,00,00,00,
6038977,0000010B,false,Rx,0,8,5D,60,EF,00,00,00,00,01,
6039303,000002C1,false,Rx,0,8,D9,4D,73,21,00,41,00,A1,
6039595,0000010C,false,Rx,0,8,FF,01,00,00,43,48,44,44,
6039656,000002C2,false,Rx,0,8,40,00,00,00,00,00,00,00,
6039941,0000010D,false,Rx,0,8,0C,00,00,00,00,00,01,35,
6040279,000002C3,false,Rx,0,8,00,00,00,00,00,00,00,00,
6040446,0000010E,false,Rx,0,8,00,00,0A,00,00,00,00,00,
6040531,000002C4,false,Rx,0,8,00,00,00,00,00,00,00,00,
6040830,000002E1,false,Rx,0,8,60,38,E5,00,00,00,00,00,
6041058,00000251,false,Rx,0,8,3F,C4,E4,00,00,00,00,00,
6041271,000002E2,false,Rx,0,8,00,00,00,00,00,7E,00,04,
6041692,00000252,false,Rx,0,8,00,00,00,00,03,00,00,00,
6041785,000002E3,false,Rx,0,8,00,00,00,00,00,00,72,01,
6042255,00000253,false,Rx,0,8,00,00,00,00,52,00,80,46,
6042923,000002E4,false,Rx,0,8,02,00,00,00,00,00,00,00,
91472,00000121,false,Rx,0,8,FF,23,F0,00,00,00,00,01,
91622,00000122,false,Rx,0,8,FF,01,00,00,43,44,43,43,
91666,00000123,false,Rx,0,8,0C,00,00,00,00,00,01,35,
91998,000004A3,false,Rx,1,8,80,00,48,0B,3E,00,00,00,
92106,00000124,false,Rx,0,8,00,00,0A,00,00,00,00,00,
92152,00000036,false,Rx,0,8,D2,FE,F0,01,10,00,20,05,
92300,000004A4,false,Rx,1,8,FF,FF,FF,00,00,00,00,00,
92637,00000037,false,Rx,0,8,05,00,00,10,00,40,00,00,
93151,00000038,false,Rx,0,8,01,00,00,00,60,39,06,00,
93542,00000039,false,Rx,0,8,00,00,00,00,00,00,00,00,
96268,00000565,false,Rx,0,8,66,12,00,00,00,00,FF,FF,
98873,000001AB,false,Rx,0,8,4D,59,7A,40,00,90,00,00,
99095,000001AC,false,Rx,0,8,00,28,00,00,00,00,00,00,
103793,00000419,false,Rx,0,8,FB,C0,94,CF,7D,65,84,00,
113118,00000236,false,Rx,0,8,E7,AD,E4,00,30,63,34,6C,
113280,000002FB,false,Rx,0,8,E5,A1,E4,00,0C,15,C3,C3,
113507,00000237,false,Rx,0,8,00,04,94,00,00,5D,1D,00,
113791,00000151,false,Rx,0,8,CA,4D,E4,A0,C8,00,28,15,
113987,000000A1,false,Rx,0,8,A1,77,D5,8A,D4,EC,A2,00,
114220,00000152,false,Rx,0,8,12,14,14,00,00,00,00,00,
114468,000000A2,false,Rx,0,8,00,00,00,00,00,00,00,00,
114721,00000153,false,Rx,0,8,00,00,00,00,00,00,00,00,
114961,000000A3,false,Rx,0,8,00,40,01,00,00,00,00,00,
115229,00000154,false,Rx,0,8,00,00,00,00,00,00,00,00,
115461,00000238,false,Rx,0,8,00,00,0C,00,00,00,00,00,
115711,000002FC,false,Rx,0,8,00,00,12,15,00,00,00,96,
115940,000001F6,false,Rx,0,8,F3,34,E4,00,00,00,00,00,
116209,000002FD,false,Rx,0,8,00,00,00,00,00,1C,10,EA,
116437,000001F7,false,Rx,0,8,00,00,DC,00,00,00,00,00,
116683,000002FE,false,Rx,0,8,00,00,72,01,00,28,00,00,
116928,000001F8,false,Rx,0,8,00,69,00,64,00,00,00,00,
117181,00000326,false,Rx,0,8,66,D6,E4,00,10,00,00,00,
117412,000001F9,false,Rx,0,8,19,00,A0,C8,14,00,19,00,
117650,00000327,false,Rx,0,8,00,00,00,00,01,00,00,00,
117901,00000239,false,Rx,0,8,00,00,00,00,01,00,00,00,
118142,00000328,false,Rx,0,8,DC,00,19,00,00,69,00,00,
118385,0000025B,false,Rx,0,8,4B,75,E4,4C,40,20,00,00,
118615,00000329,false,Rx,0,8,A0,64,00,00,00,00,00,00,
118897,0000025C,false,Rx,0,8,00,00,00,00,BD,68,15,00,
119091,00000331,false,Rx,0,8,E7,8C,E4,F1,C8,A0,2C,97,
119346,0000025D,false,Rx,0,8,00,C8,00,00,00,80,C0,70,
119583,00000332,false,Rx,0,8,00,00,00,00,00,00,00,00,
119867,0000025E,false,Rx,0,8,30,07,0E,04,00,00,00,00,
120066,00000333,false,Rx,0,8,00,00,00,1C,0C,40,20,A0,
120304,00000226,false,Rx,0,8,AD,B7,E7,FF,00,20,00,02,
120543,00000316,false,Rx,0,8,D6,72,75,04,00,80,0A,00,
120771,00000227,false,Rx,0,8,02,C4,07,09,00,F0,FF,07,
121027,00000317,false,Rx,0,8,00,00,05,00,00,00,00,00,
121266,000003CB,false,Rx,0,8,36,14,00,F4,00,00,00,00,
121495,00000334,false,Rx,0,8,C8,00,00,00,5C,70,B7,8F,
121734,000003CC,false,Rx,0,8,36,31,34,30,33,34,31,00,
121975,00000472,false,Rx,0,8,5C,EC,00,40,08,41,00,45,
122225,00000473,false,Rx,0,8,5F,24,00,25,00,00,00,78,
122532,00000474,false,Rx,0,8,30,DB,00,00,00,00,00,00,
123816,000002FF,false,Rx,0,8,94,7C,00,00,00,00,00,00,
128843,00000419,false,Rx,0,8,0C,D0,94,CF,79,65,84,00,
131822,000000FF,false,Rx,0,8,CB,10,00,00,00,00,02,00,
132525,00000394,false,Rx,0,8,2A,22,1A,49,00,00,00,00,
132748,000003C3,false,Rx,0,8,45,10,31,30,36,00,00,00,
133012,000003E0,false,Rx,0,8,37,00,01,00,04,02,00,00,
133759,000003E5,false,Rx,0,8,69,10,00,00,00,00,00,00,
133972,000003E6,false,Rx,0,8,A1,40,00,00,00,00,00,00,
134212,0000041A,false,Rx,0,8,CC,10,12,00,50,01,00,00,
134479,0000041B,false,Rx,0,8,BE,70,00,00,00,00,00,00,
134723,0000010B,false,Rx,0,8,F5,55,F4,00,00,00,00,01,
135088,0000041C,false,Rx,0,8,84,D0,E8,00,00,00,00,00,
135408,0000010C,false,Rx,0,8,FF,01,00,00,43,48,44,44,
135802,00000422,false,Rx,0,8,FA,20,01,00,00,00,04,00,
136045,0000010D,false,Rx,0,8,0B,00,00,00,00,00,01,35,
136106,00000432,false,Rx,0,8,03,20,02,00,00,00,00,00,
136188,0000010E,false,Rx,0,8,00,00,0A,00,00,00,00,00,
136980,00000435,false,Rx,0,8,3C,80,00,40,00,00,00,FF,
137208,00000442,false,Rx,0,8,CE,20,11,81,00,00,00,00,
137457,00000444,false,Rx,0,8,59,80,10,43,00,50,01,00,
137719,00000445,false,Rx,0,8,D6,20,00,00,00,00,00,18,
138142,00000464,false,Rx,0,8,6C,30,F0,FF,38,7F,05,00,
141242,00000121,false,Rx,0,8,55,FF,F5,00,00,00,00,01,
141335,00000415,false,Rx,0,8,40,13,10,00,08,01,00,00,
141709,00000122,false,Rx,0,8,FF,01,00,00,43,44,43,43,
141773,00000123,false,Rx,0,8,0B,00,00,00,00,00,01,35,
142319,00000124,false,Rx,0,8,00,00,0A,00,00,00,00,00,
142380,00000036,false,Rx,0,8,AD,D2,F5,01,10,00,20,05,
142565,00000037,false,Rx,0,8,05,00,00,10,00,40,00,00,
142925,00000038,false,Rx,0,8,01,00,00,00,60,39,06,00,
143373,00000039,false,Rx,0,8,00,00,00,00,00,00,00,00,
148893,000001E6,false,Rx,0,8,55,41,C6,02,00,00,00,00,
148988,000001BB,false,Rx,0,8,51,16,C6,02,00,00,00,0A,
149374,000001BC,false,Rx,0,8,32,00,00,00,02,00,00,00,
149452,000001BD,false,Rx,0,8,00,00,00,00,00,00,00,00,
149801,000001E7,false,Rx,0,8,00,00,22,03,20,01,00,00,
153384,000002BF,false,Rx,0,8,FF,FF,FF,00,00,00,00,00,
153481,0000047F,false,Rx,0,8,FF,FF,FF,FF,FF,FF,FF,FF,
153900,00000653,false,Rx,0,8,0A,19,03,01,02,2A,00,00,
153995,00000419,false,Rx,0,8,9C,E0,95,CF,79,65,84,00,
161896,000000C5,false,Rx,1,8,00,00,00,00,00,00,00,00,
161993,00000244,false,Rx,1,8,00,00,00,00,00,00,00,00,
162292,000003E4,false,Rx,1,8,FE,00,00,00,00,00,00,00,
162927,0000041F,false,Rx,1,8,00,0C,00,00,00,00,00,00,
163122,000004B4,false,Rx,1,8,01,00,0D,40,10,60,44,02,
163183,000004B5,false,Rx,1,8,08,00,F0,07,00,00,00,00,
163447,000004B7,false,Rx,1,8,08,00,F0,07,00,00,00,00,
163814,000004CA,false,Rx,1,8,00,00,00,00,00,00,00,00,
163937,000004CC,false,Rx,1,8,08,00,00,2A,00,00,03,00,
164814,000000A1,false,Rx,0,8,91,5A,DA,8A,D4,EC,A2,00,
165026,000004CE,false,Rx,1,8,14,01,FF,FF,FF,FF,FF,FF,
165219,000000A2,false,Rx,0,8,00,00,00,00,00,00,00,00,
165286,000004D7,false,Rx,1,8,23,01,00,00,00,00,00,00,
165332,000004D8,false,Rx,1,8,41,10,F6,F0,40,F2,1E,CC,
165385,000000A3,false,Rx,0,8,00,40,01,00,00,00,00,00,
165476,000004DD,false,Rx,1,8,00,00,FE,00,04,00,00,00,
165544,000004DF,false,Rx,1,8,00,00,08,00,00,00,00,00,
166090,000004E7,false,Rx,1,8,00,30,00,00,00,00,69,00,
166710,000004E8,false,Rx,1,8,FF,FF,FF,29,FF,FF,FF,00,
167037,000004E9,false,Rx,1,8,00,00,00,00,00,00,00,00,
168013,000004EA,false,Rx,1,8,00,00,00,00,00,00,00,00,
168274,000004EB,false,Rx,1,8,04,68,2A,25,00,00,00,00,
168334,000004EC,false,Rx,1,8,FF,FF,FF,FF,FF,FF,FF,0F,
168402,000004ED,false,Rx,1,8,FF,FF,FF,FF,FF,FF,FF,1F,
168454,000004EE,false,Rx,1,8,FF,FF,00,00,00,00,00,00,
168512,000004EF,false,Rx,1,8,60,00,60,00,29,14,00,00,
168566,0000063D,false,Rx,1,8,00,80,00,00,00,00,00,00,
168857,0000063E,false,Rx,1,8,FF,FF,FF,FF,FF,FF,FF,FF,
169114,0000063F,false,Rx,1,8,00,10,00,C4,FF,00,00,00,
169385,00000640,false,Rx,1,8,FF,FF,FF,00,FF,FF,FF,00,
169693,00000641,false,Rx,1,8,FF,FF,FF,FF,0F,FF,FF,FF,
169964,00000646,false,Rx,1,8,00,00,00,80,01,00,00,00,
173308,00000401,false,Rx,0,8,30,D0,10,00,00,01,00,00,
178970,0000036F,false,Rx,0,8,81,C1,01,00,00,00,00,00,
179071,0000037F,false,Rx,0,8,3A,B0,52,24,41,02,00,00,
183895,000002D6,false,Rx,0,8,E4,8E,72,00,00,00,00,00,
184008,000002EB,false,Rx,0,8,E5,1A,72,09,10,01,00,00,
184060,000002D7,false,Rx,0,8,00,00,03,03,03,00,00,00,
184424,000002EC,false,Rx,0,8,02,00,00,00,00,00,00,00,
184778,000002D8,false,Rx,0,8,00,00,00,00,00,00,38,44,
185056,000002ED,false,Rx,0,8,00,00,00,00,00,00,00,00,
185132,0000010B,false,Rx,0,8,F8,93,F9,00,00,00,00,01,
185405,000002D9,false,Rx,0,8,00,00,00,00,00,00,00,00,
185519,0000010C,false,Rx,0,8,FF,01,00,00,43,48,44,44,
185809,000002EE,false,Rx,0,8,00,00,00,00,00,00,00,00,
186162,0000010D,false,Rx,0,8,0B,00,00,00,00,00,01,35,
186490,0000010E,false,Rx,0,8,00,00,0A,00,00,00,00,00,
187703,00000396,false,Rx,0,8,97,29,72,0F,10,02,00,00,
188027,00000397,false,Rx,0,8,25,00,00,00,00,00,00,00,
188120,00000398,false,Rx,0,8,00,00,00,00,00,00,00,00,
188811,00000566,false,Rx,0,8,16,02,00,00,00,00,FF,FF,
191370,00000121,false,Rx,0,8,D4,8B,FA,00,00,00,00,01,
191488,00000122,false,Rx,0,8,FF,01,00,00,43,44,43,43,
191532,00000123,false,Rx,0,8,0B,00,00,00,00,00,01,35,
191784,00000124,false,Rx,0,8,00,00,0A,00,00,00,00,00,
192086,00000036,false,Rx,0,8,2C,A6,FA,01,10,00,20,05,
192649,00000037,false,Rx,0,8,05,00,00,10,00,40,00,00,
192985,00000038,false,Rx,0,8,01,00,00,00,60,39,06,00,
193428,00000039,false,Rx,0,8,00,00,00,00,00,00,00,00,
193903,00000419,false,Rx,0,8,9C,E0,95,CF,79,65,84,00,
199024,00000405,false,Rx,0,8,22,D0,00,00,00,00,00,00,
199135,000001AB,false,Rx,0,8,BB,71,7F,40,00,90,00,00,
199276,00000410,false,Rx,0,8,A3,90,53,3C,B4,6A,FF,FF,
199583,000001AC,false,Rx,0,8,00,28,00,00,00,00,00,00,
199980,00000411,false,Rx,0,8,BD,71,50,50,00,00,44,05,
200048,00000413,false,Rx,0,8,F5,10,00,41,00,00,00,00,
200326,00000412,false,Rx,0,8,CC,E0,00,00,00,00,00,00,
200947,00000414,false,Rx,0,8,87,A0,00,00,28,00,00,00,
201296,00000416,false,Rx,0,8,55,00,00,00,00,00,00,00,
201788,00000417,false,Rx,0,8,BF,00,00,00,00,01,00,00,
201919,00000418,false,Rx,0,8,68,E0,00,00,14,0C,00,00,
214173,000000A1,false,Rx,0,8,9E,B1,DF,8A,D4,EC,A2,00,
214263,000000A2,false,Rx,0,8,00,00,00,00,00,00,00,00,
214634,000000A3,false,Rx,0,8,00,40,01,00,00,00,00,00,
219241,00000419,false,Rx,0,8,5E,00,95,CF,75,65,84,00,
234853,0000010B,false,Rx,0,8,0B,0D,FE,00,00,00,00,01,
234932,0000010C,false,Rx,0,8,FF,01,00,00,43,48,44,44,
235353,0000010D,false,Rx,0,8,0B,00,00,00,00,00,01,35,
235422,0000010E,false,Rx,0,8,00,00,0A,00,00,00,00,00,
241244,00000121,false,Rx,0,8,AB,A7,FF,00,00,00,00,01,
241337,00000122,false,Rx,0,8,FF,01,00,00,43,44,43,43,
241814,00000123,false,Rx,0,8,0B,00,00,00,00,00,01,35,
241899,00000124,false,Rx,0,8,00,00,0A,00,00,00,00,00,
242159,00000036,false,Rx,0,8,53,8A,FF,01,10,00,20,05,
242873,00000037,false,Rx,0,8,05,00,00,10,00,40,00,00,
242971,00000038,false,Rx,0,8,01,00,00,00,60,39,06,00,
243022,00000039,false,Rx,0,8,00,00,00,00,00,00,00,00,
246127,000003AA,false,Rx,0,8,FF,00,D0,00,54,00,00,00,
252168,00000487,false,Rx,1,8,00,00,00,00,00,00,00,00,
252274,00000642,false,Rx,1,8,FF,FF,FF,FF,FF,FF,00,00,
253911,00000419,false,Rx,0,8,2D,10,96,CF,75,65,84,00,
254618,00000495,false,Rx,0,8,49,00,00,00,00,00,00,00,
262216,00000643,false,Rx,1,8,00,FC,FF,FF,FF,FF,03,00,
264133,000000A1,false,Rx,0,8,57,80,E4,8A,D4,EC,A2,00,
264269,000000A2,false,Rx,0,8,00,00,00,00,00,00,00,00,
264582,000000A3,false,Rx,0,8,00,40,01,00,00,00,00,00,
264763,00000448,false,Rx,0,8,7F,00,00,00,00,00,00,00,
279075,0000036F,false,Rx,0,8,38,D1,01,00,00,00,00,00,
279196,0000037F,false,Rx,0,8,32,C0,52,24,41,02,00,00,
282916,000002AB,false,Rx,0,8,15,D6,E7,0C,0C,00,00,00,
283012,000002AC,false,Rx,0,8,00,FF,FF,00,00,40,00,50,
283283,000002AD,false,Rx,0,8,00,01,00,40,FF,FF,FF,0F,
283526,000002AE,false,Rx,0,8,1E,0C,FF,3F,00,01,00,00,
283774,000002B6,false,Rx,0,8,99,D9,E7,00,00,00,00,40,
284042,000002B7,false,Rx,0,8,93,01,C1,08,00,04,00,00,
284284,000002B8,false,Rx,0,8,B2,61,11,00,00,00,00,00,
284527,00000516,false,Rx,0,8,61,02,00,00,00,00,FF,FF,
284949,0000010B,false,Rx,0,8,C0,03,03,00,00,00,00,01,
285041,000002B9,false,Rx,0,8,0A,00,00,00,00,00,00,00,
285272,0000010C,false,Rx,0,8,FF,01,00,00,43,48,44,44,
285492,000002C1,false,Rx,0,8,2A,D3,74,21,00,41,00,A1,
285729,0000010D,false,Rx,0,8,0A,00,00,00,00,00,01,35,
285969,000002C2,false,Rx,0,8,40,00,00,00,00,00,00,00,
286225,0000010E,false,Rx,0,8,00,00,0A,00,00,00,00,00,
286464,000002C3,false,Rx,0,8,00,00,00,00,00,00,00,00,
286721,000002C4,false,Rx,0,8,00,00,00,00,00,00,00,00,
286973,00000251,false,Rx,0,8,39,AA,E6,00,00,00,00,00,
287472,000002E1,false,Rx,0,8,EC,8A,E7,00,00,00,00,00,
287814,00000252,false,Rx,0,8,00,00,00,00,03,00,00,00,
288313,000002E2,false,Rx,0,8,00,00,00,00,00,7E,00,04,
288419,00000253,false,Rx,0,8,00,00,00,00,52,00,80,46,
288479,000002E3,false,Rx,0,8,00,00,00,00,00,00,72,01,
288542,000002E4,false,Rx,0,8,02,00,00,00,00,00,00,00,
291308,00000121,false,Rx,0,8,D5,6E,04,00,00,00,00,01,
291412,00000122,false,Rx,0,8,FF,01,00,00,43,44,43,43,
291564,00000123,false,Rx,0,8,0A,00,00,00,00,00,01,35,
291965,00000124,false,Rx,0,8,00,00,0A,00,00,00,00,00,
292696,000004A3,false,Rx,1,8,80,00,48,0B,3E,00,00,00,
293240,00000036,false,Rx,0,8,1C,B3,04,01,10,00,20,05,
293367,00000037,false,Rx,0,8,05,00,00,10,00,40,00,00,
293443,000004A4,false,Rx,1,8,FF,FF,FF,00,00,00,00,00,
293495,00000038,false,Rx,0,8,01,00,00,00,60,39,06,00,
293537,00000039,false,Rx,0,8,00,00,00,00,00,00,00,00,
294066,00000419,false,Rx,0,8,2D,10,96,CF,75,65,84,00,
299209,000001AB,false,Rx,0,8,34,69,84,40,00,90,00,00,
299324,000001AC,false,Rx,0,8,00,28,00,00,00,00,00,00,
299444,000001BB,false,Rx,0,8,61,3B,C9,02,00,00,00,0A,
299701,000001BC,false,Rx,0,8,32,00,00,00,02,00,00,00,
300130,000001BD,false,Rx,0,8,00,00,00,00,00,00,00,00,
300601,000001E6,false,Rx,0,8,4F,38,C9,02,00,00,00,00,
300670,000001E7,false,Rx,0,8,00,00,22,03,20,01,00,00,
313211,00000236,false,Rx,0,8,6B,1F,E6,00,30,63,34,6C,
313305,00000237,false,Rx,0,8,00,04,94,00,00,5D,1D,00,
313584,00000151,false,Rx,0,8,46,FF,E6,A0,C8,00,28,15,
313792,00000238,false,Rx,0,8,00,00,0C,00,00,00,00,00,
314032,00000152,false,Rx,0,8,12,14,14,00,00,00,00,00,
314257,000000A1,false,Rx,0,8,61,C3,E9,8A,D4,EC,A2,00,
314518,00000153,false,Rx,0,8,00,00,00,00,00,00,00,00,
314757,000000A2,false,Rx,0,8,00,00,00,00,00,00,00,00,
315011,00000154,false,Rx,0,8,00,00,00,00,00,00,00,00,
315250,000000A3,false,Rx,0,8,00,40,01,00,00,00,00,00,
315505,000001F6,false,Rx,0,8,7F,86,E6,00,00,00,00,00,
315727,000002FB,false,Rx,0,8,69,13,E6,00,0C,15,C3,C3,
315978,000001F7,false,Rx,0,8,00,00,DC,00,00,00,00,00,
316216,000002FC,false,Rx,0,8,00,00,12,15,00,00,00,96,
316472,000001F8,false,Rx,0,8,00,69,00,64,00,00,00,00,
316707,000002FD,false,Rx,0,8,00,00,00,00,00,1C,10,EA,
316950,000001F9,false,Rx,0,8,19,00,A0,C8,14,00,19,00,
317200,000002FE,false,Rx,0,8,00,00,72,01,00,28,00,00,
317452,00000239,false,Rx,0,8,00,00,00,00,01,00,00,00,
317688,00000326,false,Rx,0,8,EA,64,E6,00,10,00,00,00,
317937,0000025B,false,Rx,0,8,D8,98,E6,4C,40,20,00,00,
318164,00000327,false,Rx,0,8,00,00,00,00,01,00,00,00,
318406,0000025C,false,Rx,0,8,00,00,00,00,BD,68,15,00,
318651,00000328,false,Rx,0,8,DC,00,19,00,00,69,00,00,
318897,0000025D,false,Rx,0,8,00,C8,00,00,00,80,C0,70,
319145,00000329,false,Rx,0,8,A0,64,00,00,00,00,00,00,
319377,0000025E,false,Rx,0,8,3C,07,0E,05,00,00,00,00,
319600,00000331,false,Rx,0,8,6B,3E,E6,F1,C8,A0,2C,97,
319858,00000226,false,Rx,0,8,93,66,E9,FF,00,20,00,02,
320094,00000332,false,Rx,0,8,00,00,00,00,00,00,00,00,
320329,00000227,false,Rx,0,8,02,C4,07,09,00,F0,FF,07,
320619,000002FF,false,Rx,0,8,94,7C,00,00,00,00,00,00,
320801,00000419,false,Rx,0,8,B5,20,96,CF,71,65,84,00,
321048,00000316,false,Rx,0,8,9B,9A,76,04,00,80,0A,00,
321314,00000472,false,Rx,0,8,5C,EC,00,40,08,41,00,45,
321641,00000317,false,Rx,0,8,00,00,05,00,00,00,00,00,
322043,00000473,false,Rx,0,8,5F,24,00,25,00,00,00,78,
322382,00000333,false,Rx,0,8,00,00,00,1C,0C,40,20,A0,
322901,00000474,false,Rx,0,8,30,DB,00,00,00,00,00,00,
322962,00000334,false,Rx,0,8,C8,00,00,00,5C,70,B7,8F,
331804,000000FF,false,Rx,0,8,CB,10,00,00,00,00,02,00,
332463,00000394,false,Rx,0,8,2A,22,1A,49,00,00,00,00,
332647,000003C3,false,Rx,0,8,45,10,31,30,36,00,00,00,
332879,000003E0,false,Rx,0,8,37,00,01,00,04,02,00,00,
333732,000003E5,false,Rx,0,8,69,10,00,00,00,00,00,00,
333823,000003E6,false,Rx,0,8,A1,40,00,00,00,00,00,00,
334240,0000041A,false,Rx,0,8,CC,10,12,00,50,01,00,00,
335084,0000041B,false,Rx,0,8,BE,70,00,00,00,00,00,00,
335213,0000041C,false,Rx,0,8,84,D0,E8,00,00,00,00,00,
335260,0000010B,false,Rx,0,8,78,02,08,00,00,00,00,01,
335414,00000422,false,Rx,0,8,FA,20,01,00,00,00,04,00,
335458,0000010C,false,Rx,0,8,FF,01,00,00,43,48,44,44,
335563,00000432,false,Rx,0,8,03,20,02,00,00,00,00,00,
335822,0000010D,false,Rx,0,8,0A,00,00,00,00,00,01,35,
336075,0000010E,false,Rx,0,8,00,00,0A,00,00,00,00,00,
337257,00000435,false,Rx,0,8,3C,80,00,40,00,00,00,FF,
337808,00000442,false,Rx,0,8,CE,20,11,81,00,00,00,00,
337947,00000444,false,Rx,0,8,59,80,10,43,00,50,01,00,
338019,00000445,false,Rx,0,8,D6,20,00,00,00,00,00,18,
338076,00000464,false,Rx,0,8,6C,30,F0,FF,38,7F,05,00,
341233,00000121,false,Rx,0,8,D8,A8,09,00,00,00,00,01,
341327,00000122,false,Rx,0,8,FF,01,00,00,43,44,43,43,
341622,00000123,false,Rx,0,8,0A,00,00,00,00,00,01,35,
341756,00000124,false,Rx,0,8,00,00,0A,00,00,00,00,00,
342075,00000036,false,Rx,0,8,11,75,09,01,10,00,20,05,
342379,00000037,false,Rx,0,8,05,00,00,10,00,40,00,00,
342614,00000038,false,Rx,0,8,01,00,00,00,60,39,06,00,
342877,00000039,false,Rx,0,8,00,00,00,00,00,00,00,00,
353347,000002BF,false,Rx,0,8,FF,FF,FF,00,00,00,00,00,
353514,0000047F,false,Rx,0,8,FF,FF,FF,FF,FF,FF,FF,FF,
353716,00000653,false,Rx,0,8,0A,19,03,01,02,2A,00,00,
353949,00000419,false,Rx,0,8,4A,30,97,CF,71,65,84,00,
361782,000000C5,false,Rx,1,8,00,00,00,00,00,00,00,00,
362058,00000244,false,Rx,1,8,00,00,00,00,00,00,00,00,
362314,000004B4,false,Rx,1,8,01,00,0D,40,10,60,44,02,
362563,000004B5,false,Rx,1,8,08,00,F0,07,00,00,00,00,
362855,000004B7,false,Rx,1,8,08,00,F0,07,00,00,00,00,
363118,000004CA,false,Rx,1,8,00,00,00,00,00,00,00,00,
363384,000004CC,false,Rx,1,8,08,00,00,2A,00,00,03,00,
363659,000004CE,false,Rx,1,8,14,01,FF,FF,FF,FF,FF,FF,
363925,000004D7,false,Rx,1,8,23,01,00,00,00,00,00,00,
364182,000004D8,false,Rx,1,8,41,10,F6,F0,40,F2,1E,CC,
364471,000000A1,false,Rx,0,8,68,46,EE,8A,D4,EC,A2,00,
364553,000004DD,false,Rx,1,8,00,00,FE,00,04,00,00,00,
364665,000000A2,false,Rx,0,8,00,00,00,00,00,00,00,00,
364714,000004DF,false,Rx,1,8,00,00,08,00,00,00,00,00,
365162,000000A3,false,Rx,0,8,00,40,01,00,00,00,00,00,
365239,000004E7,false,Rx,1,8,00,30,00,00,00,00,69,00,
365673,000004E8,false,Rx,1,8,FF,FF,FF,29,FF,FF,FF,00,
366163,000004E9,false,Rx,1,8,00,00,00,00,00,00,00,00,
366446,000004EA,false,Rx,1,8,00,00,00,00,00,00,00,00,
366703,000004EB,false,Rx,1,8,04,68,2A,25,00,00,00,00,
366974,000004EC,false,Rx,1,8,FF,FF,FF,FF,FF,FF,FF,0F,
367260,000004ED,false,Rx,1,8,FF,FF,FF,FF,FF,FF,FF,1F,
367534,000004EE,false,Rx,1,8,FF,FF,00,00,00,00,00,00,
367778,000004EF,false,Rx,1,8,60,00,60,00,29,14,00,00,
368073,0000063D,false,Rx,1,8,00,80,00,00,00,00,00,00,
368339,0000063E,false,Rx,1,8,FF,FF,FF,FF,FF,FF,FF,FF,
368598,0000063F,false,Rx,1,8,00,10,00,C4,FF,00,00,00,
368894,00000640,false,Rx,1,8,FF,FF,FF,00,FF,FF,FF,00,
369152,00000641,false,Rx,1,8,FF,FF,FF,FF,0F,FF,FF,FF,
369431,00000646,false,Rx,1,8,00,00,00,80,01,00,00,00,
373238,00000401,false,Rx,0,8,30,D0,10,00,00,01,00,00,
378906,0000036F,false,Rx,0,8,EE,E1,01,00,00,00,00,00,
379000,0000037F,false,Rx,0,8,8B,D0,52,24,41,02,00,00,
383895,000002D6,false,Rx,0,8,A2,D7,73,00,00,00,00,00,
383977,000002EB,false,Rx,0,8,A3,43,73,09,10,01,00,00,
384247,000002D7,false,Rx,0,8,00,00,03,03,03,00,00,00,
384439,000002EC,false,Rx,0,8,02,00,00,00,00,00,00,00,
384699,000002D8,false,Rx,0,8,00,00,00,00,00,00,38,44,
384947,0000010B,false,Rx,0,8,75,2E,0D,00,00,00,00,01,
385165,000002D9,false,Rx,0,8,00,00,00,00,00,00,00,00,
385414,0000010C,false,Rx,0,8,FF,01,00,00,43,48,44,44,
385687,000002ED,false,Rx,0,8,00,00,00,00,00,00,00,00,
385896,0000010D,false,Rx,0,8,09,00,00,00,00,00,01,35,
386131,000002EE,false,Rx,0,8,00,00,00,00,00,00,00,00,
386372,0000010E,false,Rx,0,8,00,00,0A,00,00,00,00,00,
386909,00000561,false,Rx,0,8,63,12,00,00,00,00,FF,FF,
388046,00000396,false,Rx,0,8,41,75,73,0F,10,01,00,00,
388455,00000397,false,Rx,0,8,04,00,00,00,00,00,00,00,
388553,00000398,false,Rx,0,8,00,00,00,00,00,00,00,00,
391372,00000121,false,Rx,0,8,59,36,0E,00,00,00,00,01,
391469,00000122,false,Rx,0,8,FF,01,00,00,43,44,43,43,
391513,00000123,false,Rx,0,8,09,00,00,00,00,00,01,35,
391933,00000124,false,Rx,0,8,00,00,0A,00,00,00,00,00,
392080,00000036,false,Rx,0,8,E2,EB,0E,01,10,00,20,05,
392325,00000037,false,Rx,0,8,05,00,00,10,00,40,00,00,
392603,00000038,false,Rx,0,8,01,00,00,00,60,39,06,00,
392874,00000039,false,Rx,0,8,00,00,00,00,00,00,00,00,
393703,00000419,false,Rx,0,8,4A,30,97,CF,71,65,84,00,
398687,000001AB,false,Rx,0,8,47,50,89,40,00,90,00,00,
398817,000001AC,false,Rx,0,8,00,28,00,00,00,00,00,00,
399178,00000405,false,Rx,0,8,22,D0,00,00,00,00,00,00,
399257,00000410,false,Rx,0,8,A3,90,53,3C,B4,6A,FF,FF,
399659,00000411,false,Rx,0,8,BD,71,50,50,00,00,44,05,
400019,00000412,false,Rx,0,8,CC,E0,00,00,00,00,00,00,
400324,00000413,false,Rx,0,8,F5,10,00,41,00,00,00,00,
400403,00000414,false,Rx,0,8,87,A0,00,00,28,00,00,00,
400595,00000416,false,Rx,0,8,55,00,00,00,00,00,00,00,
400884,00000417,false,Rx,0,8,BF,00,00,00,00,01,00,00,
401129,00000418,false,Rx,0,8,68,E0,00,00,14,0C,00,00,
402525,000004E8,false,Rx,1,8,FF,FF,FF,29,FF,FF,FF,00,
406250,00000485,false,Rx,0,8,00,40,11,02,00,00,00,00,
414070,000000A1,false,Rx,0,8,0D,45,F3,8A,D4,EC,A2,00,
414263,000000A2,false,Rx,0,8,00,00,00,00,00,00,00,00,
414510,000000A3,false,Rx,0,8,00,40,01,00,00,00,00,00,
418934,00000419,false,Rx,0,8,B5,40,97,CF,6D,65,84,00,
434858,0000010B,false,Rx,0,8,31,9E,12,00,00,00,00,01,
434949,0000010C,false,Rx,0,8,FF,01,00,00,43,48,44,44,
435356,0000010D,false,Rx,0,8,09,00,00,00,00,00,01,35,
435428,0000010E,false,Rx,0,8,00,00,0A,00,00,00,00,00,
441228,00000121,false,Rx,0,8,91,34,13,00,00,00,00,01,
441323,00000122,false,Rx,0,8,FF,01,00,00,43,44,43,43,
441712,00000123,false,Rx,0,8,09,00,00,00,00,00,01,35,
442106,00000124,false,Rx,0,8,00,00,0A,00,00,00,00,00,
442236,000004E8,false,Rx,1,8,FF,FF,FF,29,FF,FF,FF,00,
442343,00000036,false,Rx,0,8,2A,E9,13,01,10,00,20,05,
442390,00000037,false,Rx,0,8,05,00,00,10,00,40,00,00,
442870,00000038,false,Rx,0,8,01,00,00,00,60,39,06,00,
443081,00000039,false,Rx,0,8,00,00,00,00,00,00,00,00,
446509,000003AA,false,Rx,0,8,FF,00,D0,00,54,00,00,00,
448869,000001E6,false,Rx,0,8,B9,10,CC,02,00,00,00,00,
448962,000001BB,false,Rx,0,8,6E,D0,CC,02,00,00,00,0A,
449304,000001BC,false,Rx,0,8,32,00,00,00,02,00,00,00,
449428,000001BD,false,Rx,0,8,00,00,00,00,00,00,00,00,
449757,000001E7,false,Rx,0,8,00,00,22,03,20,01,00,00,
452142,00000487,false,Rx,1,8,00,00,00,00,00,00,00,00,
452282,00000642,false,Rx,1,8,FF,FF,FF,FF,FF,FF,00,00,
453980,00000419,false,Rx,0,8,C9,50,98,CF,6D,65,84,00,
454628,00000495,false,Rx,0,8,49,00,00,00,00,00,00,00,
464172,000000A1,false,Rx,0,8,31,B4,F8,8A,D4,EC,A2,00,
464271,000000A2,false,Rx,0,8,00,00,00,00,00,00,00,00,
464618,000000A3,false,Rx,0,8,00,40,01,00,00,00,00,00,
465060,00000448,false,Rx,0,8,7F,00,00,00,00,00,00,00,
476853,00000563,false,Rx,1,8,65,02,00,00,00,00,FF,FF,
479189,0000036F,false,Rx,0,8,FE,01,01,00,00,00,00,00,
479682,0000037F,false,Rx,0,8,5D,E0,52,24,41,02,00,00,
483257,000002AB,false,Rx,0,8,D2,FB,E9,0C,0C,00,00,00,
483388,000002AC,false,Rx,0,8,00,FF,FF,00,00,40,00,50,
483443,000002AD,false,Rx,0,8,00,01,00,40,FF,FF,FF,0F,
483532,000002AE,false,Rx,0,8,1E,0C,FF,3F,00,01,00,00,
483815,000002B6,false,Rx,0,8,5E,F4,E9,00,00,00,00,40,
484121,000002B7,false,Rx,0,8,93,01,C1,08,00,04,00,00,
484478,000002B8,false,Rx,0,8,B2,61,11,00,00,00,00,00,
484781,000002B9,false,Rx,0,8,0A,00,00,00,00,00,00,00,
484844,0000010B,false,Rx,0,8,4E,B2,17,00,00,00,00,01,
485025,000002C1,false,Rx,0,8,6C,8A,75,21,00,41,00,A1,
485266,0000010C,false,Rx,0,8,FF,01,00,00,43,48,44,44,
485507,000002C2,false,Rx,0,8,40,00,00,00,00,00,00,00,
485743,0000010D,false,Rx,0,8,09,00,00,00,00,00,01,35,
485996,000002C3,false,Rx,0,8,00,00,00,00,00,00,00,00,
486354,0000010E,false,Rx,0,8,00,00,0A,00,00,00,00,00,
486506,000002C4,false,Rx,0,8,00,00,00,00,00,00,00,00,
486798,000002E1,false,Rx,0,8,2B,A7,E9,00,00,00,00,00,
487111,00000251,false,Rx,0,8,0A,B0,E8,00,00,00,00,00,
487457,000002E2,false,Rx,0,8,00,00,00,00,00,7E,00,04,
488038,00000252,false,Rx,0,8,00,00,00,00,03,00,00,00,
488139,000002E3,false,Rx,0,8,00,00,00,00,00,00,72,01,
488237,00000253,false,Rx,0,8,00,00,00,00,52,00,80,46,
488280,000002E4,false,Rx,0,8,02,00,00,00,00,00,00,00,
491235,00000121,false,Rx,0,8,29,35,18,00,00,00,00,01,
491328,00000122,false,Rx,0,8,FF,01,00,00,43,44,43,43,
492678,00000123,false,Rx,0,8,09,00,00,00,00,00,01,35,
492907,00000124,false,Rx,0,8,00,00,0A,00,00,00,00,00,
493016,000004A3,false,Rx,1,8,80,00,48,0B,3E,00,00,00,
493075,00000036,false,Rx,0,8,92,E8,18,01,10,00,20,05,
493127,00000037,false,Rx,0,8,05,00,00,10,00,40,00,00,
493346,000004A4,false,Rx,1,8,FF,FF,FF,00,00,00,00,00,
493401,00000038,false,Rx,0,8,01,00,00,00,60,39,06,00,
493457,00000039,false,Rx,0,8,00,00,00,00,00,00,00,00,
494229,00000419,false,Rx,0,8,C9,50,98,CF,6D,65,84,00,
498574,000001AB,false,Rx,0,8,D8,38,8E,40,00,90,00,00,
498664,000001AC,false,Rx,0,8,00,28,00,00,00,00,00,00,
513280,00000236,false,Rx,0,8,AC,32,E8,00,30,63,34,6C,
513357,00000237,false,Rx,0,8,00,04,94,00,00,5D,1D,00,
513736,00000151,false,Rx,0,8,88,57,E8,A0,C8,00,28,15,
513830,00000238,false,Rx,0,8,00,00,0C,00,00,00,00,00,
514172,00000152,false,Rx,0,8,12,14,13,00,00,00,00,00,
514294,000000A1,false,Rx,0,8,3E,5F,FD,8A,D4,EC,A2,00,
514565,00000153,false,Rx,0,8,00,00,00,00,00,00,00,00,
514783,000000A2,false,Rx,0,8,00,00,00,00,00,00,00,00,
515016,00000154,false,Rx,0,8,00,00,00,00,00,00,00,00,
515260,000000A3,false,Rx,0,8,00,40,01,00,00,00,00,00,
515500,000001F6,false,Rx,0,8,B8,AB,E8,00,00,00,00,00,
515739,000002FB,false,Rx,0,8,AE,3E,E8,00,0C,15,C3,C3,
515993,000001F7,false,Rx,0,8,00,00,DC,00,00,00,00,00,
516223,000002FC,false,Rx,0,8,00,00,12,15,00,00,00,96,
516501,000001F8,false,Rx,0,8,00,69,00,64,00,00,00,00,
516723,000002FD,false,Rx,0,8,00,00,00,00,00,1C,10,EA,
516959,000001F9,false,Rx,0,8,19,00,A0,C8,14,00,19,00,
517206,000002FE,false,Rx,0,8,00,00,72,01,00,28,00,00,
517528,00000239,false,Rx,0,8,00,00,00,00,01,00,00,00,
517764,00000326,false,Rx,0,8,2D,49,E8,00,10,00,00,00,
518207,0000025B,false,Rx,0,8,F7,D4,E8,4C,40,20,00,00,
518331,00000327,false,Rx,0,8,00,00,00,00,01,00,00,00,
518524,0000025C,false,Rx,0,8,00,00,00,00,BD,68,15,00,
519278,00000328,false,Rx,0,8,DC,00,19,00,00,69,00,00,
519395,0000025D,false,Rx,0,8,00,C8,00,00,00,80,C0,70,
519437,00000329,false,Rx,0,8,A0,64,00,00,00,00,00,00,
519481,0000025E,false,Rx,0,8,4E,07,0E,07,00,00,00,00,
519628,00000331,false,Rx,0,8,AC,13,E8,F1,C8,A0,2C,97,
519892,00000226,false,Rx,0,8,FA,26,EB,FF,00,20,00,02,
520102,000002FF,false,Rx,0,8,94,7C,00,00,00,00,00,00,
520345,00000227,false,Rx,0,8,02,C4,07,09,00,F0,FF,07,
520578,00000316,false,Rx,0,8,BF,32,77,04,00,80,0A,00,
520857,00000419,false,Rx,0,8,51,60,98,CF,69,65,84,00,
521055,00000317,false,Rx,0,8,00,00,05,00,00,00,00,00,
521290,00000472,false,Rx,0,8,5C,EC,00,40,08,41,00,45,
521764,00000332,false,Rx,0,8,00,00,00,00,00,00,00,00,
521825,00000473,false,Rx,0,8,5F,24,00,25,00,00,00,78,
522040,00000333,false,Rx,0,8,00,00,00,1C,0C,40,20,A0,
522650,00000474,false,Rx,0,8,30,DB,00,00,00,00,00,00,
522719,00000334,false,Rx,0,8,C8,00,00,00,5C,70,B7,8F,
531641,000000FF,false,Rx,0,8,CB,10,00,00,00,00,02,00,
532282,00000394,false,Rx,0,8,2A,22,1A,49,00,00,00,00,
532721,000003C3,false,Rx,0,8,45,10,31,30,36,00,00,00,
532819,000003E0,false,Rx,0,8,37,00,01,00,04,02,00,00,
533389,000003E5,false,Rx,0,8,69,10,00,00,00,00,00,00,
533649,000003E6,false,Rx,0,8,A1,40,00,00,00,00,00,00,
533910,0000041A,false,Rx,0,8,CC,10,12,00,50,01,00,00,
534161,0000041B,false,Rx,0,8,BE,70,00,00,00,00,00,00,
534409,0000041C,false,Rx,0,8,84,D0,E8,00,00,00,00,00,
534696,0000010B,false,Rx,0,8,C7,43,1C,00,00,00,00,01,
534900,00000422,false,Rx,0,8,FA,20,01,00,00,00,04,00,
535132,0000010C,false,Rx,0,8,FF,01,00,00,43,48,44,44,
535372,00000432,false,Rx,0,8,03,20,02,00,00,00,00,00,
535640,0000010D,false,Rx,0,8,08,00,00,00,00,00,01,35,
535889,0000010E,false,Rx,0,8,00,00,0A,00,00,00,00,00,
536612,00000435,false,Rx,0,8,3C,80,00,40,00,00,00,FF,
536873,00000442,false,Rx,0,8,CE,20,11,81,00,00,00,00,
537126,00000444,false,Rx,0,8,59,80,10,43,00,50,01,00,
537376,00000445,false,Rx,0,8,D6,20,00,00,00,00,00,18,
537950,00000464,false,Rx,0,8,6C,30,F0,FF,38,7F,05,00,
541251,00000121,false,Rx,0,8,67,E9,1D,00,00,00,00,01,
541334,00000122,false,Rx,0,8,FF,01,00,00,43,44,43,43,
541692,00000123,false,Rx,0,8,08,00,00,00,00,00,01,35,
541795,00000124,false,Rx,0,8,00,00,0A,00,00,00,00,00,
542101,00000036,false,Rx,0,8,ED,C4,1D,01,10,00,20,05,
542618,00000037,false,Rx,0,8,05,00,00,10,00,40,00,00,
542962,00000038,false,Rx,0,8,01,00,00,00,60,39,06,00,
543232,00000039,false,Rx,0,8,00,00,00,00,00,00,00,00,
553372,000002BF,false,Rx,0,8,FF,FF,FF,00,00,00,00,00,
553552,0000047F,false,Rx,0,8,FF,FF,FF,FF,FF,FF,FF,FF,
553867,00000653,false,Rx,0,8,0A,19,03,01,02,2A,00,00,
554203,00000419,false,Rx,0,8,64,70,9A,CF,69,65,84,00,
561910,000000C5,false,Rx,1,8,00,00,00,00,00,00,00,00,
561995,00000244,false,Rx,1,8,00,00,00,00,00,00,00,00,
562282,000004B4,false,Rx,1,8,01,00,0D,40,10,60,44,02,
562583,000004B5,false,Rx,1,8,08,00,F0,07,00,00,00,00,
562926,000004B7,false,Rx,1,8,08,00,F0,07,00,00,00,00,
563125,000004CA,false,Rx,1,8,00,00,00,00,00,00,00,00,
563616,000004CC,false,Rx,1,8,08,00,00,2A,00,00,03,00,
563697,000004CE,false,Rx,1,8,14,01,FF,FF,FF,FF,FF,FF,
563927,000004D7,false,Rx,1,8,23,01,00,00,00,00,00,00,
564863,000000A1,false,Rx,0,8,4C,81,02,8A,D4,EC,A2,00,
565268,000004D8,false,Rx,1,8,41,10,F6,F0,40,F2,1E,CC,
565510,000004DD,false,Rx,1,8,00,00,FE,00,04,00,00,00,
565751,000000A2,false,Rx,0,8,00,00,00,00,00,00,00,00,
565863,000004DF,false,Rx,1,8,00,00,08,00,00,00,00,00,
566474,000000A3,false,Rx,0,8,00,40,01,00,00,00,00,00,
567176,000004E7,false,Rx,1,8,00,30,00,00,00,00,69,00,
567303,000004E8,false,Rx,1,8,FF,FF,FF,29,FF,FF,FF,00,
567365,000004E9,false,Rx,1,8,00,00,00,00,00,00,00,00,
567459,000004EA,false,Rx,1,8,00,00,00,00,00,00,00,00,
567509,000004EB,false,Rx,1,8,04,68,2A,25,00,00,00,00,
567566,000004EC,false,Rx,1,8,FF,FF,FF,FF,FF,FF,FF,0F,
567627,000004ED,false,Rx,1,8,FF,FF,FF,FF,FF,FF,FF,1F,
567691,000004EE,false,Rx,1,8,FF,FF,00,00,00,00,00,00,
567738,000004EF,false,Rx,1,8,60,00,60,00,29,14,00,00,
568057,0000063D,false,Rx,1,8,00,80,00,00,00,00,00,00,
568326,0000063E,false,Rx,1,8,FF,FF,FF,FF,FF,FF,FF,FF,
568593,0000063F,false,Rx,1,8,00,10,00,C4,FF,00,00,00,
568842,00000640,false,Rx,1,8,FF,FF,FF,00,FF,FF,FF,00,
569247,00000641,false,Rx,1,8,FF,FF,FF,FF,0F,FF,FF,FF,
569426,00000646,false,Rx,1,8,00,00,00,80,01,00,00,00,
573548,00000401,false,Rx,0,8,30,D0,10,00,00,01,00,00,
576289,00000565,false,Rx,0,8,66,12,00,00,00,00,FF,FF,
579162,0000036F,false,Rx,0,8,47,11,01,00,00,00,00,00,
579256,0000037F,false,Rx,0,8,4D,00,52,24,41,02,00,00,
583884,000002D6,false,Rx,0,8,51,49,74,00,00,00,00,00,
584057,000002EB,false,Rx,0,8,D4,60,74,08,10,01,00,00,
584106,000002D7,false,Rx,0,8,00,00,03,03,03,00,00,00,
584262,000002EC,false,Rx,0,8,0A,00,00,00,00,00,00,00,
584766,000002D8,false,Rx,0,8,00,00,00,00,00,00,38,44,
585057,000002ED,false,Rx,0,8,00,00,00,00,00,00,00,00,
585132,0000010B,false,Rx,0,8,A4,D8,21,00,00,00,00,01,
585405,000002D9,false,Rx,0,8,00,00,00,00,00,00,00,00,
585516,0000010C,false,Rx,0,8,FF,01,00,00,43,48,44,44,
585761,000002EE,false,Rx,0,8,00,00,00,00,00,00,00,00,
586223,0000010D,false,Rx,0,8,08,00,00,00,00,00,01,35,
586282,0000010E,false,Rx,0,8,00,00,0A,00,00,00,00,00,
587718,00000396,false,Rx,0,8,1C,6F,74,0F,10,02,00,00,
587921,00000397,false,Rx,0,8,0C,00,00,00,00,00,00,00,
588119,00000398,false,Rx,0,8,00,00,00,00,00,00,00,00,
591419,00000121,false,Rx,0,8,88,C0,22,00,00,00,00,01,
591539,00000122,false,Rx,0,8,FF,01,00,00,43,44,43,43,
591603,00000123,false,Rx,0,8,08,00,00,00,00,00,01,35,
592042,00000124,false,Rx,0,8,00,00,0A,00,00,00,00,00,
592153,000004F0,false,Rx,1,8,4A,0D,2A,26,5C,1A,11,02,
592203,00000036,false,Rx,0,8,02,ED,22,01,10,00,20,05,
592334,00000037,false,Rx,0,8,05,00,00,10,00,40,00,00,
593158,00000038,false,Rx,0,8,01,00,00,00,60,39,06,00,
593231,00000039,false,Rx,0,8,00,00,00,00,00,00,00,00,
593814,00000419,false,Rx,0,8,64,70,9A,CF,69,65,84,00,
598536,000001AB,false,Rx,0,8,A1,22,93,40,00,90,00,00,
598624,000001AC,false,Rx,0,8,00,28,00,00,00,00,00,00,
598895,000001E6,false,Rx,0,8,F4,F8,CF,02,00,00,00,00,
599160,000001BB,false,Rx,0,8,6B,89,CF,02,00,00,00,0A,
599396,00000405,false,Rx,0,8,22,D0,00,00,00,00,00,00,
599671,000001BC,false,Rx,0,8,32,00,00,00,02,00,00,00,
599892,00000410,false,Rx,0,8,A3,90,53,3C,B4,6A,FF,FF,
600136,000001BD,false,Rx,0,8,00,00,00,00,00,00,00,00,
600370,00000411,false,Rx,0,8,BD,71,50,50,00,00,44,05,
600634,000001E7,false,Rx,0,8,00,00,22,03,20,01,00,00,
600870,00000412,false,Rx,0,8,CC,E0,00,00,00,00,00,00,
601098,00000413,false,Rx,0,8,F5,10,00,41,00,00,00,00,
601348,0000048F,false,Rx,0,8,AD,10,41,00,05,00,00,00,
601599,00000414,false,Rx,0,8,87,A0,00,00,28,00,00,00,
601864,00000416,false,Rx,0,8,55,00,00,00,00,00,00,00,
602152,00000417,false,Rx,0,8,BF,00,00,00,00,01,00,00,
602407,00000418,false,Rx,0,8,68,E0,00,00,14,0C,00,00,
614051,000000A1,false,Rx,0,8,43,6A,07,8A,D4,EC,A2,00,
614252,000000A2,false,Rx,0,8,00,00,00,00,00,00,00,00,
614499,000000A3,false,Rx,0,8,00,40,01,00,00,00,00,00,
632025,000004F0,false,Rx,1,8,4A,0D,2A,26,5C,1A,11,02,
633800,00000419,false,Rx,0,8,64,70,9A,CF,69,65,84,00,
634705,0000010B,false,Rx,0,8,57,46,26,00,00,00,00,01,
634881,0000010C,false,Rx,0,8,FF,01,00,00,43,48,44,44,
635114,0000010D,false,Rx,0,8,08,00,00,00,00,00,01,35,
635377,0000010E,false,Rx,0,8,00,00,0A,00,00,00,00,00,
641220,00000121,false,Rx,0,8,F7,EC,27,00,00,00,00,01,
641308,00000122,false,Rx,0,8,FF,01,00,00,43,44,43,43,
641638,00000123,false,Rx,0,8,08,00,00,00,00,00,01,35,
641816,00000124,false,Rx,0,8,00,00,0A,00,00,00,00,00,
642101,00000036,false,Rx,0,8,7D,C1,27,01,10,00,20,05,
642641,00000037,false,Rx,0,8,05,00,00,10,00,40,00,00,
642718,00000038,false,Rx,0,8,01,00,00,00,60,39,06,00,
642870,00000039,false,Rx,0,8,00,00,00,00,00,00,00,00,
646099,000003AA,false,Rx,0,8,FF,00,D0,00,54,00,00,00,
651849,00000487,false,Rx,1,8,00,00,00,00,00,00,00,00,
652133,00000642,false,Rx,1,8,FF,FF,FF,FF,FF,FF,00,00,
654797,00000495,false,Rx,0,8,49,00,00,00,00,00,00,00,
659217,00000419,false,Rx,0,8,8B,80,9B,CF,69,65,84,00,
664175,000000A1,false,Rx,0,8,7F,9B,0C,8A,D4,EC,A2,00,
664276,000000A2,false,Rx,0,8,00,00,00,00,00,00,00,00,
664626,000000A3,false,Rx,0,8,00,40,01,00,00,00,00,00,
665110,00000448,false,Rx,0,8,7F,00,00,00,00,00,00,00,
668297,00000566,false,Rx,0,8,16,02,00,00,00,00,FF,FF,
672056,000004F0,false,Rx,1,8,4A,0D,2A,26,5C,1A,11,02,
679040,0000036F,false,Rx,0,8,91,21,01,00,00,00,00,00,
679122,0000037F,false,Rx,0,8,F4,10,52,24,41,02,00,00,
681585,00000444,false,Rx,0,8,0C,90,25,46,00,50,00,00,
682813,000002AB,false,Rx,0,8,5E,49,EB,0C,0C,00,00,00,
683153,000002AC,false,Rx,0,8,00,FF,FF,00,00,40,00,50,
683288,000002AD,false,Rx,0,8,00,01,00,40,FF,FF,FF,0F,
683519,000002AE,false,Rx,0,8,1E,0C,FF,3F,00,01,00,00,
684112,000002B6,false,Rx,0,8,D2,46,EB,00,00,00,00,40,
684453,000002B7,false,Rx,0,8,93,01,C1,08,00,04,00,00,
684575,000002B8,false,Rx,0,8,B2,61,11,00,00,00,00,00,
684863,000002B9,false,Rx,0,8,0A,00,00,00,00,00,00,00,
684982,0000010B,false,Rx,0,8,5A,80,2B,00,00,00,00,01,
685194,000002C1,false,Rx,0,8,A6,61,76,21,00,41,00,A1,
685286,0000010C,false,Rx,0,8,FF,01,00,00,43,48,44,44,
686222,000002C2,false,Rx,0,8,40,00,00,00,00,00,00,00,
686776,0000010D,false,Rx,0,8,08,00,00,00,00,00,01,35,
686881,000002C3,false,Rx,0,8,00,00,00,00,00,00,00,00,
686971,0000010E,false,Rx,0,8,00,00,0A,00,00,00,00,00,
687250,000002C4,false,Rx,0,8,00,00,00,00,00,00,00,00,
687301,000002E1,false,Rx,0,8,A7,15,EB,00,00,00,00,00,
687599,00000251,false,Rx,0,8,0C,DE,EA,00,00,00,00,00,
687747,000002E2,false,Rx,0,8,00,00,00,00,00,7E,00,04,
687796,00000252,false,Rx,0,8,00,00,00,00,03,00,00,00,
687850,000002E3,false,Rx,0,8,00,00,00,00,00,00,72,01,
687965,00000253,false,Rx,0,8,00,00,00,00,52,00,80,46,
688305,000002E4,false,Rx,0,8,02,00,00,00,00,00,00,00,
691231,00000121,false,Rx,0,8,4F,ED,2C,00,00,00,00,01,
691324,00000122,false,Rx,0,8,FF,01,00,00,43,44,43,43,
691644,00000123,false,Rx,0,8,08,00,00,00,00,00,01,35,
691760,00000124,false,Rx,0,8,00,00,0A,00,00,00,00,00,
691934,000004A3,false,Rx,1,8,80,00,48,0B,3E,00,00,00,
692313,00000036,false,Rx,0,8,C5,C0,2C,01,10,00,20,05,
692651,000004A4,false,Rx,1,8,FF,FF,FF,00,00,00,00,00,
692927,00000037,false,Rx,0,8,05,00,00,10,00,40,00,00,
693012,00000038,false,Rx,0,8,01,00,00,00,60,39,06,00,
693370,00000039,false,Rx,0,8,00,00,00,00,00,00,00,00,
698248,000001AB,false,Rx,0,8,69,DB,98,40,00,90,00,00,
698443,000001AC,false,Rx,0,8,00,28,00,00,00,00,00,00,
699474,00000419,false,Rx,0,8,8B,80,9B,CF,69,65,84,00,
711556,00000444,false,Rx,0,8,00,A0,25,46,44,50,00,00,
713663,00000236,false,Rx,0,8,20,80,EA,00,30,63,34,6C,
713807,00000237,false,Rx,0,8,00,04,94,00,00,5D,1D,00,
713870,00000238,false,Rx,0,8,00,00,0C,00,00,00,00,00,
713913,00000151,false,Rx,0,8,0D,60,EA,A0,C8,00,28,15,
714153,00000239,false,Rx,0,8,00,00,00,00,01,00,00,00,
714543,00000152,false,Rx,0,8,12,14,14,00,00,00,00,00,
714833,000000A1,false,Rx,0,8,1A,98,11,8A,D4,EC,A2,00,
714914,00000153,false,Rx,0,8,00,00,00,00,00,00,00,00,
715114,000000A2,false,Rx,0,8,00,00,00,00,00,00,00,00,
715323,00000154,false,Rx,0,8,00,00,00,00,00,00,00,00,
715593,000000A3,false,Rx,0,8,00,40,01,00,00,00,00,00,
715785,000001F6,false,Rx,0,8,34,19,EA,00,00,00,00,00,
716013,000002FB,false,Rx,0,8,22,8C,EA,00,0C,15,C3,C3,
716260,000001F7,false,Rx,0,8,00,00,DC,00,00,00,00,00,
716566,000002FC,false,Rx,0,8,00,00,12,15,00,00,00,96,
716938,000001F8,false,Rx,0,8,00,69,00,64,00,00,00,00,
717263,000002FD,false,Rx,0,8,00,00,00,00,00,1C,10,EA,
717747,000001F9,false,Rx,0,8,19,00,A0,C8,14,00,19,00,
717816,000002FE,false,Rx,0,8,00,00,72,01,00,28,00,00,
717868,0000025B,false,Rx,0,8,EE,F5,EA,4C,40,20,00,00,
717953,00000326,false,Rx,0,8,A1,FB,EA,00,10,00,00,00,
718282,0000025C,false,Rx,0,8,00,00,00,00,BD,68,15,00,
718459,00000327,false,Rx,0,8,00,00,00,00,01,00,00,00,
718694,0000025D,false,Rx,0,8,00,C8,00,00,00,80,C0,70,
718965,00000328,false,Rx,0,8,DC,00,19,00,00,69,00,00,
719173,0000025E,false,Rx,0,8,2E,07,0E,04,00,00,00,00,
719419,00000329,false,Rx,0,8,A0,64,00,00,00,00,00,00,
719665,00000331,false,Rx,0,8,20,A1,EA,F1,C8,A0,2C,97,
719902,00000226,false,Rx,0,8,41,E6,ED,FF,00,20,00,02,
720134,000002FF,false,Rx,0,8,94,7C,00,00,00,00,00,00,
720372,00000227,false,Rx,0,8,02,C4,07,09,00,F0,FF,07,
720979,00000316,false,Rx,0,8,A5,4B,78,04,00,80,0A,00,
721343,00000472,false,Rx,0,8,5C,EC,00,40,08,41,00,45,
721947,00000317,false,Rx,0,8,00,00,05,00,00,00,00,00,
722258,00000473,false,Rx,0,8,5F,24,00,25,00,00,00,78,
722350,00000332,false,Rx,0,8,00,00,00,00,00,00,00,00,
722438,00000474,false,Rx,0,8,30,DB,00,00,00,00,00,00,
722500,00000333,false,Rx,0,8,00,00,00,1C,0C,40,20,A0,
722545,0000048B,false,Rx,0,8,CB,F2,00,1E,04,00,00,00,
722598,00000334,false,Rx,0,8,C8,00,00,00,5C,70,B7,8F,
722796,0000048C,false,Rx,0,8,00,00,00,00,00,00,00,00,
724343,00000405,false,Rx,0,8,7B,E0,00,00,00,01,00,00,
724465,00000419,false,Rx,0,8,E0,90,9B,CF,65,65,84,00,
724508,00000061,false,Rx,0,8,9E,0A,12,00,00,05,00,00,
724555,00000062,false,Rx,0,8,02,02,00,01,40,FF,00,FF,
724753,00000063,false,Rx,0,8,00,00,05,00,00,08,FD,00,
724981,00000064,false,Rx,0,8,04,00,00,04,FF,FA,00,00,
731508,000000FF,false,Rx,0,8,CB,10,00,00,00,00,02,00,
732120,00000394,false,Rx,0,8,2A,22,1A,49,00,00,00,00,
732307,000003C3,false,Rx,0,8,45,10,31,30,36,00,00,00,
732665,000003E0,false,Rx,0,8,37,00,01,00,04,02,00,00,
733303,000003E5,false,Rx,0,8,69,10,00,00,00,00,00,00,
733588,000003E6,false,Rx,0,8,A1,40,00,00,00,00,00,00,
733759,0000041A,false,Rx,0,8,CC,10,12,00,50,01,00,00,
734020,0000041B,false,Rx,0,8,BE,70,00,00,00,00,00,00,
734303,0000041C,false,Rx,0,8,84,D0,E8,00,00,00,00,00,
734595,00000422,false,Rx,0,8,FA,20,01,00,00,00,04,00,
734829,0000010B,false,Rx,0,8,9D,44,30,00,00,00,00,01,
735108,00000432,false,Rx,0,8,03,20,02,00,00,00,00,00,
735316,0000010C,false,Rx,0,8,FF,01,00,00,43,48,44,44,
735537,00000464,false,Rx,0,8,6C,30,F0,FF,38,7F,05,00,
735788,0000010D,false,Rx,0,8,07,00,00,00,00,00,01,35,
736036,0000010E,false,Rx,0,8,00,00,0A,00,00,00,00,00,
736446,00000435,false,Rx,0,8,3C,80,00,40,00,00,00,FF,
736722,00000442,false,Rx,0,8,CE,20,11,81,00,00,00,00,
736958,00000445,false,Rx,0,8,D6,20,00,00,00,00,00,18,
738998,000001F1,false,Rx,0,8,88,D1,37,01,00,00,28,00,
739189,00000415,false,Rx,0,8,40,13,10,00,08,01,00,00,
739431,000001F2,false,Rx,0,8,00,00,00,00,00,00,00,00,
739857,000002FF,false,Rx,0,8,83,B9,00,F0,3F,00,00,00,
742309,00000036,false,Rx,0,8,0D,C2,31,01,10,00,20,05,
742392,00000037,false,Rx,0,8,05,00,00,10,00,40,00,00,
742734,00000038,false,Rx,0,8,01,00,00,00,60,39,06,00,
742886,00000039,false,Rx,0,8,00,00,00,00,00,00,00,00,
751438,00000444,false,Rx,0,8,01,B0,25,46,55,50,00,00,
751627,00000475,false,Rx,0,8,12,00,00,00,00,00,00,00,
751907,00000496,false,Rx,0,8,12,00,00,00,00,00,00,00,
753238,000002BF,false,Rx,0,8,FF,FF,FF,00,00,00,00,00,
753535,0000047F,false,Rx,0,8,FF,FF,FF,FF,FF,FF,FF,FF,
753737,00000653,false,Rx,0,8,0A,19,03,01,02,2A,00,00,
759279,00000474,false,Rx,0,8,50,B5,00,00,00,00,00,02,
762910,000000C5,false,Rx,1,8,00,00,00,00,00,00,00,00,
763062,00000244,false,Rx,1,8,00,00,00,00,00,00,00,00,
763378,0000041F,false,Rx,1,8,00,0C,00,00,00,00,00,00,
763669,000004B4,false,Rx,1,8,01,00,0D,40,10,60,44,02,
763937,00000405,false,Rx,0,8,7B,E0,00,00,00,01,00,00,
764099,000004B5,false,Rx,1,8,08,00,F0,07,00,00,00,00,
764196,00000419,false,Rx,0,8,E0,90,9B,CF,65,65,84,00,
764266,000004B7,false,Rx,1,8,08,00,F0,07,00,00,00,00,
764434,00000516,false,Rx,0,8,61,02,00,00,00,00,FF,FF,
764674,000004CA,false,Rx,1,8,00,00,00,00,00,00,00,00,
764743,000000A1,false,Rx,0,8,13,1D,16,8A,D4,EC,A2,00,
765206,000004CC,false,Rx,1,8,08,00,00,2A,00,00,03,00,
765275,000000A2,false,Rx,0,8,00,00,00,00,00,00,00,00,
765674,000004CE,false,Rx,1,8,14,01,FF,FF,FF,FF,FF,FF,
765746,000000A3,false,Rx,0,8,00,40,01,00,00,00,00,00,
766128,000004D7,false,Rx,1,8,23,01,00,00,00,00,00,00,
766403,000003E0,false,Rx,0,8,95,10,01,00,44,03,00,00,
766585,000004D8,false,Rx,1,8,41,10,F6,F0,40,F2,1E,CC,
767127,000004DD,false,Rx,1,8,00,00,FE,00,04,00,00,00,
767581,000004DF,false,Rx,1,8,00,00,08,00,00,00,00,00,
767827,000004E7,false,Rx,1,8,00,30,00,00,00,00,69,00,
768107,000004E8,false,Rx,1,8,FF,FF,FF,29,FF,FF,FF,00,
768372,000004E9,false,Rx,1,8,00,00,00,00,00,00,00,00,
768652,000004EA,false,Rx,1,8,00,00,00,00,00,00,00,00,
768964,000004EB,false,Rx,1,8,04,68,2A,25,00,00,00,00,
769202,000004EC,false,Rx,1,8,FF,FF,FF,FF,FF,FF,FF,0F,
769456,000004ED,false,Rx,1,8,FF,FF,FF,FF,FF,FF,FF,1F,
769763,000004EE,false,Rx,1,8,FF,FF,00,00,00,00,00,00,
770148,000004EF,false,Rx,1,8,60,00,60,00,29,14,00,00,
770310,0000063D,false,Rx,1,8,00,80,00,00,00,00,00,00,
770613,0000063E,false,Rx,1,8,FF,FF,FF,FF,FF,FF,FF,FF,
770829,0000063F,false,Rx,1,8,00,10,00,C4,FF,00,00,00,
771085,00000640,false,Rx,1,8,FF,FF,FF,00,FF,FF,FF,00,
771396,00000641,false,Rx,1,8,FF,FF,FF,FF,0F,FF,FF,FF,
771662,00000646,false,Rx,1,8,00,00,00,80,01,00,00,00,
774039,00000401,false,Rx,0,8,30,D0,10,00,00,01,00,00,
774156,00000061,false,Rx,0,8,0B,20,17,00,00,05,00,00,
774990,00000062,false,Rx,0,8,02,02,00,01,40,FF,00,FF,
775106,00000063,false,Rx,0,8,00,00,05,00,00,08,FF,00,
775181,00000064,false,Rx,0,8,04,00,00,04,FF,FA,00,00,
779486,0000036F,false,Rx,0,8,28,31,01,00,00,00,00,00,
779580,000002FF,false,Rx,0,8,83,B9,00,F0,3F,00,00,00,
779629,0000037F,false,Rx,0,8,22,20,52,24,41,02,00,00,
786805,000003E5,false,Rx,0,8,F9,20,01,00,00,00,00,00,
788060,000001A1,false,Rx,0,8,00,E9,00,FE,F7,7F,FF,00,
788158,0000011B,false,Rx,0,8,B8,B5,01,05,80,08,A8,02,
788449,0000012B,false,Rx,0,8,FF,4F,01,06,00,00,08,00,
788947,0000011C,false,Rx,0,8,00,05,20,00,22,00,01,01,
789298,0000012C,false,Rx,0,8,00,00,01,00,00,64,00,00,
789403,000001A2,false,Rx,0,8,30,00,00,00,00,00,00,00,
789885,000001A3,false,Rx,0,8,00,00,00,00,00,00,00,00,
789944,000001A4,false,Rx,0,8,FE,07,00,00,00,00,00,00,
791638,00000444,false,Rx,0,8,01,B0,25,46,55,50,00,00,
796442,000003E0,false,Rx,0,8,66,20,01,00,54,03,00,00,
797528,0000033B,false,Rx,0,8,42,FD,00,00,00,00,00,00,
797633,0000033C,false,Rx,0,8,00,00,00,00,F0,00,00,00,
797956,00000356,false,Rx,0,8,72,5E,00,00,00,00,00,00,
798150,00000161,false,Rx,0,8,0A,7F,01,03,00,00,00,02,
798566,0000033D,false,Rx,0,8,00,00,00,00,00,00,00,00,
799250,00000162,false,Rx,0,8,FF,FC,01,00,00,00,00,00,
799372,000001AB,false,Rx,0,8,18,83,9D,40,70,90,00,00,
799416,0000033E,false,Rx,0,8,00,00,00,00,00,00,00,00,
799459,000001AC,false,Rx,0,8,00,28,00,00,00,00,00,00,
799530,00000357,false,Rx,0,8,00,00,00,00,00,00,00,00,
799862,00000410,false,Rx,0,8,A3,90,53,3C,B4,6A,FF,FF,
800030,00000358,false,Rx,0,8,00,00,00,00,00,00,00,00,
800250,00000411,false,Rx,0,8,BD,71,50,50,00,00,44,05,
800505,00000359,false,Rx,0,8,00,00,00,00,00,00,00,00,
800745,00000412,false,Rx,0,8,CC,E0,00,00,00,00,00,00,
801211,00000413,false,Rx,0,8,F5,10,00,41,00,00,00,00,
801292,00000474,false,Rx,0,8,F0,07,00,00,00,00,00,04,
801535,00000414,false,Rx,0,8,87,A0,00,00,28,00,00,00,
801955,00000416,false,Rx,0,8,55,00,00,00,00,00,00,00,
802306,00000417,false,Rx,0,8,BF,00,00,00,00,01,00,00,
802822,00000418,false,Rx,0,8,68,E0,00,00,14,0C,00,00,
804029,00000405,false,Rx,0,8,7B,E0,00,00,00,01,00,00,
805029,00000419,false,Rx,0,8,E0,90,9B,CF,65,65,84,00,
809280,00000111,false,Rx,0,8,D6,55,4F,01,00,00,00,00,
809369,00000112,false,Rx,0,8,00,00,00,00,00,00,00,00,
809751,00000113,false,Rx,0,8,00,00,00,00,00,00,00,00,
809835,00000114,false,Rx,0,8,00,00,00,00,00,00,00,00,
814738,000000A1,false,Rx,0,8,25,5E,1B,8A,D4,EC,A2,00,
814834,000000A2,false,Rx,0,8,00,00,00,00,00,00,00,00,
815194,000000A3,false,Rx,0,8,00,40,01,00,00,00,00,00,
821508,00000444,false,Rx,0,8,F3,D0,20,46,55,50,00,00,
824284,00000061,false,Rx,0,8,B3,21,1C,00,00,05,00,00,
824372,00000062,false,Rx,0,8,02,02,00,01,40,FF,00,FF,
824721,00000063,false,Rx,0,8,00,00,05,00,00,08,FF,00,
824890,00000121,false,Rx,0,8,EF,F8,00,00,00,00,00,00,
825132,00000064,false,Rx,0,8,04,00,00,04,FF,FA,00,00,
825380,00000122,false,Rx,0,8,33,00,00,00,28,28,28,28,
825624,00000123,false,Rx,0,8,00,00,00,00,00,00,00,04,
825888,00000124,false,Rx,0,8,00,00,00,00,00,00,00,00,
826210,000003E5,false,Rx,0,8,F9,20,01,00,00,00,00,00,
829238,00000419,false,Rx,0,8,78,A0,9B,CF,61,65,84,00,
834507,00000036,false,Rx,0,8,69,B3,01,01,10,00,30,01,
834595,00000037,false,Rx,0,8,00,00,00,10,00,40,00,00,
834973,00000038,false,Rx,0,8,02,00,00,00,60,39,01,00,
835107,00000039,false,Rx,0,8,09,00,00,00,00,00,00,00,
836493,000003E0,false,Rx,0,8,66,20,01,00,54,03,00,00,
838555,0000011B,false,Rx,0,8,27,DD,06,05,80,08,A8,02,
838714,0000012B,false,Rx,0,8,60,27,06,06,00,00,08,00,
838777,0000011C,false,Rx,0,8,00,05,20,00,22,00,01,01,
838820,0000012C,false,Rx,0,8,00,00,01,00,00,64,00,00,
839778,00000474,false,Rx,0,8,F0,07,00,00,00,00,00,04,
846132,000003AA,false,Rx,0,8,FF,00,D0,00,54,00,00,00,
853013,00000487,false,Rx,1,8,00,00,00,00,00,00,00,00,
853205,0000030B,false,Rx,0,8,A9,33,00,00,04,00,00,00,
853274,00000642,false,Rx,1,8,FF,FF,FF,FF,FF,FF,00,00,
853362,0000030C,false,Rx,0,8,00,00,04,00,11,00,A0,0F,
853663,0000030D,false,Rx,0,8,00,00,00,00,FF,00,00,00,
853887,00000419,false,Rx,0,8,0B,B0,98,CF,61,65,84,00,
854103,0000030E,false,Rx,0,8,00,00,00,05,21,00,00,FE,
854662,00000495,false,Rx,0,8,49,00,00,00,00,00,00,00,
859927,00000474,false,Rx,0,8,90,69,00,00,00,00,00,06,
861351,00000444,false,Rx,0,8,F3,D0,20,46,55,50,00,00,
864122,00000561,false,Rx,0,8,63,02,00,00,00,00,FF,FF,
864549,00000448,false,Rx,0,8,7F,00,00,00,00,00,00,00,
864704,000000A1,false,Rx,0,8,EC,6F,20,8A,D4,EC,A2,00,
864984,000000A2,false,Rx,0,8,00,00,00,00,00,00,00,00,
865246,000000A3,false,Rx,0,8,00,40,01,00,00,00,00,00,
866218,000003E5,false,Rx,0,8,F9,20,01,00,00,00,00,00,
868190,0000010B,false,Rx,0,8,37,B3,04,00,00,00,00,00,
868374,0000010C,false,Rx,0,8,D1,00,00,00,28,28,28,28,
868644,0000010D,false,Rx,0,8,08,00,00,00,00,00,00,35,
868901,0000010E,false,Rx,0,8,00,00,00,00,00,00,00,00,
869134,0000019B,false,Rx,0,8,2E,8F,02,00,00,E4,00,00,
869427,0000019C,false,Rx,0,8,00,00,00,00,00,00,0B,00,
869647,0000019D,false,Rx,0,8,00,10,00,01,00,00,00,00,
869912,0000019E,false,Rx,0,8,00,00,00,00,00,32,00,00,
874198,00000061,false,Rx,0,8,D0,BA,21,00,00,05,00,00,
874396,00000062,false,Rx,0,8,02,02,00,01,40,FF,00,FF,
874648,00000063,false,Rx,0,8,00,00,05,00,00,08,FF,00,
874918,00000064,false,Rx,0,8,04,00,00,04,FF,FA,00,00,
875409,00000121,false,Rx,0,8,46,D1,05,00,00,00,00,00,
875652,00000122,false,Rx,0,8,EF,00,00,00,28,28,28,28,
875902,00000123,false,Rx,0,8,08,00,00,00,00,00,00,35,
876172,000003E0,false,Rx,0,8,66,20,01,00,54,03,00,00,
876426,00000124,false,Rx,0,8,00,00,0A,00,00,00,00,00,
878347,000001E1,false,Rx,0,8,3E,09,02,02,00,00,00,00,
878559,000001E2,false,Rx,0,8,00,00,00,00,00,00,00,00,
879323,0000036F,false,Rx,0,8,20,41,01,00,00,00,00,00,
879567,0000037F,false,Rx,0,8,9B,30,52,24,41,02,00,00,
884453,00000036,false,Rx,0,8,94,A9,06,01,10,00,30,05,
884633,00000037,false,Rx,0,8,00,00,00,10,00,40,00,40,
884950,00000038,false,Rx,0,8,02,01,00,00,60,39,01,00,
885368,00000039,false,Rx,0,8,09,00,00,00,00,00,00,00,
888056,000001A1,false,Rx,0,8,9C,76,05,FE,F7,7F,64,00,
888167,0000011B,false,Rx,0,8,54,E4,0B,05,80,08,A8,02,
888418,0000012B,false,Rx,0,8,13,1E,0B,06,00,00,08,00,
888654,0000011C,false,Rx,0,8,00,05,20,00,22,00,01,01,
888900,0000012C,false,Rx,0,8,00,00,01,00,00,64,00,00,
889145,000001A2,false,Rx,0,8,00,00,00,00,00,08,00,00,
889407,000001A3,false,Rx,0,8,FF,F3,3F,00,00,00,00,00,
889654,000001A4,false,Rx,0,8,FE,07,00,00,00,00,00,00,
889961,000001F1,false,Rx,0,8,FB,E8,3A,01,00,00,28,00,
890215,000001F2,false,Rx,0,8,00,00,00,00,00,00,00,00,
892872,000004A3,false,Rx,1,8,80,00,48,0B,3E,00,00,00,
893122,000004A4,false,Rx,1,8,FF,FF,FF,00,00,00,00,00,
893863,00000419,false,Rx,0,8,0B,B0,98,CF,61,65,84,00,
896141,000002C1,false,Rx,0,8,55,C8,01,00,00,41,00,A1,
896358,000002C2,false,Rx,0,8,40,00,00,00,00,00,00,00,
896594,000002C3,false,Rx,0,8,00,00,00,00,00,00,00,00,
896868,000002C4,false,Rx,0,8,00,00,00,00,00,00,00,00,
897924,00000161,false,Rx,0,8,95,17,06,03,00,00,00,02,
898192,00000162,false,Rx,0,8,FF,FC,01,00,00,00,00,00,
898618,000001FB,false,Rx,0,8,AE,7A,01,00,00,00,00,00,
898947,000001FC,false,Rx,0,8,00,00,00,00,00,00,00,00,
899298,000001FD,false,Rx,0,8,00,1A,03,00,00,00,00,00,
899400,000001AB,false,Rx,0,8,1C,9F,A2,40,70,90,00,00,
899750,000001FE,false,Rx,0,8,00,00,00,00,00,00,00,00,
900137,000001AC,false,Rx,0,8,00,28,00,00,00,00,00,00,
900428,00000474,false,Rx,0,8,91,72,00,00,00,00,00,08,
901407,00000444,false,Rx,0,8,F3,D0,20,46,55,50,00,00,
912900,00000244,false,Rx,1,8,00,00,00,00,00,00,00,00,
913016,000004E8,false,Rx,1,8,FF,FF,FF,29,FF,FF,FF,00,
913298,00000646,false,Rx,1,8,00,00,00,80,01,00,00,00,
914888,000000A1,false,Rx,0,8,E3,84,25,8A,D4,EC,A2,00,
915466,000000A2,false,Rx,0,8,00,00,00,00,00,00,00,00,
915761,000000A3,false,Rx,0,8,00,40,01,00,00,00,00,00,
916244,000003A1,false,Rx,0,8,C8,9B,AE,00,FF,FF,FF,FF,
916355,000003A2,false,Rx,0,8,00,00,00,00,00,00,00,00,
918438,0000010B,false,Rx,0,8,0C,FF,09,00,00,00,00,00,
918534,0000010C,false,Rx,0,8,4D,01,00,00,28,28,28,28,
919026,0000010D,false,Rx,0,8,08,00,00,00,00,00,00,35,
919420,0000019B,false,Rx,0,8,51,A3,07,00,00,E4,00,00,
919537,0000010E,false,Rx,0,8,00,00,00,00,00,00,00,00,
919585,0000019C,false,Rx,0,8,00,00,00,00,00,00,0B,00,
919648,00000226,false,Rx,0,8,21,6A,EF,FF,FA,20,09,42,
920139,0000019D,false,Rx,0,8,00,10,00,01,00,00,00,00,
920603,00000227,false,Rx,0,8,02,C4,07,09,00,F1,FF,07,
920656,0000019E,false,Rx,0,8,00,00,00,00,00,32,00,00,
920702,000002FF,false,Rx,0,8,83,B9,00,F0,3F,00,00,00,
920951,00000419,false,Rx,0,8,BE,C0,98,CF,5D,65,84,00,
921093,00000316,false,Rx,0,8,EA,B1,79,A4,0F,80,0A,00,
921355,00000472,false,Rx,0,8,5C,EC,00,40,08,41,00,45,
921580,00000317,false,Rx,0,8,00,00,05,00,00,00,00,00,
921813,00000473,false,Rx,0,8,5F,24,00,25,00,00,00,78,
922083,00000474,false,Rx,0,8,91,72,00,00,00,00,00,08,
924144,00000061,false,Rx,0,8,23,24,26,00,00,05,00,00,
924386,00000062,false,Rx,0,8,02,02,00,01,40,FF,00,FF,
924645,00000063,false,Rx,0,8,00,00,05,00,00,08,FF,00,
924907,00000064,false,Rx,0,8,04,00,00,04,FF,FA,00,00,
925408,00000121,false,Rx,0,8,2E,43,0A,00,00,00,00,00,
925652,00000122,false,Rx,0,8,5F,01,00,00,28,28,28,28,
925907,00000123,false,Rx,0,8,08,00,00,00,00,00,00,35,
926155,00000124,false,Rx,0,8,00,00,0A,00,00,00,00,00,
931373,000000FF,false,Rx,0,8,CB,10,00,00,00,00,02,00,
931974,00000394,false,Rx,0,8,2A,22,1A,49,00,00,00,00,
932165,000003C3,false,Rx,0,8,45,10,31,30,36,00,00,00,
932412,000003E0,false,Rx,0,8,66,20,01,00,54,03,00,00,
933383,000003E5,false,Rx,0,8,F9,20,01,00,00,00,00,00,
933485,000003E6,false,Rx,0,8,A1,40,00,00,00,00,00,00,
933535,0000041A,false,Rx,0,8,CC,10,12,00,50,01,00,00,
934149,0000041B,false,Rx,0,8,BE,70,00,00,00,00,00,00,
934218,0000041C,false,Rx,0,8,84,D0,E8,00,00,00,00,00,
934267,00000422,false,Rx,0,8,FA,20,01,00,00,00,04,00,
934672,00000036,false,Rx,0,8,99,6F,0B,01,10,00,30,05,
934749,00000432,false,Rx,0,8,03,20,02,00,00,00,00,00,
934925,00000037,false,Rx,0,8,00,00,00,10,00,40,00,40,
935325,00000435,false,Rx,0,8,3C,80,00,40,00,00,00,FF,
935661,00000038,false,Rx,0,8,02,01,00,00,60,39,01,00,
936217,00000039,false,Rx,0,8,09,00,00,00,00,00,00,00,
936415,00000442,false,Rx,0,8,CE,20,11,81,00,00,00,00,
936633,00000444,false,Rx,0,8,F3,D0,20,46,55,50,00,00,
936878,00000445,false,Rx,0,8,D6,20,00,00,00,00,00,18,
937255,00000464,false,Rx,0,8,6C,30,F0,FF,38,7F,05,00,
937996,0000011B,false,Rx,0,8,96,3E,10,05,80,08,A8,02,
938238,0000012B,false,Rx,0,8,D1,C4,10,06,00,00,08,00,
938479,0000011C,false,Rx,0,8,00,05,20,00,22,00,01,01,
938733,0000012C,false,Rx,0,8,00,00,01,00,00,64,00,00,
939950,00000474,false,Rx,0,8,91,72,00,00,00,00,00,08,
947124,000004E8,false,Rx,1,8,FF,FF,FF,29,FF,FF,FF,00,
951859,00000475,false,Rx,0,8,12,00,00,00,00,00,00,00,
951957,00000496,false,Rx,0,8,12,00,00,00,00,00,00,00,
953551,000002BF,false,Rx,0,8,FF,FF,FF,00,00,00,00,00,
953647,0000047F,false,Rx,0,8,FF,FF,FF,FF,FF,FF,FF,FF,
953966,00000419,false,Rx,0,8,50,D0,8D,CF,5D,65,84,00,
954036,00000653,false,Rx,0,8,0A,19,03,01,02,2A,00,00,
956814,000000C7,false,Rx,1,8,00,00,00,00,00,00,00,00,
960899,00000474,false,Rx,0,8,F1,1C,00,00,00,00,00,0A,
961771,00000563,false,Rx,1,8,65,02,00,00,00,00,FF,FF,
964760,000000A1,false,Rx,0,8,D3,A9,2A,8A,D4,EC,A2,00,
964859,000000A2,false,Rx,0,8,00,00,00,00,00,00,00,00,
965203,000000A3,false,Rx,0,8,00,40,01,00,00,00,00,00,
966809,000000C5,false,Rx,1,8,00,00,00,00,00,00,00,00,
967065,00000244,false,Rx,1,8,00,00,00,00,00,00,00,00,
967326,000004B4,false,Rx,1,8,01,00,0D,40,10,60,44,02,
967572,000004B5,false,Rx,1,8,08,00,F0,07,00,00,00,00,
967878,000004B7,false,Rx,1,8,08,00,F0,07,00,00,00,00,
968141,000004CA,false,Rx,1,8,00,00,00,00,00,00,00,00,
968401,000004CC,false,Rx,1,8,08,00,00,2A,00,00,03,00,
968619,0000010B,false,Rx,0,8,AC,FF,0E,00,00,00,00,00,
968916,000004CE,false,Rx,1,8,14,01,FF,FF,FF,FF,FF,FF,
968991,000004D7,false,Rx,1,8,23,01,00,00,00,00,00,00,
969039,0000010C,false,Rx,0,8,96,01,00,00,43,48,44,44,
969103,0000019B,false,Rx,0,8,E9,A2,0C,00,00,E4,00,00,
969898,0000010D,false,Rx,0,8,08,00,00,00,00,00,00,35,
970630,000004D8,false,Rx,1,8,41,10,F6,F0,40,F2,1E,CC,
970879,0000019C,false,Rx,0,8,00,00,00,00,00,00,0B,00,
970966,000004DD,false,Rx,1,8,00,00,FE,00,04,00,00,00,
971016,0000010E,false,Rx,0,8,00,00,0A,00,00,00,00,00,
971079,0000019D,false,Rx,0,8,00,10,00,01,00,00,00,00,
972132,000004DF,false,Rx,1,8,00,00,08,00,00,00,00,00,
972635,0000019E,false,Rx,0,8,00,00,00,00,00,32,00,00,
972728,000004E7,false,Rx,1,8,00,30,00,00,00,00,69,00,
972780,000004E9,false,Rx,1,8,00,00,00,00,00,00,00,00,
972827,000004EA,false,Rx,1,8,00,00,00,00,00,00,00,00,
972900,000004EB,false,Rx,1,8,04,68,2A,26,00,00,00,00,
972985,000004EC,false,Rx,1,8,FF,FF,FF,FF,FF,FF,FF,0F,
973033,000004ED,false,Rx,1,8,FF,FF,FF,FF,FF,FF,FF,1F,
973390,000004EE,false,Rx,1,8,FF,FF,00,00,00,00,00,00,
974168,000004EF,false,Rx,1,8,60,00,60,00,29,14,00,00,
974434,000004F0,false,Rx,1,8,4A,0D,2A,26,5C,1A,11,02,
974940,00000401,false,Rx,0,8,30,D0,10,00,00,01,00,00,
975104,000004F1,false,Rx,1,8,00,C0,00,00,00,00,00,00,
975255,00000061,false,Rx,0,8,2E,E2,2B,00,00,05,00,00,
975314,000004F2,false,Rx,1,8,02,FF,DD,FF,03,01,00,00,
975366,00000062,false,Rx,0,8,02,02,00,01,40,FF,00,FF,
975702,000004F3,false,Rx,1,8,00,00,00,00,30,00,00,00,
975855,000004F9,false,Rx,1,8,E0,FF,FF,FF,FF,FF,FF,FF,
975924,00000063,false,Rx,0,8,00,00,05,00,00,08,FF,00,
976006,000004FE,false,Rx,1,8,69,23,00,03,CF,00,48,A8,
976052,00000121,false,Rx,0,8,A0,3B,0F,00,00,00,00,00,
976095,00000064,false,Rx,0,8,04,00,00,04,FF,FA,00,00,
976142,0000063D,false,Rx,1,8,00,80,00,00,00,00,00,00,
976184,00000122,false,Rx,0,8,A1,01,00,00,43,44,44,44,
977605,0000063E,false,Rx,1,8,FF,FF,FF,FF,FF,FF,FF,FF,
977785,00000123,false,Rx,0,8,08,00,00,00,00,00,00,35,
977852,0000063F,false,Rx,1,8,00,10,00,C4,FF,00,00,00,
977899,00000124,false,Rx,0,8,00,00,0A,00,00,00,00,00,
978004,00000640,false,Rx,1,8,FF,FF,FF,00,FF,FF,FF,00,
978058,00000641,false,Rx,1,8,FF,FF,FF,FF,0F,FF,FF,FF,
978427,00000646,false,Rx,1,8,00,00,00,80,01,00,00,00,
979430,0000036F,false,Rx,0,8,99,51,01,00,00,00,00,00,
980062,0000037F,false,Rx,0,8,93,40,52,24,41,02,00,00,
984594,00000036,false,Rx,0,8,05,B3,10,01,10,00,30,05,
984693,00000037,false,Rx,0,8,00,00,00,10,00,40,00,40,
984947,00000038,false,Rx,0,8,02,01,00,61,60,39,01,00,
985255,00000039,false,Rx,0,8,09,00,00,00,00,00,00,00,
987106,000004E8,false,Rx,1,8,FF,FF,FF,29,FF,FF,FF,00,
988097,000001A1,false,Rx,0,8,1D,02,0A,FE,F7,7F,64,00,
988195,0000011B,false,Rx,0,8,60,16,15,05,80,08,A8,02,
988439,0000012B,false,Rx,0,8,27,EC,15,06,00,00,08,00,
988676,0000011C,false,Rx,0,8,00,05,20,00,22,00,01,01,
988931,0000012C,false,Rx,0,8,00,00,01,00,00,64,00,00,
989180,000001A2,false,Rx,0,8,00,00,00,00,00,08,00,00,
989432,000001A3,false,Rx,0,8,FF,F3,3F,00,00,00,00,00,
989685,000001A4,false,Rx,0,8,FE,07,00,00,00,00,00,00,
994215,00000419,false,Rx,0,8,50,D0,8D,CF,5D,65,84,00,
996017,000002AB,false,Rx,0,8,2A,1E,02,0C,0C,00,00,00,
996110,000002AC,false,Rx,0,8,00,FF,FF,00,00,40,00,50,
996206,000002AD,false,Rx,0,8,00,01,00,40,FF,FF,FF,0F,
996494,000002AE,false,Rx,0,8,00,00,FF,3F,00,01,00,00,
996738,000002B6,false,Rx,0,8,2D,1F,02,00,01,00,00,40,
996969,000002EB,false,Rx,0,8,D7,FA,00,09,00,DC,FF,00,
997203,000000C7,false,Rx,1,8,00,00,00,00,00,00,00,00,
997269,000002B7,false,Rx,0,8,00,00,00,00,00,04,00,00,
997452,000002EC,false,Rx,0,8,00,00,00,00,00,00,00,00,
997959,00000161,false,Rx,0,8,E6,2E,0B,03,00,00,00,02,
998195,000002B8,false,Rx,0,8,00,00,00,00,00,00,00,00,
998526,00000162,false,Rx,0,8,FF,FC,01,00,00,00,00,00,
998683,000002B9,false,Rx,0,8,0A,00,00,00,00,00,00,00,
999192,000002ED,false,Rx,0,8,00,00,00,00,00,00,00,00,
999259,000002D6,false,Rx,0,8,0F,A9,00,00,00,00,00,00,
999490,000002EE,false,Rx,0,8,00,00,00,00,00,00,00,00,
999805,000002D7,false,Rx,0,8,00,00,00,00,03,00,00,00,
1000243,000001AB,false,Rx,0,8,EA,B7,A7,40,70,90,00,00,
1000436,000002D8,false,Rx,0,8,00,00,00,00,00,00,38,28,
1000489,000001AC,false,Rx,0,8,00,28,00,00,00,00,00,00,
1000840,00000251,false,Rx,0,8,9F,E7,01,00,00,00,00,00,
1001127,000002D9,false,Rx,0,8,00,00,00,00,00,00,00,00,
1001419,00000252,false,Rx,0,8,00,00,00,00,03,00,00,00,
1001989,000002E1,false,Rx,0,8,A1,5A,02,00,00,00,00,00,
1002120,00000253,false,Rx,0,8,00,00,00,00,00,00,80,28,
1002450,000002E2,false,Rx,0,8,00,00,00,00,00,7E,00,04,
1002560,0000033B,false,Rx,0,8,CE,4F,02,00,00,00,00,00,
1002663,000002E3,false,Rx,0,8,00,00,00,00,00,00,72,01,
1002705,0000033C,false,Rx,0,8,00,00,00,00,F0,00,00,00,
1002880,000002E4,false,Rx,0,8,02,00,00,00,00,00,00,00,
1003238,0000033D,false,Rx,0,8,00,00,00,00,00,00,00,00,
1003587,00000356,false,Rx,0,8,34,07,01,00,00,00,00,00,
1004119,0000033E,false,Rx,0,8,00,00,00,00,00,00,00,00,
1004199,00000357,false,Rx,0,8,00,00,00,00,00,00,00,00,
1004242,00000405,false,Rx,0,8,7B,E0,00,00,00,01,00,00,
1004589,00000358,false,Rx,0,8,00,00,00,00,00,00,00,00,
1004913,00000410,false,Rx,0,8,A3,90,53,3C,B4,6A,FF,FF,
1005070,00000359,false,Rx,0,8,00,00,00,00,00,00,00,00,
1005121,00000411,false,Rx,0,8,BD,71,50,50,00,00,44,05,
1005638,00000396,false,Rx,0,8,89,7F,00,09,00,DC,FF,00,
1006173,00000412,false,Rx,0,8,CC,E0,00,00,00,00,00,00,
1006227,00000397,false,Rx,0,8,00,00,00,00,00,00,00,00,
1006574,00000413,false,Rx,0,8,F5,10,00,41,00,00,00,00,
1006673,00000398,false,Rx,0,8,00,00,00,00,00,00,00,00,
1006990,00000414,false,Rx,0,8,87,A0,00,00,28,00,00,00,
1007279,00000474,false,Rx,0,8,51,AE,00,00,00,00,00,0C,
1007621,00000416,false,Rx,0,8,55,00,00,00,00,00,00,00,
1008109,00000417,false,Rx,0,8,BF,00,00,00,00,01,00,00,
1008174,00000418,false,Rx,0,8,68,E0,00,00,14,0C,00,00,
1009239,00000111,false,Rx,0,8,92,E5,50,01,00,00,00,00,
1009452,00000112,false,Rx,0,8,00,00,00,00,00,00,00,00,
1009667,00000113,false,Rx,0,8,00,00,00,00,00,00,00,00,
1009915,00000114,false,Rx,0,8,00,00,00,00,00,00,00,00,
1014911,000000A1,false,Rx,0,8,DC,42,2F,8A,D4,EC,A2,00,
1015044,000000A2,false,Rx,0,8,00,00,00,00,00,00,00,00,
1015104,000000A3,false,Rx,0,8,00,40,01,00,00,00,00,00,
1018741,0000010B,false,Rx,0,8,1A,73,13,00,00,00,00,00,
1018961,0000010C,false,Rx,0,8,C1,01,00,00,44,48,44,44,
1019032,0000010D,false,Rx,0,8,08,00,00,00,00,00,00,35,
1019077,0000010E,false,Rx,0,8,00,00,0A,00,00,00,00,00,
1019167,0000019B,false,Rx,0,8,27,02,11,00,00,E4,00,00,
1019566,0000019C,false,Rx,0,8,40,20,00,00,00,00,0B,09,
1019948,0000019D,false,Rx,0,8,00,10,00,01,00,00,00,00,
1020292,00000419,false,Rx,0,8,1A,E0,8D,CF,55,65,84,00,
1020415,0000019E,false,Rx,0,8,15,00,00,00,00,32,00,00,
1024338,00000061,false,Rx,0,8,53,27,30,00,00,05,00,00,
1024465,00000062,false,Rx,0,8,02,02,00,01,40,FF,00,FF,
1024796,00000063,false,Rx,0,8,00,00,05,00,00,08,FF,00,
1025018,00000064,false,Rx,0,8,04,00,00,04,FF,FA,00,00,
1025402,00000121,false,Rx,0,8,2C,75,14,00,00,00,00,00,
1025634,00000122,false,Rx,0,8,C7,01,00,00,44,44,44,44,
1025892,00000123,false,Rx,0,8,08,00,00,00,00,00,00,35,
1026138,00000124,false,Rx,0,8,00,00,0A,00,00,00,00,00,
1028121,000004E8,false,Rx,1,8,FF,FF,FF,29,FF,FF,FF,00,
1028952,000001E1,false,Rx,0,8,A1,61,05,02,00,00,00,00,
1029107,000001E2,false,Rx,0,8,00,00,00,00,00,00,00,00,
1034539,00000036,false,Rx,0,8,DF,69,15,01,10,00,30,05,
1034634,00000037,false,Rx,0,8,00,00,00,10,00,40,00,40,
1035018,00000038,false,Rx,0,8,02,01,00,57,91,3B,01,00,
1035111,00000039,false,Rx,0,8,00,00,00,00,00,00,00,00,
1037912,000000C7,false,Rx,1,8,00,00,00,00,00,00,00,00,
1038189,0000011B,false,Rx,0,8,7A,6F,1A,05,80,08,A8,02,
1038534,0000011C,false,Rx,0,8,00,05,20,00,22,00,01,01,
1038825,0000012B,false,Rx,0,8,3D,95,1A,06,00,00,08,00,
1039011,000001F1,false,Rx,0,8,64,80,3D,01,00,00,28,00,
1039258,0000012C,false,Rx,0,8,00,00,01,00,00,64,00,00,
1039517,000001F2,false,Rx,0,8,00,00,00,00,00,00,00,00,
1039825,00000474,false,Rx,0,8,51,AE,00,00,00,00,00,0C,
1046137,000003AA,false,Rx,0,8,FF,00,D0,00,54,00,00,00,
1053089,0000030B,false,Rx,0,8,CD,6A,02,00,04,00,00,00,
1053180,0000030C,false,Rx,0,8,00,00,0C,00,2C,00,A0,0F,
1053559,0000030D,false,Rx,0,8,00,00,00,00,FF,00,00,00,
1053680,0000030E,false,Rx,0,8,00,00,00,05,21,00,00,FE,
1054373,00000419,false,Rx,0,8,06,00,76,CF,55,65,84,00,
1054645,000001E6,false,Rx,0,8,7B,FB,00,00,00,00,00,00,
1055082,00000495,false,Rx,0,8,49,00,00,00,00,00,00,00,
1055219,000001E7,false,Rx,0,8,00,00,00,00,00,00,00,00,
1056265,000001BB,false,Rx,0,8,7A,60,00,00,00,00,00,00,
1056372,00000565,false,Rx,0,8,66,02,00,00,00,00,FF,FF,
1056501,000001BC,false,Rx,0,8,00,00,00,00,00,00,00,00,
1056743,00000236,false,Rx,0,8,5C,76,02,00,30,63,34,6C,
1056952,00000151,false,Rx,0,8,4D,76,02,A0,C8,00,28,15,
1057293,000001BD,false,Rx,0,8,00,00,00,00,00,00,00,00,
1057447,00000152,false,Rx,0,8,12,14,14,00,00,00,00,00,
1057715,000001F6,false,Rx,0,8,1E,50,02,00,00,00,00,0C,
1057968,00000153,false,Rx,0,8,00,00,00,00,00,00,00,00,
1058075,00000487,false,Rx,1,8,00,00,00,00,00,00,00,00,
1058280,000001F7,false,Rx,0,8,00,00,00,00,00,00,00,00,
1058461,00000154,false,Rx,0,8,00,00,00,00,00,00,00,00,
1058577,00000642,false,Rx,1,8,FF,FF,FF,FF,FF,FF,00,00,
1058704,000001F8,false,Rx,0,8,00,00,00,00,00,00,00,00,
1058944,000002FB,false,Rx,0,8,B3,AD,02,00,8F,15,C3,C3,
1059105,00000645,false,Rx,1,8,7F,86,07,39,EF,3B,56,00,
1059164,000001F9,false,Rx,0,8,00,00,A0,C8,14,00,00,00,
1059667,000002FC,false,Rx,0,8,00,00,12,15,00,00,7B,96,
1059744,00000237,false,Rx,0,8,00,04,94,00,00,5D,1D,00,
1059912,000002FD,false,Rx,0,8,00,00,00,00,00,1C,10,EA,
1060294,00000238,false,Rx,0,8,00,00,8F,00,00,00,00,00,
1061083,000002FE,false,Rx,0,8,00,00,72,01,00,28,00,00,
1061155,00000239,false,Rx,0,8,00,00,00,00,01,00,00,00,
1061198,00000326,false,Rx,0,8,B6,C5,02,00,10,00,00,00,
1061241,0000025B,false,Rx,0,8,54,D8,02,40,40,20,00,00,
1061395,00000327,false,Rx,0,8,00,00,00,00,01,00,00,00,
1061783,0000025C,false,Rx,0,8,00,00,00,00,FF,FF,14,00,
1061887,00000328,false,Rx,0,8,00,00,00,00,00,00,00,00,
1062119,0000025D,false,Rx,0,8,00,C8,00,00,00,80,C0,70,
1062601,00000329,false,Rx,0,8,A0,00,00,00,00,00,00,00,
1062705,0000025E,false,Rx,0,8,0E,07,0E,02,00,00,00,00,
1062949,00000331,false,Rx,0,8,06,66,02,F1,C8,A0,2C,97,
1063356,00000474,false,Rx,0,8,31,C0,00,00,00,00,00,0E,
1063708,00000332,false,Rx,0,8,00,00,00,00,00,00,00,00,
1063845,00000333,false,Rx,0,8,00,00,00,1C,0C,40,20,A0,
1064377,00000334,false,Rx,0,8,C8,00,00,00,00,00,00,00,
1064770,000000A1,false,Rx,0,8,B3,F3,34,8A,D4,EC,A2,00,
1065009,00000448,false,Rx,0,8,7F,00,00,00,00,00,00,00,
1065270,000000A2,false,Rx,0,8,00,00,00,00,00,00,00,00,
1065554,000000A3,false,Rx,0,8,00,40,01,00,00,00,00,00,
1067862,000000C7,false,Rx,1,8,00,00,00,E0,07,00,00,00,
1068416,0000010B,false,Rx,0,8,0C,6F,18,00,00,00,00,00,
1068672,0000010C,false,Rx,0,8,DB,01,00,00,44,48,44,44,
1068902,0000010D,false,Rx,0,8,07,00,00,00,00,00,00,35,
1069125,0000019B,false,Rx,0,8,D4,9C,16,00,00,E4,00,00,
1069397,0000010E,false,Rx,0,8,00,00,0A,00,00,00,00,00,
1069616,0000019C,false,Rx,0,8,40,20,00,00,00,00,0B,09,
1069883,0000019D,false,Rx,0,8,00,10,00,01,00,00,00,00,
1070173,0000019E,false,Rx,0,8,15,00,00,00,00,32,00,00,
1074585,00000061,false,Rx,0,8,2C,0B,35,00,00,05,00,00,
1074711,00000062,false,Rx,0,8,02,02,00,01,40,FF,00,FF,
1074766,00000063,false,Rx,0,8,00,00,05,00,00,08,FF,00,
1075124,00000064,false,Rx,0,8,04,00,00,04,FF,FA,00,00,
1075444,00000121,false,Rx,0,8,B7,4B,19,00,00,00,00,00,
1075935,00000122,false,Rx,0,8,DE,01,00,00,44,44,44,44,
1076016,00000123,false,Rx,0,8,08,00,00,00,00,00,00,35,
1076194,00000124,false,Rx,0,8,00,00,0A,00,00,00,00,00,
1079048,0000036F,false,Rx,0,8,4F,61,01,00,00,00,00,00,
1079585,0000037F,false,Rx,0,8,2A,50,52,24,41,02,00,00,
1084617,00000036,false,Rx,0,8,3E,06,1A,01,10,00,30,05,
1084712,00000037,false,Rx,0,8,00,00,00,10,00,40,00,40,
1085089,00000038,false,Rx,0,8,02,05,00,DF,D1,3B,01,00,
1085507,00000039,false,Rx,0,8,00,00,00,00,00,00,00,00,
1088082,000001A1,false,Rx,0,8,62,2E,0F,FE,F7,7F,64,00,
1088193,0000011B,false,Rx,0,8,8C,47,1F,05,80,08,A8,02,
1088437,0000012B,false,Rx,0,8,CB,BD,1F,06,00,00,08,00,
1088682,0000011C,false,Rx,0,8,00,05,20,00,22,00,01,01,
1088928,0000012C,false,Rx,0,8,00,00,01,00,00,64,00,00,
1089190,000001A2,false,Rx,0,8,00,00,00,00,00,08,00,00,
1089667,000001A3,false,Rx,0,8,FF,F3,3F,00,00,00,00,00,
1089748,000001A4,false,Rx,0,8,FE,07,00,00,00,00,00,00,
1090727,00000091,false,Rx,0,8,B0,87,00,00,00,00,00,00,
1090931,00000092,false,Rx,0,8,00,00,00,00,00,00,00,00,
1091195,00000093,false,Rx,0,8,00,00,00,00,00,00,00,00,
1091452,00000094,false,Rx,0,8,00,00,00,00,00,00,00,00,
1094135,00000419,false,Rx,0,8,06,00,76,CF,55,65,84,00,
1096220,000002C1,false,Rx,0,8,86,6A,02,21,00,41,00,A1,
1096308,000002C2,false,Rx,0,8,40,00,00,00,00,00,00,00,
1096714,0000034B,false,Rx,0,8,58,41,00,31,D8,0D,05,01,
1096822,000002C3,false,Rx,0,8,00,00,00,00,00,00,00,00,
1097051,0000034C,false,Rx,0,8,00,00,00,00,00,00,00,00,
1097318,000002C4,false,Rx,0,8,00,00,00,00,00,00,00,00,
1097544,0000034D,false,Rx,0,8,00,00,00,00,00,00,00,00,
1097807,0000034E,false,Rx,0,8,00,00,00,00,00,00,00,00,
1098089,000000C7,false,Rx,1,8,00,00,00,E0,07,00,00,00,
1098156,00000161,false,Rx,0,8,24,F4,10,03,00,00,00,02,
1098302,00000380,false,Rx,0,8,E2,43,00,00,00,00,00,01,
1098542,000004A3,false,Rx,1,8,80,00,48,0B,3E,00,00,00,
1098807,00000162,false,Rx,0,8,FF,FC,01,00,00,00,00,00,
1099021,000004A4,false,Rx,1,8,FF,FF,FF,00,00,00,00,00,
1099185,000001FB,false,Rx,0,8,22,C8,03,00,00,00,00,00,
1099277,000001AB,false,Rx,0,8,22,4E,AC,40,70,90,00,00,
1099540,000001FC,false,Rx,0,8,00,00,00,00,00,00,00,00,
1099885,000001AC,false,Rx,0,8,00,28,00,00,00,00,00,00,
1100017,000001FD,false,Rx,0,8,00,1A,03,00,00,00,00,00,
1100295,00000382,false,Rx,0,8,E1,B8,00,00,00,01,00,00,
1100511,000001FE,false,Rx,0,8,00,00,00,00,00,00,00,00,
1100764,00000383,false,Rx,0,8,AA,AA,00,00,00,0C,00,00,
1100989,00000474,false,Rx,0,8,53,98,00,00,00,00,00,10,
1101277,00000384,false,Rx,0,8,26,8F,00,00,00,00,00,01,
1101744,000003B0,false,Rx,0,8,72,37,FF,C7,00,00,03,C0,
1102558,000003B1,false,Rx,0,8,9B,3C,FF,40,00,00,20,00,
1103533,000003B2,false,Rx,0,8,36,15,FF,02,29,2F,34,00,
1107617,00000427,false,Rx,0,8,1D,86,FF,00,80,0A,00,00,
1110098,0000042A,false,Rx,0,8,BB,4A,00,01,00,10,00,00,
1114713,000000A1,false,Rx,0,8,85,B0,39,8A,D4,EC,A2,00,
1114811,000000A2,false,Rx,0,8,00,00,00,00,00,00,00,00,
1115069,000000A3,false,Rx,0,8,00,40,01,00,00,00,00,00,
1115955,000003A1,false,Rx,0,8,EC,33,AF,00,FF,FF,FF,FF,
1116187,000003A2,false,Rx,0,8,00,00,00,00,00,00,00,00,
1118214,0000010B,false,Rx,0,8,FC,46,1D,00,00,00,00,00,
1118396,0000010C,false,Rx,0,8,EA,01,00,00,44,48,44,44,
1118658,0000010D,false,Rx,0,8,07,00,00,00,00,00,00,35,
1118925,0000010E,false,Rx,0,8,00,00,0A,00,00,00,00,00,
1119157,0000019B,false,Rx,0,8,D9,5A,1B,00,00,E4,00,00,
1119426,00000226,false,Rx,0,8,45,A2,F1,FF,00,20,09,42,
1119638,0000019C,false,Rx,0,8,40,20,00,00,00,00,0B,09,
1119872,00000227,false,Rx,0,8,02,C4,07,09,00,F1,FF,07,
1120118,0000019D,false,Rx,0,8,00,10,00,01,00,00,00,00,
1120352,00000316,false,Rx,0,8,CC,0B,7A,04,00,80,0A,00,
1120600,0000019E,false,Rx,0,8,15,00,00,00,00,32,00,00,
1120847,00000317,false,Rx,0,8,00,00,05,00,00,00,00,00,
1121090,000003CB,false,Rx,0,8,36,14,00,F4,00,00,00,00,
1121314,00000419,false,Rx,0,8,48,10,76,CF,49,65,84,00,
1121555,000003CC,false,Rx,0,8,36,31,34,30,33,34,31,00,
1121788,00000472,false,Rx,0,8,5C,EC,00,40,08,41,00,45,
1122121,00000473,false,Rx,0,8,5F,24,00,25,00,00,00,78,
1122376,00000474,false,Rx,0,8,53,98,00,00,00,00,00,10,
1122934,000002FF,false,Rx,0,8,83,B9,00,F0,3F,00,00,00,
1124171,00000061,false,Rx,0,8,AD,7F,3A,00,00,05,00,00,
1124417,00000062,false,Rx,0,8,02,02,00,01,40,FF,00,FF,
1124647,00000063,false,Rx,0,8,00,00,05,00,00,08,FF,00,
1124902,00000064,false,Rx,0,8,04,00,00,04,FF,FA,00,00,
1125400,00000121,false,Rx,0,8,49,34,1E,00,00,00,00,00,
1125624,00000122,false,Rx,0,8,EC,01,00,00,44,44,44,44,
1125895,00000123,false,Rx,0,8,08,00,00,00,00,00,00,35,
1126150,00000124,false,Rx,0,8,00,00,0A,00,00,00,00,00,
1129817,000000C7,false,Rx,1,8,00,00,00,E0,07,00,00,00,
1131123,000000FF,false,Rx,0,8,CB,10,00,00,00,00,02,00,
1131854,00000394,false,Rx,0,8,2A,22,1A,49,00,00,00,00,
1131999,000003C3,false,Rx,0,8,45,10,31,30,36,00,00,00,
1132292,000003E0,false,Rx,0,8,66,20,01,00,54,03,00,00,
1132939,000003E5,false,Rx,0,8,F9,20,01,00,00,00,00,00,
1133262,000003E6,false,Rx,0,8,A1,40,00,00,00,00,00,00,
1133444,0000041A,false,Rx,0,8,CC,10,12,00,50,01,00,00,
1133709,0000041B,false,Rx,0,8,BE,70,00,00,00,00,00,00,
1133971,0000041C,false,Rx,0,8,84,D0,E8,00,00,00,00,00,
1134738,00000422,false,Rx,0,8,FA,20,01,00,00,00,04,00,
1134878,00000036,false,Rx,0,8,A3,AA,1F,01,10,00,20,05,
1134960,00000037,false,Rx,0,8,00,00,00,10,00,40,00,00,
1135003,00000432,false,Rx,0,8,03,20,02,00,00,00,00,00,
1135306,00000038,false,Rx,0,8,02,05,00,00,B0,39,01,00,
1135491,00000039,false,Rx,0,8,00,00,00,00,00,00,00,00,
1136151,00000435,false,Rx,0,8,3C,80,00,40,00,00,00,FF,
1136528,00000442,false,Rx,0,8,CE,20,11,81,00,00,00,00,
1136799,00000380,false,Rx,0,8,E2,43,00,00,00,00,00,01,
1137167,00000444,false,Rx,0,8,F3,D0,20,46,55,50,00,00,
1137493,00000445,false,Rx,0,8,D6,20,00,00,00,00,00,18,
1138003,00000464,false,Rx,0,8,6C,30,F0,FF,38,7F,05,00,
1138099,00000382,false,Rx,0,8,E1,B8,00,00,00,01,00,00,
1138454,0000011B,false,Rx,0,8,5A,DB,24,05,80,08,A8,02,
1138558,0000012B,false,Rx,0,8,1D,21,24,06,00,00,08,00,
1138754,0000011C,false,Rx,0,8,00,05,20,00,22,00,01,01,
1138798,0000012C,false,Rx,0,8,00,00,01,00,00,64,00,00,
1139012,00000383,false,Rx,0,8,AA,AA,00,00,00,0C,00,00,
1139813,00000474,false,Rx,0,8,53,98,00,00,00,00,00,10,
1140582,00000384,false,Rx,0,8,26,8F,00,00,00,00,00,01,
1148305,00000566,false,Rx,0,8,16,02,00,00,00,00,FF,FF,
1149616,0000042A,false,Rx,0,8,BB,4A,00,01,00,10,00,00,
1151615,00000475,false,Rx,0,8,12,00,00,00,00,00,00,00,
1151789,00000146,false,Rx,0,8,78,8E,03,10,04,01,00,00,
1152033,00000496,false,Rx,0,8,12,00,00,00,00,00,00,00,
1152283,00000147,false,Rx,0,8,00,04,7D,00,40,00,00,00,
1152527,00000148,false,Rx,0,8,00,00,42,00,00,77,40,05,
1152762,000001B1,false,Rx,0,8,6C,27,03,00,72,00,00,00,
1153015,00000149,false,Rx,0,8,00,38,00,00,00,00,00,00,
1153247,000001B2,false,Rx,0,8,23,00,04,0E,8A,01,50,0F,
1153543,000002BF,false,Rx,0,8,FF,FF,FF,00,00,00,00,00,
1153741,000001B3,false,Rx,0,8,8A,29,00,00,50,50,50,50,
1153973,00000419,false,Rx,0,8,F5,20,53,CF,49,65,84,00,
1154210,000001B4,false,Rx,0,8,50,50,17,00,00,41,00,00,
1154457,0000047F,false,Rx,0,8,FF,FF,FF,FF,FF,FF,FF,FF,
1154736,00000653,false,Rx,0,8,0A,19,03,01,02,2A,00,00,
1164585,000000A1,false,Rx,0,8,8C,35,3E,8A,D4,EC,A2,00,
1164805,000000A2,false,Rx,0,8,00,00,00,00,00,00,00,00,
1165046,000000A3,false,Rx,0,8,00,40,01,00,00,00,00,00,
1168225,0000010B,false,Rx,0,8,E3,82,22,00,00,00,00,01,
1168402,0000010C,false,Rx,0,8,F3,01,00,00,44,48,44,44,
1168648,0000010D,false,Rx,0,8,07,00,00,00,00,00,00,35,
1168914,0000010E,false,Rx,0,8,00,00,0A,00,00,00,00,00,
1169144,0000019B,false,Rx,0,8,0F,06,20,00,00,E4,00,00,
1169402,0000019C,false,Rx,0,8,40,20,00,00,00,00,0B,09,
1169664,0000019D,false,Rx,0,8,00,10,00,01,00,00,00,00,
1169907,0000019E,false,Rx,0,8,15,00,00,00,00,32,00,00,
1170101,000000C5,false,Rx,1,8,00,00,00,00,00,00,00,00,
1170528,00000244,false,Rx,1,8,00,00,00,00,00,00,00,00,
1171008,000003E4,false,Rx,1,8,FE,00,00,00,00,00,00,00,
1171498,000004B4,false,Rx,1,8,01,00,0D,40,10,60,44,02,
1171977,000004B5,false,Rx,1,8,08,00,F0,07,00,00,00,00,
1172232,000004B7,false,Rx,1,8,08,00,F0,07,00,00,00,00,
1172540,000004CA,false,Rx,1,8,00,00,00,00,00,00,00,00,
1172797,000004CC,false,Rx,1,8,08,00,00,2A,00,00,03,00,
1173085,000004CE,false,Rx,1,8,14,01,FF,FF,FF,FF,FF,FF,
1173361,000004D7,false,Rx,1,8,23,01,00,00,00,00,00,00,
1173566,000004D8,false,Rx,1,8,41,10,F6,F0,40,F2,1E,CC,
1173869,000004DD,false,Rx,1,8,00,00,FE,00,04,00,00,00,
1174137,000004DF,false,Rx,1,8,00,00,08,00,00,00,00,00,
1174418,00000401,false,Rx,0,8,30,D0,10,00,00,01,00,00,
1174497,000004E7,false,Rx,1,8,00,30,00,00,00,00,69,00,
1174543,00000061,false,Rx,0,8,D2,53,3F,00,00,05,00,00,
1174630,000004E8,false,Rx,1,8,FF,FF,FF,29,FF,FF,FF,00,
1175160,00000062,false,Rx,0,8,02,02,00,01,40,FF,00,FF,
1175491,000004E9,false,Rx,1,8,00,00,00,00,00,00,00,00,
1175573,00000063,false,Rx,0,8,00,00,05,00,00,08,FF,00,
1175628,00000121,false,Rx,0,8,BB,EE,23,00,00,00,00,01,
1175692,000004EA,false,Rx,1,8,00,00,00,00,00,00,00,00,
1175874,00000064,false,Rx,0,8,04,00,00,04,FF,FA,00,00,
1176078,00000122,false,Rx,0,8,F4,01,00,00,44,44,44,44,
1176146,000004EB,false,Rx,1,8,04,68,2A,26,00,00,00,00,
1176584,00000123,false,Rx,0,8,08,00,00,00,00,00,00,35,
1176658,000004EC,false,Rx,1,8,FF,FF,FF,FF,FF,FF,FF,0F,
1176815,00000380,false,Rx,0,8,E2,43,00,00,00,00,00,01,
1177062,00000124,false,Rx,0,8,00,00,0A,00,00,00,00,00,
1177139,000004ED,false,Rx,1,8,FF,FF,FF,FF,FF,FF,FF,1F,
1177581,00000382,false,Rx,0,8,E1,B8,00,00,00,01,00,00,
1177664,000004EE,false,Rx,1,8,FF,FF,00,00,00,00,00,00,
1178603,000004EF,false,Rx,1,8,60,00,60,00,29,14,00,00,
1178728,000001E1,false,Rx,0,8,D2,58,08,02,00,00,00,00,
1178821,0000063D,false,Rx,1,8,00,80,00,00,00,00,00,00,
1178886,000001E2,false,Rx,0,8,00,00,00,00,00,00,00,00,
1179102,0000063E,false,Rx,1,8,FF,FF,FF,FF,FF,FF,FF,FF,
1179587,0000063F,false,Rx,1,8,00,10,00,C4,FF,00,00,00,
1179661,0000036F,false,Rx,0,8,F6,71,01,00,00,00,00,00,
1180202,00000640,false,Rx,1,8,FF,FF,FF,00,FF,FF,FF,00,
1180323,00000383,false,Rx,0,8,AA,AA,00,00,00,0C,00,00,
1180598,00000641,false,Rx,1,8,FF,FF,FF,FF,0F,FF,FF,FF,
1180655,0000037F,false,Rx,0,8,FC,60,52,24,41,02,00,00,
1181069,00000646,false,Rx,1,8,00,00,00,80,01,00,00,00,
1181143,00000384,false,Rx,0,8,26,8F,00,00,00,00,00,01,
1184631,00000036,false,Rx,0,8,FC,67,24,01,10,00,20,05,
1184859,00000037,false,Rx,0,8,00,00,00,10,00,40,00,00,
1184904,00000038,false,Rx,0,8,02,05,00,00,20,39,01,00,
1185385,00000039,false,Rx,0,8,00,00,00,00,00,00,00,00,
1188112,000001A1,false,Rx,0,8,1F,EB,14,FE,F7,7F,64,00,
1188205,0000011B,false,Rx,0,8,29,E2,29,05,80,08,A8,02,
1188487,0000012B,false,Rx,0,8,6E,18,29,06,00,00,08,00,
1188923,0000011C,false,Rx,0,8,00,05,20,00,22,00,01,01,
1189004,0000012C,false,Rx,0,8,00,00,01,00,00,64,00,00,
1189440,000001A2,false,Rx,0,8,00,00,00,00,00,08,00,00,
1189774,000001A3,false,Rx,0,8,FF,F3,3F,00,00,00,00,00,
1190030,0000042A,false,Rx,0,8,BB,4A,00,01,00,10,00,00,
1190133,000001A4,false,Rx,0,8,FE,07,00,00,00,00,00,00,
1190363,000001F1,false,Rx,0,8,21,50,40,01,00,00,28,00,
1190538,000001F2,false,Rx,0,8,00,00,00,00,00,00,00,00,
1190769,00000091,false,Rx,0,8,F6,DE,01,00,00,00,00,00,
1191137,00000092,false,Rx,0,8,00,00,00,00,00,00,00,00,
1191394,00000093,false,Rx,0,8,00,00,00,00,00,00,00,00,
1191820,00000094,false,Rx,0,8,00,00,00,00,00,00,00,00,
1193958,00000419,false,Rx,0,8,F5,20,53,CF,49,65,84,00,
1195766,000002AB,false,Rx,0,8,B9,E8,04,0C,0C,00,00,00,
1195965,000002AC,false,Rx,0,8,00,FF,FF,00,00,40,00,50,
1196232,000002AD,false,Rx,0,8,00,02,00,40,FF,FF,FF,0F,
1196488,000002AE,false,Rx,0,8,00,00,FF,3F,00,01,00,00,
1196764,000002B6,false,Rx,0,8,4E,66,04,00,01,00,00,40,
1196998,000002EB,false,Rx,0,8,F7,F0,01,09,00,E1,01,00,
1197243,000002B7,false,Rx,0,8,00,00,D8,01,00,04,00,00,
1197639,000002EC,false,Rx,0,8,12,00,00,00,00,00,00,00,
1197968,000002B8,false,Rx,0,8,00,00,00,00,00,00,00,00,
1198032,00000161,false,Rx,0,8,D2,DC,15,03,00,00,00,02,
1198408,000002B9,false,Rx,0,8,0A,00,00,00,00,00,00,00,
1198560,00000162,false,Rx,0,8,FF,FC,01,00,00,00,00,00,
1198739,000002D6,false,Rx,0,8,2F,ED,01,00,00,00,00,00,
1199123,000002ED,false,Rx,0,8,00,00,00,00,00,00,00,00,
1199678,000001AB,false,Rx,0,8,5B,54,B1,40,70,90,00,00,
1199751,000002D7,false,Rx,0,8,00,00,00,00,03,00,00,00,
1200454,000001AC,false,Rx,0,8,00,28,00,00,00,00,00,00,
1200613,000002D8,false,Rx,0,8,00,00,00,00,00,00,38,44,
1200674,000002EE,false,Rx,0,8,00,00,00,00,00,00,00,00,
1200717,000002D9,false,Rx,0,8,00,00,00,00,00,00,00,00,
1200761,00000251,false,Rx,0,8,F3,09,03,00,00,00,00,00,
1200977,000002E1,false,Rx,0,8,14,9D,04,00,00,00,00,00,
1201183,00000252,false,Rx,0,8,00,00,00,00,03,00,00,00,
1201426,000002E2,false,Rx,0,8,00,00,00,00,00,7E,00,04,
1201667,00000253,false,Rx,0,8,00,00,00,00,00,00,80,46,
1201922,000002E3,false,Rx,0,8,00,00,00,00,00,00,72,01,
1202150,0000033B,false,Rx,0,8,7B,88,04,00,00,00,00,00,
1202434,000002E4,false,Rx,0,8,02,00,00,00,00,00,00,00,
1202656,0000033C,false,Rx,0,8,00,00,00,00,F0,00,00,00,
1202905,00000356,false,Rx,0,8,FE,EC,02,00,00,00,00,00,
1203146,0000033D,false,Rx,0,8,00,00,00,00,00,00,00,00,
1203554,00000357,false,Rx,0,8,00,00,00,00,00,00,00,00,
1203774,0000033E,false,Rx,0,8,00,00,00,00,00,00,00,00,
1203932,00000358,false,Rx,0,8,00,00,00,00,00,00,00,00,
1204183,00000405,false,Rx,0,8,7B,E0,00,00,00,01,00,00,
1204448,00000359,false,Rx,0,8,00,00,00,00,00,00,00,00,
1204639,000001E6,false,Rx,0,8,6B,E7,03,C2,03,64,64,00,
1204880,00000396,false,Rx,0,8,32,8E,01,09,00,BE,01,00,
1205119,000001E7,false,Rx,0,8,00,00,22,03,00,01,00,00,
1205356,00000397,false,Rx,0,8,0C,00,00,00,00,00,00,00,
1206253,00000410,false,Rx,0,8,A3,90,53,3C,B4,6A,FF,FF,
1206586,00000398,false,Rx,0,8,00,00,00,00,00,00,00,00,
1206930,000001BB,false,Rx,0,8,B9,E6,03,C2,03,64,64,0A,
1206989,00000411,false,Rx,0,8,BD,71,50,50,00,00,44,05,
1207071,000001BC,false,Rx,0,8,32,00,00,00,02,00,00,00,
1207113,00000412,false,Rx,0,8,CC,E0,00,00,00,00,00,00,
1207157,000001BD,false,Rx,0,8,00,00,00,00,00,00,00,00,
1207314,00000413,false,Rx,0,8,F5,10,00,41,00,00,00,00,
1207731,00000414,false,Rx,0,8,87,A0,00,00,28,00,00,00,
1207829,00000416,false,Rx,0,8,55,00,00,00,00,00,00,00,
1208131,00000417,false,Rx,0,8,BF,00,00,00,00,01,00,00,
1208350,00000418,false,Rx,0,8,68,E0,00,00,14,0C,00,00,
1209244,00000111,false,Rx,0,8,D4,BC,51,01,00,00,00,00,
1209494,00000112,false,Rx,0,8,00,00,00,00,00,00,00,00,
1209802,00000113,false,Rx,0,8,00,00,00,00,00,00,00,00,
1210042,00000114,false,Rx,0,8,00,00,00,00,00,00,00,00,
1214538,000000A1,false,Rx,0,8,22,A7,43,8A,D4,EC,A2,00,
1214792,000000A2,false,Rx,0,8,00,00,00,00,00,00,00,00,
1215065,000000A3,false,Rx,0,8,00,40,01,00,00,00,00,00,
1216621,00000380,false,Rx,0,8,06,16,03,0C,0C,0C,0C,01,
1217657,00000382,false,Rx,0,8,36,4D,02,00,00,05,09,00,
1218242,0000010B,false,Rx,0,8,B3,79,27,00,00,00,00,01,
1218402,0000010C,false,Rx,0,8,F8,01,00,00,44,48,44,44,
1218688,0000010D,false,Rx,0,8,07,00,00,00,00,00,00,35,
1218917,0000010E,false,Rx,0,8,00,00,0A,00,00,00,00,00,
1219158,0000019B,false,Rx,0,8,70,2A,25,00,00,E4,00,00,
1219417,0000019C,false,Rx,0,8,40,20,00,00,00,00,0B,09,
1219743,0000019D,false,Rx,0,8,00,10,00,01,00,00,00,00,
1219922,00000383,false,Rx,0,8,89,14,01,10,01,00,00,00,
1220375,0000019E,false,Rx,0,8,15,00,00,00,00,32,00,00,
1220421,00000419,false,Rx,0,8,B7,30,53,CF,39,65,84,00,
1220667,00000384,false,Rx,0,8,D8,3D,02,01,00,FF,00,22,
1224365,00000061,false,Rx,0,8,73,2C,44,00,00,05,00,00,
1224458,00000062,false,Rx,0,8,02,02,00,01,40,FF,00,FF,
1224807,00000063,false,Rx,0,8,00,00,05,00,00,08,FF,00,
1224936,00000064,false,Rx,0,8,04,00,00,04,FF,FA,00,00,
1225413,00000121,false,Rx,0,8,09,E1,28,00,00,00,00,01,
1225643,00000122,false,Rx,0,8,F9,01,00,00,44,44,44,44,
1225932,00000256,false,Rx,0,8,36,E6,01,05,01,00,00,00,
1226284,00000123,false,Rx,0,8,08,00,00,00,00,00,00,35,
1226388,00000257,false,Rx,0,8,00,7C,00,00,83,04,C1,79,
1226626,00000124,false,Rx,0,8,00,00,0A,00,00,00,00,00,
1226955,00000258,false,Rx,0,8,00,5D,00,00,10,15,00,28,
1227389,000002E6,false,Rx,0,8,C0,FA,01,01,00,00,00,15,
1227716,00000259,false,Rx,0,8,EA,03,11,3C,F4,01,00,00,
1228223,000002E7,false,Rx,0,8,0A,00,00,00,00,00,00,00,
1228315,000003B6,false,Rx,0,8,AF,82,00,00,00,00,00,44,
1228377,000002E8,false,Rx,0,8,00,00,00,00,00,00,00,00,
1228431,000003B7,false,Rx,0,8,43,00,00,00,00,00,00,00,
1228664,000002E9,false,Rx,0,8,00,00,00,00,00,00,00,00,
1228856,000003B8,false,Rx,0,8,09,00,00,00,00,00,69,0E,
1229084,000003B9,false,Rx,0,8,00,00,00,00,00,00,00,00,
1229552,0000042A,false,Rx,0,8,CF,74,01,04,00,10,00,00,
1234543,00000036,false,Rx,0,8,F1,A1,29,01,10,00,20,05,
1234636,00000037,false,Rx,0,8,00,00,00,10,00,40,00,00,
1235138,00000038,false,Rx,0,8,02,05,00,00,20,39,01,00,
1235224,00000039,false,Rx,0,8,00,00,00,00,00,00,00,00,
1238265,0000011B,false,Rx,0,8,B6,8A,2E,05,80,08,A8,02,
1238355,0000012B,false,Rx,0,8,F1,70,2E,06,00,00,08,00,
1238602,0000011C,false,Rx,0,8,00,05,20,00,22,00,01,01,
1238784,0000012C,false,Rx,0,8,00,00,01,00,00,64,00,00,
1244022,00000516,false,Rx,0,8,61,02,00,00,00,00,FF,FF,
1246330,000003AA,false,Rx,0,8,FF,00,D0,00,54,00,00,00,
1251926,00000146,false,Rx,0,8,02,A4,08,10,04,05,00,00,
1252021,00000147,false,Rx,0,8,00,04,7D,00,40,00,00,00,
1252417,00000148,false,Rx,0,8,00,00,42,00,00,7A,40,05,
1252487,00000149,false,Rx,0,8,00,38,00,08,00,00,00,00,
1252854,000001B1,false,Rx,0,8,33,8B,08,00,72,00,00,00,
1253113,0000030B,false,Rx,0,8,F9,5E,04,00,04,00,00,00,
1253212,000001B2,false,Rx,0,8,23,00,04,0E,8A,01,50,0F,
1253512,0000030C,false,Rx,0,8,00,00,0C,00,2C,00,A0,0F,
1253666,000001B3,false,Rx,0,8,8A,29,28,00,69,7F,70,7D,
1253911,0000030D,false,Rx,0,8,00,00,00,00,FF,00,00,00,
1254150,000001B4,false,Rx,0,8,68,7C,10,00,00,41,00,00,
1254478,0000030E,false,Rx,0,8,00,00,28,05,21,00,00,02,
1254658,00000419,false,Rx,0,8,90,40,26,CF,39,65,84,00,
1254892,00000495,false,Rx,0,8,49,00,00,00,00,00,00,00,
1256669,00000380,false,Rx,0,8,06,16,03,0C,0C,0C,0C,01,
1257635,00000382,false,Rx,0,8,36,4D,02,00,00,05,09,00,
1258618,00000383,false,Rx,0,8,89,14,01,10,01,00,00,00,
1259651,00000151,false,Rx,0,8,F8,B1,04,A0,C8,00,28,15,
1259743,00000152,false,Rx,0,8,12,14,14,00,00,00,00,00,
1259985,000001F6,false,Rx,0,8,AB,97,04,00,00,00,00,0C,
1260207,00000153,false,Rx,0,8,00,00,00,00,00,00,00,00,
1260460,000001F7,false,Rx,0,8,00,00,00,00,00,00,00,00,
1260702,00000154,false,Rx,0,8,00,00,00,00,00,00,00,00,
1260968,000001F8,false,Rx,0,8,00,00,00,00,00,00,00,00,
1261191,000002FB,false,Rx,0,8,06,6A,04,00,8F,15,C3,C3,
1261474,000001F9,false,Rx,0,8,00,00,A0,C8,14,00,00,00,
1261680,000002FC,false,Rx,0,8,00,00,12,15,00,00,7B,96,
1261911,00000236,false,Rx,0,8,D2,DF,04,00,30,63,34,6C,
1262160,000002FD,false,Rx,0,8,00,00,00,00,00,1C,10,EA,
1262398,00000237,false,Rx,0,8,00,04,94,00,00,5E,1D,00,
1262650,000002FE,false,Rx,0,8,00,00,72,01,00,28,00,00,
1262899,00000238,false,Rx,0,8,00,00,8F,00,00,00,00,00,
1263142,00000326,false,Rx,0,8,03,02,04,00,10,00,00,00,
1263377,00000239,false,Rx,0,8,00,00,00,00,01,00,00,00,
1263637,00000327,false,Rx,0,8,00,00,00,00,01,00,00,00,
1263874,0000025B,false,Rx,0,8,D8,D0,04,40,40,20,00,00,
1264128,00000328,false,Rx,0,8,00,00,00,00,00,00,00,00,
1264367,0000025C,false,Rx,0,8,00,00,00,00,FF,FF,14,00,
1264602,000000A1,false,Rx,0,8,1E,56,48,8A,D4,EC,A2,00,
1264851,0000025D,false,Rx,0,8,00,C8,00,00,00,80,C0,70,
1265117,00000487,false,Rx,1,8,00,00,00,00,00,00,00,00,
1265180,000000A2,false,Rx,0,8,00,00,00,00,00,00,00,00,
1265428,0000025E,false,Rx,0,8,C0,07,0E,00,00,00,00,00,
1265553,00000642,false,Rx,1,8,FF,FF,FF,FF,FF,FF,00,00,
1265619,000000A3,false,Rx,0,8,00,40,01,00,00,00,00,00,
1265830,00000329,false,Rx,0,8,A0,00,00,00,00,00,00,00,
1266064,00000384,false,Rx,0,8,D8,3D,02,01,00,FF,00,22,
1266305,00000331,false,Rx,0,8,B3,A1,04,F1,C8,A0,2C,97,
1266553,00000448,false,Rx,0,8,7F,00,00,00,00,00,00,00,
1266798,00000332,false,Rx,0,8,00,00,00,00,00,00,00,00,
1267310,00000333,false,Rx,0,8,00,00,00,1C,0C,40,20,A0,
1267783,00000334,false,Rx,0,8,C8,00,00,00,00,00,00,00,
1268190,0000010B,false,Rx,0,8,89,9C,2C,00,00,00,00,01,
1268418,0000010C,false,Rx,0,8,FB,01,00,00,44,48,44,44,
1268683,0000010D,false,Rx,0,8,07,00,00,00,00,00,00,35,
1268936,0000010E,false,Rx,0,8,00,00,0A,00,00,00,00,00,
1269167,0000019B,false,Rx,0,8,F1,5E,2A,00,00,E4,00,00,
1269448,0000019C,false,Rx,0,8,40,20,00,00,00,00,0B,09,
1269674,0000042A,false,Rx,0,8,CF,74,01,04,00,10,00,00,
1269917,0000019D,false,Rx,0,8,00,10,00,01,00,00,00,00,
1270158,0000019E,false,Rx,0,8,15,00,00,00,00,32,00,00,
1274208,00000061,false,Rx,0,8,7E,EA,49,00,00,05,00,00,
1274409,00000062,false,Rx,0,8,02,02,00,01,40,FF,00,FF,
1274655,00000063,false,Rx,0,8,00,00,05,00,00,08,FF,00,
1274946,00000064,false,Rx,0,8,04,00,00,04,FF,FA,00,00,
1275686,00000643,false,Rx,1,8,00,FC,FF,FF,FF,FF,03,00,
1275778,00000121,false,Rx,0,8,95,85,2D,00,00,00,00,01,
1275917,00000122,false,Rx,0,8,FB,01,00,00,44,44,44,44,
1276177,00000123,false,Rx,0,8,08,00,00,00,00,00,00,35,
1276411,00000124,false,Rx,0,8,00,00,0A,00,00,00,00,00,
1279340,0000036F,false,Rx,0,8,5F,81,01,00,00,00,00,00,
1279440,0000037F,false,Rx,0,8,45,70,52,24,41,02,00,00,
1284641,00000036,false,Rx,0,8,02,3F,2E,01,10,00,20,05,
1284735,00000037,false,Rx,0,8,00,00,00,10,00,40,00,00,
1285118,00000038,false,Rx,0,8,02,05,00,00,20,39,01,00,
1285458,00000039,false,Rx,0,8,00,00,00,00,00,00,00,00,
1288230,000001A1,false,Rx,0,8,12,2D,19,FE,F7,7F,64,00,
1288326,0000011B,false,Rx,0,8,CF,90,33,05,80,08,A8,02,
1288463,0000012B,false,Rx,0,8,88,6A,33,06,00,00,08,00,
1288757,0000011C,false,Rx,0,8,00,05,20,00,22,00,01,01,
1289131,0000012C,false,Rx,0,8,00,00,01,00,00,64,00,00,
1289473,000001A2,false,Rx,0,8,00,00,00,00,00,08,00,00,
1289603,000001A3,false,Rx,0,8,FF,F3,3F,00,00,00,00,00,
1289762,000001A4,false,Rx,0,8,FE,07,00,00,00,00,00,00,
1290976,00000091,false,Rx,0,8,3C,35,02,00,00,00,00,00,
1291052,00000092,false,Rx,0,8,00,00,00,00,00,00,00,00,
1291204,00000093,false,Rx,0,8,00,00,00,00,00,00,00,00,
1291501,00000094,false,Rx,0,8,00,00,00,00,00,00,00,00,
1294417,00000419,false,Rx,0,8,90,40,26,CF,39,65,84,00,
1296391,000002C1,false,Rx,0,8,C0,33,03,21,00,41,00,A1,
1296471,000002C2,false,Rx,0,8,40,00,00,00,00,00,00,00,
1296573,00000380,false,Rx,0,8,06,16,03,0C,0C,0C,0C,01,
1296898,000002C3,false,Rx,0,8,00,00,00,00,00,00,00,00,
1297093,000002C4,false,Rx,0,8,00,00,00,00,00,00,00,00,
1297651,00000382,false,Rx,0,8,36,4D,02,00,00,05,09,00,
1297939,00000161,false,Rx,0,8,C8,A5,1A,03,00,00,00,02,
1298244,00000162,false,Rx,0,8,FF,FC,01,00,00,00,00,00,
1299032,000001FB,false,Rx,0,8,97,0F,05,00,00,00,00,00,
1299258,000001FC,false,Rx,0,8,00,00,00,00,00,00,00,00,
1299737,000001FD,false,Rx,0,8,00,1A,03,00,00,00,00,00,
1299808,000001AB,false,Rx,0,8,C4,3C,B6,40,70,90,00,00,
1300200,000001FE,false,Rx,0,8,00,00,00,00,00,00,00,00,
1300264,000001AC,false,Rx,0,8,00,28,00,00,00,00,00,00,
1300630,00000383,false,Rx,0,8,89,14,01,10,01,00,00,00,
1300691,00000384,false,Rx,0,8,D8,3D,02,01,00,FF,00,22,
1301670,000003B0,false,Rx,0,8,72,37,FF,C7,00,00,03,C0,
1302746,000003B1,false,Rx,0,8,9B,3C,FF,40,00,00,20,00,
1303594,000003B2,false,Rx,0,8,36,15,FF,02,29,2F,34,00,
1304889,000004A3,false,Rx,1,8,80,00,48,0B,3E,00,00,00,
1305123,000004A4,false,Rx,1,8,FF,FF,FF,00,00,00,00,00,
1308074,00000427,false,Rx,0,8,1D,86,FF,00,80,0A,00,00,
1309771,0000042A,false,Rx,0,8,CF,74,01,04,00,10,00,00,
1314761,000000A1,false,Rx,0,8,11,BD,4D,8A,D4,EC,A2,00,
1314863,000000A2,false,Rx,0,8,00,00,00,00,00,00,00,00,
1315202,000000A3,false,Rx,0,8,00,40,01,00,00,00,00,00,
1316149,000003A1,false,Rx,0,8,FC,69,B0,00,FF,FF,FF,FF,
1316242,000003A2,false,Rx,0,8,00,00,00,00,00,00,00,00,
1318355,0000010B,false,Rx,0,8,64,47,31,00,00,00,00,01,
1318466,0000010C,false,Rx,0,8,FD,01,00,00,44,48,44,44,
1318708,0000010D,false,Rx,0,8,07,00,00,00,00,00,00,35,
1319011,0000010E,false,Rx,0,8,00,00,0A,00,00,00,00,00,
1319215,00000226,false,Rx,0,8,2C,E2,F3,FF,00,20,09,42,
1319439,0000019B,false,Rx,0,8,8E,72,2F,00,00,E4,00,00,
1319903,00000227,false,Rx,0,8,02,C4,07,09,00,F1,FF,07,
1320216,0000019C,false,Rx,0,8,40,20,00,00,00,00,0B,09,
1320785,000002FF,false,Rx,0,8,83,B9,00,F0,3F,00,00,00,
1320935,0000019D,false,Rx,0,8,00,10,00,01,00,00,00,00,
1320998,00000316,false,Rx,0,8,E8,A3,7B,04,00,80,0A,00,
1321042,0000019E,false,Rx,0,8,15,00,00,00,00,32,00,00,
1321107,00000317,false,Rx,0,8,00,00,05,00,00,00,00,00,
1321377,00000419,false,Rx,0,8,90,50,26,CF,21,65,84,00,
1321601,00000472,false,Rx,0,8,5C,EC,00,40,08,41,00,45,
1321860,00000473,false,Rx,0,8,5F,24,00,25,00,00,00,78,
1322114,00000474,false,Rx,0,8,53,98,00,00,00,00,00,10,
1324446,00000061,false,Rx,0,8,8D,74,4E,00,00,05,00,00,
1324545,00000062,false,Rx,0,8,02,02,00,01,40,FF,00,FF,
1324957,00000063,false,Rx,0,8,00,00,05,00,00,08,FF,00,
1325028,00000064,false,Rx,0,8,04,00,00,04,FF,FA,00,00,
1325752,00000121,false,Rx,0,8,F4,EC,32,00,00,00,00,01,
1325911,00000122,false,Rx,0,8,FD,01,00,00,44,44,44,44,
1325960,00000123,false,Rx,0,8,08,00,00,00,00,00,00,35,
1326217,00000124,false,Rx,0,8,00,00,0A,00,00,00,00,00,
1329028,000001E1,false,Rx,0,8,9F,B0,0B,02,00,00,00,00,
1329122,000001E2,false,Rx,0,8,00,00,00,00,00,00,00,00,
1331041,000000FF,false,Rx,0,8,CB,10,00,00,00,00,02,00,
1331638,00000394,false,Rx,0,8,2A,22,1A,49,00,00,00,00,
1331814,000003C3,false,Rx,0,8,45,10,31,30,36,00,00,00,
1332076,000003E0,false,Rx,0,8,66,20,01,00,54,03,00,00,
1332827,000003E5,false,Rx,0,8,F9,20,01,00,00,00,00,00,
1333048,000003E6,false,Rx,0,8,A1,40,00,00,00,00,00,00,
1333293,0000041A,false,Rx,0,8,CC,10,12,00,50,01,00,00,
1333585,0000041B,false,Rx,0,8,BE,70,00,00,00,00,00,00,
1333850,0000041C,false,Rx,0,8,84,D0,E8,00,00,00,00,00,
1334104,00000422,false,Rx,0,8,FA,20,01,00,00,00,04,00,
1334352,00000036,false,Rx,0,8,CA,3D,33,01,10,00,20,05,
1334593,00000432,false,Rx,0,8,03,20,02,00,00,00,00,00,
1334829,00000037,false,Rx,0,8,00,00,00,10,00,40,00,00,
1335084,00000038,false,Rx,0,8,02,05,00,00,20,39,01,00,
1335331,00000039,false,Rx,0,8,00,00,00,00,00,00,00,00,
1336090,00000435,false,Rx,0,8,3C,80,00,40,00,00,00,FF,
1336360,00000442,false,Rx,0,8,CE,20,11,81,00,00,00,00,
1336593,00000444,false,Rx,0,8,F3,D0,20,46,55,50,00,00,
1336993,00000445,false,Rx,0,8,D6,20,00,00,00,00,00,18,
1337146,00000415,false,Rx,0,8,40,13,10,00,08,01,00,00,
1337696,00000464,false,Rx,0,8,6C,30,F0,FF,38,7F,05,00,
1338370,0000011B,false,Rx,0,8,07,69,38,05,80,08,A8,02,
1338450,0000012B,false,Rx,0,8,40,93,38,06,00,00,08,00,
1338839,0000011C,false,Rx,0,8,00,05,20,00,22,00,01,01,
1338964,0000012C,false,Rx,0,8,00,00,01,00,00,64,00,00,
1339045,000001F1,false,Rx,0,8,6C,B8,43,01,00,00,28,00,
1339346,000001F2,false,Rx,0,8,00,00,00,00,00,00,00,00,
1344959,00000561,false,Rx,0,8,63,02,00,00,00,00,FF,FF,
1351737,00000475,false,Rx,0,8,12,00,00,00,00,00,00,00,
1351809,00000146,false,Rx,0,8,7D,88,0D,10,04,05,00,00,
1352061,00000496,false,Rx,0,8,12,00,00,00,00,00,00,00,
1352270,00000147,false,Rx,0,8,00,04,7D,00,40,00,00,00,
1352519,00000148,false,Rx,0,8,00,00,42,00,00,7A,40,05,
1352750,000001B1,false,Rx,0,8,4C,A7,0D,00,72,00,00,00,
1353009,00000149,false,Rx,0,8,00,38,00,08,00,00,00,00,
1353238,000001B2,false,Rx,0,8,23,00,04,0E,8A,01,50,0F,
1353532,000002BF,false,Rx,0,8,FF,FF,FF,00,00,00,00,00,
1353717,000001B3,false,Rx,0,8,8A,29,28,00,69,7F,70,7D,
1353954,00000419,false,Rx,0,8,C8,60,F6,CE,21,65,84,00,
1354190,000001B4,false,Rx,0,8,68,7C,10,00,00,41,00,00,
1354457,0000047F,false,Rx,0,8,FF,FF,FF,FF,FF,FF,FF,FF,
1354691,000001E6,false,Rx,0,8,9D,CF,06,C2,03,64,64,00,
1354930,00000653,false,Rx,0,8,0A,19,03,01,02,2A,00,00,
1355195,000001E7,false,Rx,0,8,00,00,22,03,00,01,00,00,
1355967,000001BB,false,Rx,0,8,B6,0D,06,C2,03,64,64,0A,
1356254,000001BC,false,Rx,0,8,32,00,00,00,02,00,00,00,
1356520,000001BD,false,Rx,0,8,00,00,00,00,00,00,00,00,
1364772,000000A1,false,Rx,0,8,72,D0,52,8A,D4,EC,A2,00,
1364885,000000A2,false,Rx,0,8,00,00,00,00,00,00,00,00,
1365176,000000A3,false,Rx,0,8,00,40,01,00,00,00,00,00,
1368294,0000010B,false,Rx,0,8,15,3D,36,00,00,00,00,01,
1368424,0000010C,false,Rx,0,8,FE,01,00,00,44,48,44,44,
1368711,0000010D,false,Rx,0,8,07,00,00,00,00,00,00,35,
1368964,0000010E,false,Rx,0,8,00,00,0A,00,00,00,00,00,
1369257,0000019B,false,Rx,0,8,F3,B7,34,00,00,E4,00,00,
1369500,0000019C,false,Rx,0,8,40,20,00,00,00,00,0B,09,
1369799,0000019D,false,Rx,0,8,00,10,00,01,00,00,00,00,
1370046,0000019E,false,Rx,0,8,15,00,00,00,00,32,00,00,
1374215,00000061,false,Rx,0,8,45,76,53,00,00,05,00,00,
1374397,00000401,false,Rx,0,8,30,D0,10,00,00,01,00,00,
1374646,00000062,false,Rx,0,8,02,02,00,01,40,FF,00,FF,
1374911,00000063,false,Rx,0,8,00,00,05,00,00,08,FF,00,
1375155,00000064,false,Rx,0,8,04,00,00,04,FF,FA,00,00,
1375445,00000121,false,Rx,0,8,09,24,37,00,00,00,00,01,
1375660,00000122,false,Rx,0,8,FE,01,00,00,44,44,44,44,
1375913,00000123,false,Rx,0,8,08,00,00,00,00,00,00,35,
1376096,000000C5,false,Rx,1,8,00,00,00,00,00,00,00,00,
1376191,00000124,false,Rx,0,8,00,00,0A,00,00,00,00,00,
1376534,00000244,false,Rx,1,8,00,00,00,00,00,00,00,00,
1377015,0000041F,false,Rx,1,8,00,0C,00,00,00,00,00,00,
1377495,000004B4,false,Rx,1,8,01,00,0D,40,10,60,44,02,
1377971,000004B5,false,Rx,1,8,08,00,F0,07,00,00,00,00,
1378470,000004B7,false,Rx,1,8,08,00,F0,07,00,00,00,00,
1378744,000004CA,false,Rx,1,8,00,00,00,00,00,00,00,00,
1379029,000004CC,false,Rx,1,8,08,00,00,2A,00,00,03,00,
1379285,000004CE,false,Rx,1,8,14,01,FF,FF,FF,FF,FF,FF,
1379578,0000036F,false,Rx,0,8,E6,91,01,00,00,00,00,00,
1379659,000004D7,false,Rx,1,8,23,01,00,00,00,00,00,00,
1379761,0000037F,false,Rx,0,8,EC,80,52,24,41,02,00,00,
1379810,000004D8,false,Rx,1,8,41,10,F6,F0,40,F2,1E,CC,
1380287,000004DD,false,Rx,1,8,00,00,FE,00,04,00,00,00,
1380767,000004DF,false,Rx,1,8,00,00,08,00,00,00,00,00,
1381039,000004E7,false,Rx,1,8,00,30,00,00,00,00,69,00,
1381313,000004E8,false,Rx,1,8,FF,FF,FF,29,FF,FF,FF,00,
1381583,000004E9,false,Rx,1,8,00,00,00,00,00,00,00,00,
1381838,000004EA,false,Rx,1,8,00,00,00,00,00,00,00,00,
1382129,000004EB,false,Rx,1,8,04,68,2A,26,00,00,00,00,
1382380,000004EC,false,Rx,1,8,FF,FF,FF,FF,FF,FF,FF,0F,
1382690,000004ED,false,Rx,1,8,FF,FF,FF,FF,FF,FF,FF,1F,
1382960,000004EE,false,Rx,1,8,FF,FF,00,00,00,00,00,00,
1383221,000004EF,false,Rx,1,8,60,00,60,00,29,14,00,00,
1383475,0000063D,false,Rx,1,8,00,80,00,00,00,00,00,00,
1383761,0000063E,false,Rx,1,8,FF,FF,FF,FF,FF,FF,FF,FF,
1384035,0000063F,false,Rx,1,8,00,10,00,C4,FF,00,00,00,
1384313,00000640,false,Rx,1,8,FF,FF,FF,00,FF,FF,FF,00,
1384561,00000641,false,Rx,1,8,FF,FF,FF,FF,0F,FF,FF,FF,
1384789,00000036,false,Rx,0,8,B7,03,38,01,10,00,20,05,
1384899,00000646,false,Rx,1,8,00,00,00,80,01,00,00,00,
1385161,00000037,false,Rx,0,8,00,00,00,10,00,40,00,00,
1385716,00000038,false,Rx,0,8,02,17,00,00,20,39,01,00,
1386173,00000039,false,Rx,0,8,00,00,00,00,00,00,00,00,
1388203,000001A1,false,Rx,0,8,E1,B3,1E,FE,F7,7F,64,00,
1388287,0000011B,false,Rx,0,8,F1,41,3D,05,80,08,A8,02,
1388535,0000012B,false,Rx,0,8,B6,BB,3D,06,00,00,08,00,
1388736,0000011C,false,Rx,0,8,00,05,20,00,22,00,01,01,
1389026,0000012C,false,Rx,0,8,00,00,01,00,00,64,00,00,
1389319,000001A2,false,Rx,0,8,00,00,00,00,00,08,00,00,
1389488,000001A3,false,Rx,0,8,FF,F3,3F,00,00,00,00,00,
1390129,000001A4,false,Rx,0,8,FE,07,00,00,00,00,00,00,
1391044,00000091,false,Rx,0,8,7A,6C,03,00,00,00,00,00,
1391169,00000092,false,Rx,0,8,00,00,00,00,00,00,00,00,
1391218,00000093,false,Rx,0,8,00,00,00,00,00,00,00,00,
1391445,00000094,false,Rx,0,8,00,00,00,00,00,00,00,00,
1393978,00000419,false,Rx,0,8,C8,60,F6,CE,21,65,84,00,
1395719,000002AB,false,Rx,0,8,35,5A,06,0C,0C,00,00,00,
1395996,000002AC,false,Rx,0,8,00,FF,FF,00,00,40,00,50,
1396259,000002AD,false,Rx,0,8,00,02,00,40,FF,FF,FF,0F,
1396575,000002AE,false,Rx,0,8,00,00,FF,3F,00,01,00,00,
1396785,000002B6,false,Rx,0,8,C2,D4,06,00,01,00,00,40,
1397009,000002EB,false,Rx,0,8,2A,B6,02,09,04,01,00,00,
1397243,000002B7,false,Rx,0,8,00,00,D8,01,00,04,00,00,
1397498,000002EC,false,Rx,0,8,12,00,00,00,00,00,00,00,
1397742,000002B8,false,Rx,0,8,00,00,00,00,00,00,00,00,
1397994,00000161,false,Rx,0,8,3E,8D,1F,03,00,00,00,02,
1398236,000002B9,false,Rx,0,8,0A,00,00,00,00,00,00,00,
1398489,00000162,false,Rx,0,8,FF,FC,01,00,00,00,00,00,
1398730,000002D6,false,Rx,0,8,E5,06,02,00,00,00,00,00,
1398975,000002ED,false,Rx,0,8,00,00,00,00,00,00,00,00,
1399228,000002D7,false,Rx,0,8,00,00,00,00,03,00,00,00,
1399470,000002EE,false,Rx,0,8,00,00,00,00,00,00,00,00,
