Time Stamp,ID,Extended,Dir,Bus,LEN,D1,D2,D3,D4,D5,D6,D7,D8
2032987,00000121,false,Rx,0,8,6C,21,37,00,00,00,00,05,
2033029,00000122,false,Rx,0,8,FF,D9,67,1F,46,46,46,46,
2034387,00000123,false,Rx,0,8,11,03,00,00,00,00,01,35,
2034422,00000124,false,Rx,0,8,00,00,0A,00,00,00,20,40,
2037297,000004A3,false,Rx,0,8,80,00,48,0B,3E,00,00,00,
2037336,000003B2,false,Rx,0,8,36,15,FF,02,29,2F,34,00,
2037356,000004A4,false,Rx,0,8,FF,FF,FF,00,00,00,00,00,
2040269,00000036,false,Rx,0,8,55,AC,39,51,00,00,25,01,
2040449,00000037,false,Rx,0,8,00,00,00,10,00,40,00,00,
2040468,00000038,false,Rx,0,8,04,00,00,00,90,38,96,D4,
2040486,00000039,false,Rx,0,8,00,00,00,00,00,00,00,00,
2042591,000001AB,false,Rx,0,8,E2,1A,5B,50,70,38,00,00,
2043928,000001AC,false,Rx,0,8,00,28,00,00,00,00,00,00,
2043961,00000316,false,Rx,0,8,32,3C,D6,34,14,80,0A,00,
2043978,00000317,false,Rx,0,8,00,00,05,00,00,00,00,00,
2043996,000003CB,false,Rx,0,8,36,14,00,F4,00,00,00,00,
2044014,00000427,false,Rx,0,8,1D,86,FF,00,80,0A,00,00,
2046697,00000061,false,Rx,0,8,0D,54,3F,00,00,00,00,00,
2046732,000003CC,false,Rx,0,8,36,31,34,30,33,34,31,00,
2046750,00000062,false,Rx,0,8,02,02,00,02,40,FF,00,FF,
2046768,00000415,false,Rx,0,8,40,13,10,00,08,01,00,00,
2046799,00000063,false,Rx,0,8,00,00,05,00,00,08,FD,00,
2046817,00000474,false,Rx,0,8,93,44,00,00,00,00,00,14,
2047743,000000A3,false,Rx,0,8,00,40,01,00,00,00,00,00,
2047776,000002FF,false,Rx,0,8,E2,01,00,F1,3F,00,00,00,
2052973,0000042A,false,Rx,0,8,F4,DE,FF,01,00,10,00,00,
2060586,0000010B,false,Rx,0,8,C8,3F,3B,00,00,00,00,05,
2060625,0000010C,false,Rx,0,8,FF,F9,E7,1F,46,44,46,46,
2061610,0000010D,false,Rx,0,8,10,03,00,00,00,00,01,35,
2061642,000002C1,false,Rx,0,8,97,34,EA,21,00,41,00,A8,
2061660,0000010E,false,Rx,0,8,00,00,0A,00,00,C0,AB,57,
2061691,000002C2,false,Rx,0,8,0A,00,00,00,00,00,00,00,
2061708,000002C3,false,Rx,0,8,00,00,00,00,00,00,00,00,
2062820,000002C4,false,Rx,0,8,00,00,00,00,00,00,00,00,
2067669,000004E8,false,Rx,0,8,FF,FF,FF,05,FF,FF,FF,00,
2067706,00000161,false,Rx,0,8,A1,E5,18,03,00,00,00,02,
2067725,00000162,false,Rx,0,8,FF,FC,01,00,00,00,00,00,
2071879,00000563,false,Rx,0,8,65,02,00,00,00,00,FF,FF,
2075450,0000019B,false,Rx,0,8,FE,71,39,00,00,E4,00,00,
2075547,0000019C,false,Rx,0,8,40,20,00,00,00,00,0B,09,
2075567,0000019D,false,Rx,0,8,00,10,00,01,00,00,00,00,
2075585,0000019E,false,Rx,0,8,15,00,00,00,00,32,00,00,
2078358,0000011B,false,Rx,0,8,A6,D0,31,05,80,08,A8,02,
2078420,0000012B,false,Rx,0,8,E1,2A,31,06,00,00,08,00,
2078438,0000011C,false,Rx,0,8,00,05,20,00,22,00,01,01,
2078456,0000012C,false,Rx,0,8,00,00,01,00,00,64,00,00,
2078473,0000033B,false,Rx,0,8,D4,B7,D3,00,00,00,00,00,
2079572,0000033C,false,Rx,0,8,00,00,00,00,F0,00,00,00,
2079599,0000033D,false,Rx,0,8,00,00,00,00,00,00,00,00,
2079617,0000033E,false,Rx,0,8,00,00,00,00,00,00,00,00,
2082943,00000121,false,Rx,0,8,D4,20,3C,00,00,00,00,05,
2082979,00000122,false,Rx,0,8,FF,D9,67,1F,46,46,46,46,
2084374,00000123,false,Rx,0,8,11,03,00,00,00,00,01,35,
2084409,00000419,false,Rx,0,8,5F,40,83,D6,2D,79,8F,00,
2084427,00000124,false,Rx,0,8,00,00,0A,00,00,00,20,40,
2089624,00000036,false,Rx,0,8,A6,32,3E,51,00,00,25,01,
2090598,00000037,false,Rx,0,8,00,00,00,10,00,40,00,00,
2090631,00000038,false,Rx,0,8,04,00,00,00,90,38,96,D4,
2090649,00000039,false,Rx,0,8,00,00,00,00,00,00,00,00,
2091573,000002E6,false,Rx,0,8,DA,02,D0,01,00,00,00,15,
2091603,00000256,false,Rx,0,8,51,BF,D0,15,00,00,00,01,
2092575,000002E7,false,Rx,0,8,0A,00,00,00,00,00,00,00,
2092596,00000257,false,Rx,0,8,00,8B,42,19,86,07,00,8B,
2092613,000002E8,false,Rx,0,8,00,00,00,00,00,00,00,00,
2092631,00000258,false,Rx,0,8,0A,71,1E,00,10,15,00,1C,
2094413,000002E9,false,Rx,0,8,00,00,00,00,00,00,00,00,
2094497,00000259,false,Rx,0,8,43,05,8A,3C,28,02,00,00,
2094516,00000061,false,Rx,0,8,AC,2B,44,00,00,00,00,00,
2094535,00000062,false,Rx,0,8,02,02,00,02,40,FF,00,FF,
2094797,00000063,false,Rx,0,8,00,00,05,00,00,08,FD,00,
2094818,00000064,false,Rx,0,8,00,00,00,04,FF,FA,00,00,
2095590,000000A1,false,Rx,0,8,D3,AB,44,1A,00,00,00,00,
2095623,000000A2,false,Rx,0,8,00,00,00,00,00,00,00,00,
2095682,000000A3,false,Rx,0,8,00,40,01,00,00,00,00,00,
2097601,000003A1,false,Rx,0,8,75,5C,F9,00,FF,FF,FF,FF,
2097622,000003A2,false,Rx,0,8,00,00,00,00,00,00,00,00,
2097640,000001A1,false,Rx,0,8,12,2D,19,FE,F7,7F,64,00,
2097658,000002BF,false,Rx,0,8,FF,FF,FF,00,00,00,00,00,
2098559,000001A2,false,Rx,0,8,00,00,00,00,00,08,00,00,
2098581,0000036F,false,Rx,0,8,47,11,01,00,00,00,00,00,
2098599,000001A3,false,Rx,0,8,FF,F3,3F,00,00,00,00,00,
2098617,0000037F,false,Rx,0,8,55,90,52,24,41,02,00,00,
2099750,000001A4,false,Rx,0,8,FE,07,00,00,00,00,00,00,
2099788,0000047F,false,Rx,0,8,FF,FF,FF,FF,FF,FF,F3,FF,
2099807,00000653,false,Rx,0,8,0A,19,03,01,02,2A,00,00,
2103032,00000091,false,Rx,0,8,AA,7F,D1,00,00,00,00,00,
2103071,00000092,false,Rx,0,8,00,00,00,00,00,00,00,00,
2103089,00000093,false,Rx,0,8,00,00,00,00,00,00,00,00,
2103119,000001E6,false,Rx,0,8,BB,0B,A2,02,00,00,00,00,
2103137,00000094,false,Rx,0,8,00,00,00,00,00,00,00,00,
2103155,000001E7,false,Rx,0,8,00,00,22,03,20,01,00,00,
2103636,000001BB,false,Rx,0,8,96,5B,A2,02,00,00,00,0A,
2105085,000001BC,false,Rx,0,8,32,00,00,00,02,00,00,00,
2105118,000001BD,false,Rx,0,8,00,00,00,00,00,00,00,00,
2106618,000000C5,false,Rx,0,8,00,00,00,00,00,00,00,00,
2108402,00000244,false,Rx,0,8,FF,FF,FF,FF,FF,FF,FF,FF,
2108436,0000041F,false,Rx,0,8,00,0C,00,00,00,00,00,00,
2108472,000004B4,false,Rx,0,8,00,00,00,00,00,00,00,00,
2108490,000004B5,false,Rx,0,8,08,00,F0,07,00,00,00,00,
2108508,000004B7,false,Rx,0,8,08,00,F0,07,00,00,00,00,
2108526,000004CC,false,Rx,0,8,08,00,00,06,00,00,03,00,
2109686,000004CE,false,Rx,0,8,14,01,FF,FF,FF,FF,FF,FF,
2109721,000004D7,false,Rx,0,8,23,01,00,00,00,00,00,00,
2109739,000004D8,false,Rx,0,8,41,10,F0,F0,40,F2,1E,CC,
2109756,000004DD,false,Rx,0,8,00,00,FE,00,04,00,00,00,
2109791,000004DF,false,Rx,0,8,FF,03,0C,3F,00,00,00,00,
2110202,000004E7,false,Rx,0,8,00,30,00,00,00,00,69,00,
2110576,0000010B,false,Rx,0,8,69,40,40,00,00,00,00,05,
2110598,000004E8,false,Rx,0,8,FF,FF,FF,05,FF,FF,FF,00,
2111572,0000010C,false,Rx,0,8,FF,F9,E7,1F,46,44,46,46,
2111594,00000146,false,Rx,0,8,A4,94,15,10,04,01,00,00,
2111613,0000010D,false,Rx,0,8,10,03,00,00,00,00,01,35,
2111630,00000147,false,Rx,0,8,00,04,7D,00,40,00,00,00,
2112567,0000010E,false,Rx,0,8,00,00,0A,00,00,C0,AB,57,
2112587,00000148,false,Rx,0,8,00,00,00,00,00,90,40,05,
2112605,000000FF,false,Rx,0,8,CB,10,00,00,00,00,02,00,
2112623,00000149,false,Rx,0,8,00,00,00,00,00,00,00,00,
2113567,000004E9,false,Rx,0,8,12,00,00,34,00,00,50,00,
2113588,00000394,false,Rx,0,8,2A,22,1A,49,00,00,00,00,
2113607,000003C3,false,Rx,0,8,45,10,31,30,36,00,00,00,
2113625,000004EA,false,Rx,0,8,67,00,00,89,00,00,00,00,
2115257,000003E0,false,Rx,0,8,66,20,01,00,54,03,00,00,
2115290,000001B1,false,Rx,0,8,C2,4C,15,00,72,00,00,00,
2115308,000004EB,false,Rx,0,8,10,80,30,27,80,00,00,00,
2115343,000001B2,false,Rx,0,8,23,00,04,0F,0F,07,52,10,
2115361,000003E5,false,Rx,0,8,37,80,01,00,00,00,00,00,
2115379,000001B4,false,Rx,0,8,95,91,17,00,00,40,01,00,
2117024,0000041A,false,Rx,0,8,BB,A0,12,00,50,01,00,00,
2117094,000004EC,false,Rx,0,8,00,00,00,00,00,00,00,00,
2118506,0000041B,false,Rx,0,8,70,D0,00,00,00,00,00,00,
2118618,00000475,false,Rx,0,8,12,00,00,00,00,00,00,00,
2118635,0000041C,false,Rx,0,8,48,00,E0,00,00,00,00,00,
2118653,00000496,false,Rx,0,8,12,00,00,00,00,00,00,00,
2118670,000004ED,false,Rx,0,8,00,00,00,00,00,FF,FF,1F,
2118688,00000442,false,Rx,0,8,CE,20,11,81,00,00,00,00,
2119782,00000410,false,Rx,0,8,A4,70,58,3C,16,6B,FF,FF,
2119807,00000111,false,Rx,0,8,BB,8E,DE,01,00,00,00,00,
2119824,00000411,false,Rx,0,8,A8,01,50,50,00,00,44,04,
2119842,00000112,false,Rx,0,8,00,00,00,00,00,00,00,00,
2119860,00000412,false,Rx,0,8,6D,60,00,00,00,00,00,00,
2120667,00000113,false,Rx,0,8,00,00,00,00,00,00,00,00,
2120697,00000444,false,Rx,0,8,D5,20,20,50,55,50,00,00,
2120728,00000114,false,Rx,0,8,00,00,00,00,00,00,00,00,
2120745,00000413,false,Rx,0,8,F5,10,00,41,00,00,00,00,
2122298,000004EF,false,Rx,0,8,60,00,60,00,29,14,00,00,
2122332,00000414,false,Rx,0,8,F0,10,00,00,28,00,00,00,
2122350,00000401,false,Rx,0,8,A9,30,10,00,00,04,00,00,
2122367,00000416,false,Rx,0,8,55,00,00,00,00,00,00,00,
2122385,0000063D,false,Rx,0,8,00,80,00,00,00,00,00,00,
2124976,0000063E,false,Rx,0,8,FF,FF,FF,FF,FF,FF,FF,FF,
2125011,00000418,false,Rx,0,8,19,70,00,00,12,0C,00,00,
2125029,0000063F,false,Rx,0,8,00,10,00,C4,FF,00,00,00,
2125047,00000419,false,Rx,0,8,11,50,83,D6,31,79,8F,00,
2125064,00000640,false,Rx,0,8,FF,FF,FF,00,FF,FF,FF,00,
2126827,0000019D,false,Rx,0,8,00,10,00,01,00,00,00,00,
2128125,0000019E,false,Rx,0,8,15,00,00,00,00,32,00,00,
2128143,0000011B,false,Rx,0,8,39,B8,36,05,80,08,A8,02,
2128161,0000012B,false,Rx,0,8,7E,42,36,06,00,00,08,00,
2128178,0000011C,false,Rx,0,8,00,05,20,00,22,00,01,01,
2128196,0000012C,false,Rx,0,8,00,00,01,00,00,64,00,00,
2128689,0000030B,false,Rx,0,8,05,E7,D3,00,04,00,00,00,
2128719,0000030C,false,Rx,0,8,00,00,0E,00,2C,00,A0,0F,
2129629,0000030D,false,Rx,0,8,00,00,00,00,48,00,00,00,
2129654,0000030E,false,Rx,0,8,00,00,38,05,21,00,00,0A,
2134114,00000121,false,Rx,0,8,C0,98,41,00,00,00,00,05,
2134151,00000122,false,Rx,0,8,FF,D9,67,1F,46,46,46,46,
2134169,00000123,false,Rx,0,8,11,03,00,00,00,00,01,35,
2134187,00000124,false,Rx,0,8,00,00,0A,00,00,00,20,40,
2139633,00000036,false,Rx,0,8,B2,8A,43,51,00,00,25,01,
2140598,00000037,false,Rx,0,8,00,00,00,10,00,40,00,00,
2140631,00000038,false,Rx,0,8,04,00,00,00,90,38,96,D4,
2140649,00000039,false,Rx,0,8,00,00,00,00,00,00,00,00,
2143101,000001AB,false,Rx,0,8,34,86,60,50,70,38,00,00,
2143279,000001AC,false,Rx,0,8,00,28,00,00,00,00,00,00,
2143298,00000226,false,Rx,0,8,24,AF,AD,FF,43,E1,05,42,
2143315,00000227,false,Rx,0,8,02,70,E1,08,00,F2,17,04,
2144586,00000061,false,Rx,0,8,A1,ED,49,00,00,00,00,00,
2144609,00000062,false,Rx,0,8,02,02,00,02,40,FF,00,FF,
2144626,00000063,false,Rx,0,8,00,00,05,00,00,08,FD,00,
2145567,00000064,false,Rx,0,8,00,00,00,04,FF,FA,00,00,
2145586,00000151,false,Rx,0,8,D4,76,D3,A0,C8,00,28,19,
2145604,000000A1,false,Rx,0,8,E5,E8,49,1A,00,00,00,00,
2145622,00000152,false,Rx,0,8,16,18,18,00,0B,00,00,00,
2146958,000000A2,false,Rx,0,8,00,00,00,00,00,00,00,00,
2146993,00000153,false,Rx,0,8,00,00,00,00,00,00,00,00,
2147012,000000A3,false,Rx,0,8,00,40,01,00,00,00,00,00,
2147030,00000154,false,Rx,0,8,00,00,00,00,00,00,00,00,
2147421,000001F6,false,Rx,0,8,4D,6A,D3,00,00,00,00,0D,
2147455,000001F7,false,Rx,0,8,0B,00,00,00,00,00,00,00,
2147476,000002FC,false,Rx,0,8,04,00,16,19,00,00,86,BF,
2149438,000001F8,false,Rx,0,8,00,00,00,00,00,00,00,00,
2149473,000002FD,false,Rx,0,8,00,00,00,00,00,1C,0E,EA,
2149491,000001F9,false,Rx,0,8,00,00,A0,C8,14,00,00,00,
2149508,000002FE,false,Rx,0,8,00,00,72,01,00,28,00,00,
2150744,00000236,false,Rx,0,8,76,A8,D3,00,6E,3C,34,6C,
2150826,000001F2,false,Rx,0,8,00,00,00,00,00,00,00,00,
2150845,00000238,false,Rx,0,8,00,00,5F,00,00,00,00,00,
2150862,00000327,false,Rx,0,8,00,00,00,00,05,00,00,00,
2151263,00000239,false,Rx,0,8,00,00,00,00,01,00,00,00,
2151317,00000328,false,Rx,0,8,00,00,00,00,00,00,00,00,
2151334,00000329,false,Rx,0,8,A0,00,00,00,00,00,00,00,
2151352,0000025C,false,Rx,0,8,00,00,0B,00,34,89,19,00,
2151572,00000331,false,Rx,0,8,0E,44,D3,F1,C8,A0,2C,97,
2152687,0000025D,false,Rx,0,8,00,C8,00,00,00,80,C0,70,
2153093,00000332,false,Rx,0,8,94,02,00,00,00,00,00,00,
2153111,0000025E,false,Rx,0,8,13,07,0E,02,00,00,00,00,
2153129,00000333,false,Rx,0,8,00,00,00,1C,0C,40,20,A0,
2153146,000004E8,false,Rx,0,8,FF,FF,FF,05,FF,FF,FF,00,
2153164,00000334,false,Rx,0,8,C8,00,00,00,AC,70,1D,90,
2157573,00000382,false,Rx,0,8,F1,7A,01,00,00,01,08,00,
2159412,000001E1,false,Rx,0,8,C4,2F,A5,02,00,00,00,00,
2159455,000001E2,false,Rx,0,8,00,00,00,00,00,00,00,00,
2160768,0000010B,false,Rx,0,8,16,6C,45,00,00,00,00,05,
2162047,000002AB,false,Rx,0,8,26,52,D4,0C,0C,00,00,00,
2162067,0000010C,false,Rx,0,8,FF,F9,E7,1F,46,44,46,46,
2162085,000002AC,false,Rx,0,8,00,FF,FF,00,00,40,00,50,
2162103,0000010D,false,Rx,0,8,10,03,00,00,00,00,01,35,
2163430,000002AD,false,Rx,0,8,00,01,00,40,FF,FF,FF,0F,
2163495,000002B6,false,Rx,0,8,54,23,D4,01,00,00,00,40,
2163513,00000251,false,Rx,0,8,37,AB,D3,00,00,00,00,00,
2163891,000002B7,false,Rx,0,8,08,02,F0,00,00,04,00,00,
2163928,00000252,false,Rx,0,8,00,00,00,00,03,00,00,00,
2163950,000002B8,false,Rx,0,8,AA,11,11,00,00,00,00,00,
2163968,000002B9,false,Rx,0,8,0A,00,00,00,00,00,00,00,
2163986,00000396,false,Rx,0,8,E3,9B,E9,0F,08,01,00,02,
2164571,000002E1,false,Rx,0,8,05,77,D4,00,00,00,00,40,
2164614,00000397,false,Rx,0,8,25,00,00,00,00,00,00,00,
2164633,000002E2,false,Rx,0,8,FD,00,00,00,00,14,00,04,
2165697,00000398,false,Rx,0,8,00,00,00,00,00,00,00,00,
2165723,000002E3,false,Rx,0,8,00,00,00,00,00,00,72,01,
2165741,00000419,false,Rx,0,8,08,60,84,D6,31,79,8F,00,
2165759,000002E4,false,Rx,0,8,02,00,00,00,00,00,00,00,
2167659,00000161,false,Rx,0,8,57,CD,1D,03,00,00,00,02,
2168573,00000162,false,Rx,0,8,FF,FC,01,00,00,00,00,00,
2172611,00000565,false,Rx,0,8,66,02,00,00,00,00,FF,FF,
2174582,0000019B,false,Rx,0,8,19,57,43,00,00,E4,00,00,
2175569,0000019C,false,Rx,0,8,40,20,00,00,00,00,0B,09,
2175592,000002D6,false,Rx,0,8,26,23,E9,00,00,00,00,00,
2175609,0000019D,false,Rx,0,8,00,10,00,01,00,00,00,00,
2175627,000002D7,false,Rx,0,8,00,00,00,00,03,00,00,00,
2176566,0000019E,false,Rx,0,8,15,00,00,00,00,32,00,00,
2176591,000002D8,false,Rx,0,8,00,00,00,00,00,00,38,45,
2176608,000002EB,false,Rx,0,8,B2,6A,E9,09,08,01,00,02,
2176626,000002D9,false,Rx,0,8,00,00,00,00,00,00,00,00,
2177567,000002EC,false,Rx,0,8,02,00,00,00,00,00,00,00,
2177589,00000383,false,Rx,0,8,12,ED,01,00,02,00,00,00,
2177607,000002ED,false,Rx,0,8,00,00,00,00,00,00,00,00,
2177624,0000011B,false,Rx,0,8,4A,81,3B,05,80,08,A8,02,
2178567,0000012B,false,Rx,0,8,0D,7B,3B,06,00,00,08,00,
2178588,0000011C,false,Rx,0,8,00,05,20,00,22,00,01,01,
2178606,0000012C,false,Rx,0,8,00,00,01,00,00,64,00,00,
2178624,000002EE,false,Rx,0,8,00,00,00,00,00,00,00,00,
2179811,00000356,false,Rx,0,8,20,81,EA,00,00,00,00,00,
2179846,00000357,false,Rx,0,8,00,00,00,00,00,4B,4D,48,
2179864,00000358,false,Rx,0,8,35,41,45,4D,52,37,33,4F,
2180229,00000359,false,Rx,0,8,51,4F,34,52,4A,35,33,00,
2183592,00000121,false,Rx,0,8,33,06,46,00,00,00,00,05,
2183631,00000122,false,Rx,0,8,FF,D9,67,1F,46,46,46,46,
2183650,00000123,false,Rx,0,8,11,03,00,00,00,00,01,35,
2183668,00000124,false,Rx,0,8,00,00,0A,00,00,00,20,40,
2189638,00000036,false,Rx,0,8,0A,8B,48,51,00,00,25,01,
2190597,00000037,false,Rx,0,8,00,00,00,10,00,40,00,00,
2190629,00000038,false,Rx,0,8,04,00,00,00,90,38,96,D4,
2190647,00000039,false,Rx,0,8,00,00,00,00,00,00,00,00,
2192589,000003B6,false,Rx,0,8,34,B2,E8,00,00,00,00,46,
2192624,000003B7,false,Rx,0,8,46,00,00,00,00,00,00,00,
2192643,000003B8,false,Rx,0,8,0C,03,00,00,00,00,69,0E,
2194879,000003B9,false,Rx,0,8,00,00,00,00,00,00,00,00,
2194967,00000061,false,Rx,0,8,52,73,4E,00,00,00,00,00,
2194985,00000062,false,Rx,0,8,02,02,00,02,40,FF,00,FF,
2195003,00000063,false,Rx,0,8,00,00,05,00,00,08,FD,00,
2195021,00000064,false,Rx,0,8,00,00,00,04,FF,FA,00,00,
2195038,000000A1,false,Rx,0,8,EC,6D,4E,1A,00,00,00,00,
2195572,000000A2,false,Rx,0,8,00,00,00,00,00,00,00,00,
2195600,000000A3,false,Rx,0,8,00,40,01,00,00,00,00,00,
2198580,0000036F,false,Rx,0,8,91,21,01,00,00,00,00,00,
2198612,000001A1,false,Rx,0,8,E1,B3,1E,FE,F7,7F,64,00,
2198630,0000037F,false,Rx,0,8,83,A0,52,24,41,02,00,00,
2198647,000001A2,false,Rx,0,8,00,00,00,00,00,08,00,00,
2198665,00000384,false,Rx,0,8,E9,DC,02,00,00,FF,00,21,
2200156,000001A3,false,Rx,0,8,FF,F3,3F,00,00,00,00,00,
2200534,00000487,false,Rx,0,8,00,00,00,00,00,00,00,00,
2200611,000001A4,false,Rx,0,8,FE,07,00,00,00,00,00,00,
2200633,00000642,false,Rx,0,8,FF,FF,FF,FF,FF,FF,00,00,
2202754,00000091,false,Rx,0,8,60,94,D2,00,00,00,00,00,
2202785,00000092,false,Rx,0,8,00,00,00,00,00,00,00,00,
2202803,00000093,false,Rx,0,8,00,00,00,00,00,00,00,00,
2202820,00000094,false,Rx,0,8,00,00,00,00,00,00,00,00,
2203589,00000419,false,Rx,0,8,08,60,84,D6,31,79,8F,00,
2205920,000003AA,false,Rx,0,8,FF,00,B0,00,54,00,00,00,
2207575,00000495,false,Rx,0,8,49,00,00,00,00,00,00,00,
116608,0000010B,false,Rx,0,8,97,18,4A,00,00,00,00,05,
116646,0000010C,false,Rx,0,8,FF,F9,E7,1F,46,44,46,46,
117926,0000010D,false,Rx,0,8,10,03,00,00,00,00,01,35,
117983,00000146,false,Rx,0,8,25,E0,1A,10,04,01,00,00,
118001,0000010E,false,Rx,0,8,00,00,0A,00,00,C0,AB,57,
118019,00000147,false,Rx,0,8,00,04,7D,00,40,00,00,00,
118037,00000148,false,Rx,0,8,00,00,00,00,00,90,40,05,
118054,00000149,false,Rx,0,8,00,00,00,00,00,00,00,00,
120582,000001B1,false,Rx,0,8,43,38,1A,00,72,00,00,00,
120616,000001B2,false,Rx,0,8,23,00,04,0F,0F,07,52,10,
120634,000001B3,false,Rx,0,8,10,2C,00,00,87,90,96,90,
120651,000001B4,false,Rx,0,8,95,91,17,00,00,40,01,00,
128587,00000380,false,Rx,0,8,AD,D7,FF,00,00,00,00,01,
130571,0000019B,false,Rx,0,8,A1,56,48,00,00,E4,00,00,
131568,0000019C,false,Rx,0,8,40,20,00,00,00,00,0B,09,
131594,0000019D,false,Rx,0,8,00,10,00,01,00,00,00,00,
131612,000003B0,false,Rx,0,8,72,37,FF,C7,00,00,03,C0,
131629,0000019E,false,Rx,0,8,15,00,00,00,00,32,00,00,
133567,00000448,false,Rx,0,8,10,20,00,00,00,00,00,00,
133590,0000011B,false,Rx,0,8,B4,91,40,05,80,08,A8,02,
133615,0000011C,false,Rx,0,8,00,05,20,00,22,00,01,01,
134567,0000012B,false,Rx,0,8,F3,6B,40,06,00,00,08,00,
134596,0000012C,false,Rx,0,8,00,00,01,00,00,64,00,00,
134615,000001FB,false,Rx,0,8,7E,69,D3,00,00,00,00,00,
134633,000003B1,false,Rx,0,8,9B,3C,FF,40,00,00,20,00,
135567,000001FC,false,Rx,0,8,00,00,00,00,00,00,00,00,
135588,000001FD,false,Rx,0,8,00,1A,03,00,00,00,00,00,
135606,000001FE,false,Rx,0,8,00,00,00,00,00,00,00,00,
139565,00000121,false,Rx,0,8,3E,C0,4B,00,00,00,00,05,
139588,00000122,false,Rx,0,8,FF,D9,67,1F,46,46,46,46,
139606,00000123,false,Rx,0,8,11,03,00,00,00,00,01,35,
139624,00000124,false,Rx,0,8,00,00,0A,00,00,00,20,40,
143564,000003B2,false,Rx,0,8,36,15,FF,02,29,2F,34,00,
144566,000004A3,false,Rx,0,8,80,00,48,0B,3E,00,00,00,
144589,000004A4,false,Rx,0,8,FF,FF,FF,00,00,00,00,00,
145575,00000036,false,Rx,0,8,75,A7,4D,51,00,00,25,01,
146565,00000037,false,Rx,0,8,00,00,00,10,00,40,00,00,
146587,00000038,false,Rx,0,8,04,00,00,00,90,38,96,D4,
146606,00000039,false,Rx,0,8,00,00,00,00,00,00,00,00,
148565,000001AB,false,Rx,0,8,C2,AE,65,50,70,38,00,00,
149576,000001AC,false,Rx,0,8,00,28,00,00,00,00,00,00,
149598,000002FF,false,Rx,0,8,E2,01,00,F1,3F,00,00,00,
149615,00000316,false,Rx,0,8,16,94,D7,34,14,80,0A,00,
149633,00000427,false,Rx,0,8,1D,86,FF,00,80,0A,00,00,
150568,00000317,false,Rx,0,8,00,00,05,00,00,00,00,00,
150590,00000061,false,Rx,0,8,9A,71,53,00,00,00,00,00,
150607,00000419,false,Rx,0,8,08,60,84,D6,31,79,8F,00,
150625,00000062,false,Rx,0,8,02,02,00,02,40,FF,00,FF,
151566,00000472,false,Rx,0,8,5C,EC,00,40,08,41,00,45,
151588,00000063,false,Rx,0,8,00,00,05,00,00,08,FD,00,
151607,00000473,false,Rx,0,8,5F,24,00,25,00,00,00,78,
151624,00000064,false,Rx,0,8,00,00,00,04,FF,FA,00,00,
152567,00000474,false,Rx,0,8,93,44,00,00,00,00,00,14,
152588,000000A1,false,Rx,0,8,89,6E,53,1A,00,00,00,00,
152606,000000A2,false,Rx,0,8,00,00,00,00,00,00,00,00,
152624,000000A3,false,Rx,0,8,00,40,01,00,00,00,00,00,
158564,0000042A,false,Rx,0,8,F4,DE,FF,01,00,10,00,00,
159991,000001E6,false,Rx,0,8,24,63,A5,02,00,00,00,00,
160028,000001BB,false,Rx,0,8,9F,DE,A5,02,00,00,00,0A,
160046,000001BC,false,Rx,0,8,32,00,00,00,02,00,00,00,
160063,000001BD,false,Rx,0,8,00,00,00,00,00,00,00,00,
160081,000001E7,false,Rx,0,8,00,00,22,03,20,01,00,00,
166768,0000010B,false,Rx,0,8,E8,34,4F,00,00,00,00,05,
166806,0000010C,false,Rx,0,8,FF,F9,E7,1F,46,44,46,46,
166824,0000010D,false,Rx,0,8,10,03,00,00,00,00,01,35,
167676,000002C1,false,Rx,0,8,D1,6D,EB,21,00,41,00,A8,
167726,0000010E,false,Rx,0,8,00,00,0A,00,00,C0,AB,57,
167744,000002C2,false,Rx,0,8,0A,00,00,00,00,00,00,00,
167762,000002C3,false,Rx,0,8,00,00,00,00,00,00,00,00,
168887,000002C4,false,Rx,0,8,00,00,00,00,00,00,00,00,
174000,00000161,false,Rx,0,8,53,D1,22,03,00,00,00,02,
174042,00000162,false,Rx,0,8,FF,FC,01,00,00,00,00,00,
178738,00000566,false,Rx,0,8,16,02,00,00,00,00,FF,FF,
180583,0000019B,false,Rx,0,8,DE,7A,4D,00,00,E4,00,00,
181570,0000019C,false,Rx,0,8,40,20,00,00,00,00,0B,09,
182573,0000019D,false,Rx,0,8,00,10,00,01,00,00,00,00,
182595,0000019E,false,Rx,0,8,15,00,00,00,00,32,00,00,
184103,0000011B,false,Rx,0,8,42,B9,45,05,80,08,A8,02,
184138,0000011C,false,Rx,0,8,00,05,20,00,22,00,01,01,
184156,0000012B,false,Rx,0,8,05,43,45,06,00,00,08,00,
184576,0000033B,false,Rx,0,8,61,70,D5,00,00,00,00,00,
184602,0000012C,false,Rx,0,8,00,00,01,00,00,64,00,00,
185687,0000033C,false,Rx,0,8,00,00,00,00,F0,00,00,00,
185722,0000033D,false,Rx,0,8,00,00,00,00,00,00,00,00,
185740,0000033E,false,Rx,0,8,00,00,00,00,00,00,00,00,
189590,00000121,false,Rx,0,8,43,05,50,00,00,00,00,05,
189629,00000122,false,Rx,0,8,FF,D9,67,1F,46,46,46,46,
189648,00000123,false,Rx,0,8,11,03,00,00,00,00,01,35,
189666,00000124,false,Rx,0,8,00,00,0A,00,00,00,20,40,
195622,00000036,false,Rx,0,8,31,17,52,51,00,00,25,01,
196597,00000037,false,Rx,0,8,00,00,00,10,00,40,00,00,
196629,00000038,false,Rx,0,8,04,00,00,00,90,38,96,D4,
196647,00000039,false,Rx,0,8,00,00,00,00,00,00,00,00,
197813,000002E6,false,Rx,0,8,56,B0,D2,01,00,00,00,15,
198230,00000256,false,Rx,0,8,A0,DA,D2,15,00,00,10,01,
198254,000002E7,false,Rx,0,8,0A,00,00,00,00,00,00,00,
198272,00000257,false,Rx,0,8,00,8B,42,1A,86,07,00,8B,
198595,000002E8,false,Rx,0,8,00,00,00,00,00,00,00,00,
198614,00000258,false,Rx,0,8,0A,71,1E,00,10,15,00,1C,
199575,000002E9,false,Rx,0,8,00,00,00,00,00,00,00,00,
199597,00000259,false,Rx,0,8,4C,05,8B,3C,28,02,00,00,
199614,0000048B,false,Rx,0,8,01,4B,2F,1E,01,00,00,00,
199631,0000048C,false,Rx,0,8,00,00,00,00,00,00,00,00,
200738,00000061,false,Rx,0,8,22,70,58,00,00,00,00,00,
200774,00000062,false,Rx,0,8,02,02,00,02,40,FF,00,FF,
200792,00000063,false,Rx,0,8,00,00,05,00,00,08,FD,00,
200810,00000064,false,Rx,0,8,00,00,00,04,FF,FA,00,00,
201589,000000A1,false,Rx,0,8,B5,9F,58,1A,00,00,00,00,
201616,000000A2,false,Rx,0,8,00,00,00,00,00,00,00,00,
201634,000000A3,false,Rx,0,8,00,40,01,00,00,00,00,00,
204146,000003A1,false,Rx,0,8,38,B4,FA,00,FF,FF,FF,FF,
204180,000003A2,false,Rx,0,8,00,00,00,00,00,00,00,00,
204198,000002BF,false,Rx,0,8,FF,FF,FF,00,00,00,00,00,
204215,000001A1,false,Rx,0,8,82,28,23,FE,F7,7F,64,00,
204233,0000047F,false,Rx,0,8,FF,FF,FF,FF,FF,FF,F3,FF,
204592,000001A3,false,Rx,0,8,FF,F3,3F,00,00,00,00,00,
204617,0000037F,false,Rx,0,8,3A,B0,52,24,41,02,00,00,
205572,000001A4,false,Rx,0,8,FE,07,00,00,00,00,00,00,
205593,00000653,false,Rx,0,8,0A,19,03,01,02,2A,00,00,
205611,000001F1,false,Rx,0,8,BA,24,78,01,00,00,28,00,
205628,000001F2,false,Rx,0,8,00,00,00,00,00,00,00,00,
208727,00000091,false,Rx,0,8,26,CD,D3,00,00,00,00,00,
208767,00000092,false,Rx,0,8,00,00,00,00,00,00,00,00,
208784,00000093,false,Rx,0,8,00,00,00,00,00,00,00,00,
208802,00000094,false,Rx,0,8,00,00,00,00,00,00,00,00,
213647,000000C5,false,Rx,0,8,00,00,00,00,00,00,00,00,
214581,000001E1,false,Rx,0,8,B7,16,A8,02,00,00,00,00,
214602,00000244,false,Rx,0,8,FF,FF,FF,FF,FF,FF,FF,FF,
214620,000001E2,false,Rx,0,8,00,00,00,00,00,00,00,00,
214638,000004B4,false,Rx,0,8,00,00,00,00,00,00,00,00,
215587,000004B5,false,Rx,0,8,08,00,F0,07,00,00,00,00,
215620,000004B7,false,Rx,0,8,08,00,F0,07,00,00,00,00,
215640,000004CA,false,Rx,0,8,00,00,00,00,00,00,00,00,
215659,000004CC,false,Rx,0,8,08,00,00,06,00,00,03,00,
216641,000004CE,false,Rx,0,8,14,01,FF,FF,FF,FF,FF,FF,
216675,000004D7,false,Rx,0,8,23,01,00,00,00,00,00,00,
216692,0000010B,false,Rx,0,8,95,F1,54,00,00,00,00,05,
216709,000004D8,false,Rx,0,8,41,10,F0,F0,40,F2,1E,CC,
217597,0000010C,false,Rx,0,8,FF,F9,E7,1F,46,44,46,46,
217624,00000146,false,Rx,0,8,5A,CC,1F,10,04,01,00,00,
217642,0000010D,false,Rx,0,8,10,03,00,00,00,00,01,35,
217659,00000147,false,Rx,0,8,00,04,7D,00,40,00,00,00,
218570,0000010E,false,Rx,0,8,00,00,0A,00,00,C0,AB,57,
218590,00000148,false,Rx,0,8,00,00,00,00,00,90,40,05,
218608,000000FF,false,Rx,0,8,CB,10,00,00,00,00,02,00,
218626,00000149,false,Rx,0,8,00,00,00,00,00,00,00,00,
219564,000004DD,false,Rx,0,8,00,00,FE,00,04,00,00,00,
219584,00000394,false,Rx,0,8,2A,22,1A,49,00,00,00,00,
219602,000003C3,false,Rx,0,8,45,10,31,30,36,00,00,00,
219620,000004DF,false,Rx,0,8,FF,03,0C,3F,00,00,00,00,
220564,000003E0,false,Rx,0,8,66,20,01,00,54,03,00,00,
220584,000004E7,false,Rx,0,8,00,30,00,00,00,00,69,00,
220601,000001B1,false,Rx,0,8,3C,14,1F,00,72,00,00,00,
220619,000003E5,false,Rx,0,8,37,80,01,00,00,00,00,00,
221567,000001B2,false,Rx,0,8,23,00,04,0F,0F,07,52,10,
221588,000003E6,false,Rx,0,8,67,90,00,00,00,00,00,00,
221606,000001B3,false,Rx,0,8,10,2C,00,00,87,90,96,90,
221623,0000041A,false,Rx,0,8,BB,A0,12,00,50,01,00,00,
222655,000001B4,false,Rx,0,8,95,91,17,00,00,40,01,00,
223103,0000041B,false,Rx,0,8,70,D0,00,00,00,00,00,00,
224189,000004E8,false,Rx,0,8,FF,FF,FF,05,FF,FF,FF,00,
224209,0000041C,false,Rx,0,8,48,00,E0,00,00,00,00,00,
224227,00000475,false,Rx,0,8,12,00,00,00,00,00,00,00,
224245,00000422,false,Rx,0,8,9D,70,01,00,00,00,04,00,
224262,00000496,false,Rx,0,8,12,00,00,00,00,00,00,00,
224596,00000405,false,Rx,0,8,BD,30,00,00,00,01,00,00,
224641,00000442,false,Rx,0,8,CE,20,11,81,00,00,00,00,
225563,00000410,false,Rx,0,8,A4,70,58,3C,16,6B,FF,FF,
225594,00000111,false,Rx,0,8,FD,D7,DF,01,00,00,00,00,
225613,00000411,false,Rx,0,8,A8,01,50,50,00,00,44,04,
225631,00000112,false,Rx,0,8,00,00,00,00,00,00,00,00,
227389,00000412,false,Rx,0,8,6D,60,00,00,00,00,00,00,
227825,00000113,false,Rx,0,8,00,00,00,00,00,00,00,00,
227847,00000444,false,Rx,0,8,D5,20,20,50,55,50,00,00,
227865,00000114,false,Rx,0,8,00,00,00,00,00,00,00,00,
227883,00000413,false,Rx,0,8,F5,10,00,41,00,00,00,00,
227900,000004EC,false,Rx,0,8,00,00,00,00,00,00,00,00,
227918,00000401,false,Rx,0,8,A9,30,10,00,00,04,00,00,
228688,00000416,false,Rx,0,8,55,00,00,00,00,00,00,00,
228713,000004ED,false,Rx,0,8,00,00,00,00,00,FF,FF,1F,
228731,00000417,false,Rx,0,8,06,10,00,00,00,01,00,00,
229573,000004EE,false,Rx,0,8,FF,FF,00,00,00,00,00,00,
229599,00000418,false,Rx,0,8,19,70,00,00,12,0C,00,00,
229617,000004EF,false,Rx,0,8,60,00,60,00,29,14,00,00,
229635,00000419,false,Rx,0,8,08,60,84,D6,31,79,8F,00,
230641,0000063D,false,Rx,0,8,00,80,00,00,00,00,00,00,
230664,00000445,false,Rx,0,8,C6,C0,00,00,00,00,00,18,
230681,0000063E,false,Rx,0,8,FF,FF,FF,FF,FF,FF,FF,FF,
232017,00000464,false,Rx,0,8,D5,20,F0,FF,38,7F,05,00,
232067,0000019B,false,Rx,0,8,9A,CA,52,00,00,E4,00,00,
232085,0000063F,false,Rx,0,8,00,10,00,C4,FF,00,00,00,
232102,0000019C,false,Rx,0,8,40,20,00,00,00,00,0B,09,
232120,00000640,false,Rx,0,8,FF,FF,FF,00,FF,FF,FF,00,
232138,0000019D,false,Rx,0,8,00,10,00,01,00,00,00,00,
232571,0000019E,false,Rx,0,8,15,00,00,00,00,32,00,00,
232595,00000646,false,Rx,0,8,00,00,00,80,01,00,00,00,
234031,0000011B,false,Rx,0,8,58,C0,4A,05,80,08,A8,02,
234066,0000012B,false,Rx,0,8,1F,3A,4A,06,00,00,08,00,
234084,0000011C,false,Rx,0,8,00,05,20,00,22,00,01,01,
234595,0000012C,false,Rx,0,8,00,00,01,00,00,64,00,00,
234623,0000030B,false,Rx,0,8,B0,20,D5,00,04,00,00,00,
235578,0000030C,false,Rx,0,8,00,00,0E,00,2C,00,A0,0F,
236727,0000030D,false,Rx,0,8,00,00,00,00,48,00,00,00,
236808,0000030E,false,Rx,0,8,00,00,38,05,21,00,00,0A,
239588,00000121,false,Rx,0,8,3C,29,55,00,00,00,00,05,
239624,00000122,false,Rx,0,8,FF,D9,67,1F,46,46,46,46,
239642,00000123,false,Rx,0,8,11,03,00,00,00,00,01,35,
239659,00000124,false,Rx,0,8,00,00,0A,00,00,00,20,40,
245624,00000036,false,Rx,0,8,4E,3B,57,51,00,00,25,01,
246601,00000037,false,Rx,0,8,00,00,00,10,00,40,00,00,
246665,00000038,false,Rx,0,8,04,00,00,00,90,38,96,D4,
247696,00000039,false,Rx,0,8,00,00,00,00,00,00,00,00,
249135,000001AB,false,Rx,0,8,D8,D7,6A,50,70,38,00,00,
249171,000001AC,false,Rx,0,8,00,28,00,00,00,00,00,00,
249190,00000226,false,Rx,0,8,4D,EF,AF,FF,43,E1,05,42,
249207,00000227,false,Rx,0,8,02,70,E1,08,00,F2,17,04,
250843,00000061,false,Rx,0,8,5D,5C,5D,00,00,00,00,00,
250878,00000062,false,Rx,0,8,02,02,00,02,40,FF,00,FF,
250896,00000063,false,Rx,0,8,00,00,05,00,00,08,FD,00,
250926,00000151,false,Rx,0,8,61,B1,D5,A0,C8,00,28,19,
250944,00000064,false,Rx,0,8,00,00,00,04,FF,FA,00,00,
252309,00000152,false,Rx,0,8,16,18,18,00,0B,00,00,00,
252348,000000A1,false,Rx,0,8,BA,74,5D,1A,00,00,00,00,
252368,00000153,false,Rx,0,8,00,00,00,00,00,00,00,00,
252401,000000A2,false,Rx,0,8,00,00,00,00,00,00,00,00,
252419,00000154,false,Rx,0,8,00,00,00,00,00,00,00,00,
252436,000000A3,false,Rx,0,8,00,40,01,00,00,00,00,00,
254192,000001F6,false,Rx,0,8,F8,AD,D5,00,00,00,00,0D,
254229,000002FB,false,Rx,0,8,C0,50,D5,04,5F,1A,CC,CC,
254247,000001F7,false,Rx,0,8,0B,00,00,00,00,00,00,00,
254658,000002FC,false,Rx,0,8,04,00,16,19,00,00,86,BF,
254680,000001F8,false,Rx,0,8,00,00,00,00,00,00,00,00,
254697,000002FE,false,Rx,0,8,00,00,72,01,00,28,00,00,
254715,00000236,false,Rx,0,8,C3,6F,D5,00,6E,3C,34,6C,
255963,00000326,false,Rx,0,8,A8,CC,D5,00,00,00,00,00,
255997,00000237,false,Rx,0,8,00,15,BA,00,00,AA,1E,00,
257279,00000327,false,Rx,0,8,00,00,00,00,05,00,00,00,
257706,00000238,false,Rx,0,8,00,00,5F,00,00,00,00,00,
257763,00000328,false,Rx,0,8,00,00,00,00,00,00,00,00,
257782,00000239,false,Rx,0,8,00,00,00,00,01,00,00,00,
257800,00000329,false,Rx,0,8,A0,00,00,00,00,00,00,00,
257818,0000025B,false,Rx,0,8,5B,13,D5,40,40,20,00,00,
257835,0000025D,false,Rx,0,8,00,C8,00,00,00,80,C0,70,
259363,0000025E,false,Rx,0,8,2E,07,0E,04,00,00,00,00,
259396,00000334,false,Rx,0,8,C8,00,00,00,AC,70,1D,90,
259414,00000419,false,Rx,0,8,FF,70,84,D6,35,79,8F,00,
264391,00000382,false,Rx,0,8,F1,7A,01,00,00,01,08,00,
266732,0000010B,false,Rx,0,8,98,37,59,00,00,00,00,05,
266769,000002AB,false,Rx,0,8,AA,E0,D6,0C,0C,00,00,00,
266787,0000010C,false,Rx,0,8,FF,F9,E7,1F,46,44,46,46,
267955,000002AC,false,Rx,0,8,00,FF,FF,00,00,40,00,50,
267990,0000010D,false,Rx,0,8,10,03,00,00,00,00,01,35,
268008,000002AD,false,Rx,0,8,00,01,00,40,FF,FF,FF,0F,
268026,0000010E,false,Rx,0,8,00,00,0A,00,00,C0,AB,57,
269273,000002AE,false,Rx,0,8,01,00,FF,3F,01,01,00,00,
269338,000002B6,false,Rx,0,8,D8,91,D6,01,00,00,00,40,
269356,00000251,false,Rx,0,8,DD,D7,D5,00,00,00,00,00,
269388,000002B7,false,Rx,0,8,08,02,F0,00,00,04,00,00,
269406,00000252,false,Rx,0,8,00,00,00,00,03,00,00,00,
269423,000002B8,false,Rx,0,8,AA,11,11,00,00,00,00,00,
270655,00000253,false,Rx,0,8,00,00,00,52,52,00,80,44,
270742,000002B9,false,Rx,0,8,0A,00,00,00,00,00,00,00,
270760,00000396,false,Rx,0,8,50,C5,EA,0F,08,01,00,02,
270778,000002E1,false,Rx,0,8,89,C5,D6,00,00,00,00,40,
272020,00000397,false,Rx,0,8,10,00,00,00,00,00,00,00,
273670,000002E2,false,Rx,0,8,FD,00,00,00,00,14,00,04,
273705,00000398,false,Rx,0,8,00,00,00,00,00,00,00,00,
273723,000002E3,false,Rx,0,8,00,00,00,00,00,00,72,01,
273741,00000485,false,Rx,0,8,00,40,11,02,00,00,00,00,
277749,00000516,false,Rx,0,8,61,02,00,00,00,00,FF,FF,
279223,00000419,false,Rx,0,8,99,80,83,D6,35,79,8F,00,
280574,0000019B,false,Rx,0,8,E5,E6,57,00,00,E4,00,00,
281570,0000019C,false,Rx,0,8,40,20,00,00,00,00,0B,09,
281593,000002D6,false,Rx,0,8,EC,C8,EA,00,00,00,00,00,
281611,0000019D,false,Rx,0,8,00,10,00,01,00,00,00,00,
281629,000002D7,false,Rx,0,8,00,00,00,00,03,00,00,00,
282567,0000019E,false,Rx,0,8,15,00,00,00,00,32,00,00,
282587,000002D8,false,Rx,0,8,00,00,00,00,00,00,38,45,
282605,000002EB,false,Rx,0,8,D4,BD,EA,09,08,02,00,02,
282623,000002D9,false,Rx,0,8,00,00,00,00,00,00,00,00,
283566,000002EC,false,Rx,0,8,07,00,00,00,00,00,00,00,
283585,00000383,false,Rx,0,8,12,ED,01,00,02,00,00,00,
283604,000002ED,false,Rx,0,8,00,00,00,00,00,00,00,00,
283621,0000011B,false,Rx,0,8,AE,E8,4F,05,80,08,A8,02,
284622,0000012B,false,Rx,0,8,E9,12,4F,06,00,00,08,00,
284657,0000011C,false,Rx,0,8,00,05,20,00,22,00,01,01,
285061,0000012C,false,Rx,0,8,00,00,01,00,00,64,00,00,
285128,000002EE,false,Rx,0,8,00,00,00,00,00,00,00,00,
285151,00000356,false,Rx,0,8,66,D8,EB,00,00,00,00,00,
285169,00000357,false,Rx,0,8,00,00,00,00,00,4B,4D,48,
286383,00000358,false,Rx,0,8,35,41,45,4D,52,37,33,4F,
286418,00000359,false,Rx,0,8,51,4F,34,52,4A,35,33,00,
289605,00000121,false,Rx,0,8,BD,5D,5A,00,00,00,00,05,
289645,00000122,false,Rx,0,8,FF,D9,67,1F,46,46,46,46,
289663,00000123,false,Rx,0,8,11,03,00,00,00,00,01,35,
289680,00000124,false,Rx,0,8,00,00,0A,00,00,00,20,40,
295638,00000036,false,Rx,0,8,F6,3A,5C,51,00,00,25,01,
296602,00000037,false,Rx,0,8,00,00,00,10,00,40,00,00,
296635,00000038,false,Rx,0,8,04,00,00,00,90,38,96,D4,
296654,00000039,false,Rx,0,8,00,00,00,00,00,00,00,00,
297969,000003B6,false,Rx,0,8,72,EB,E9,00,00,00,00,46,
298586,000003B7,false,Rx,0,8,46,00,00,00,00,00,00,00,
298613,000003B8,false,Rx,0,8,0C,03,00,00,00,00,69,0E,
299567,000003B9,false,Rx,0,8,00,00,00,00,00,00,00,00,
300784,00000061,false,Rx,0,8,B2,75,62,00,00,00,00,00,
300818,00000062,false,Rx,0,8,02,02,00,02,40,FF,00,FF,
301217,00000063,false,Rx,0,8,00,00,05,00,00,08,FD,00,
301254,00000064,false,Rx,0,8,00,00,00,04,FF,FA,00,00,
301275,000000A1,false,Rx,0,8,7F,99,62,1A,00,00,00,00,
301293,000000A2,false,Rx,0,8,00,00,00,00,00,00,00,00,
302242,000000A3,false,Rx,0,8,00,40,01,00,00,00,00,00,
303591,000001A1,false,Rx,0,8,3A,29,28,FE,F7,7F,64,00,
303618,000001A2,false,Rx,0,8,00,00,00,00,00,08,00,00,
305209,00000384,false,Rx,0,8,E9,DC,02,00,00,FF,00,21,
305245,000001A3,false,Rx,0,8,FF,F3,3F,00,00,00,00,00,
305262,0000036F,false,Rx,0,8,20,41,01,00,00,00,00,00,
305280,000001A4,false,Rx,0,8,FE,07,00,00,00,00,00,00,
305298,0000037F,false,Rx,0,8,32,C0,52,24,41,02,00,00,
305316,00000487,false,Rx,0,8,00,00,00,00,00,00,00,00,
305346,00000642,false,Rx,0,8,FF,FF,FF,FF,FF,FF,00,00,
308591,00000091,false,Rx,0,8,D5,53,D4,00,00,00,00,00,
308638,00000092,false,Rx,0,8,00,00,00,00,00,00,00,00,
308657,00000093,false,Rx,0,8,00,00,00,00,00,00,00,00,
308675,00000094,false,Rx,0,8,00,00,00,00,00,00,00,00,
310051,000001E6,false,Rx,0,8,57,5A,A8,02,00,00,00,00,
310086,000001BB,false,Rx,0,8,A9,9D,A8,02,00,00,00,0A,
310104,000001BC,false,Rx,0,8,32,00,00,00,02,00,00,00,
310122,000001BD,false,Rx,0,8,00,00,00,00,00,00,00,00,
310139,000001E7,false,Rx,0,8,00,00,22,03,20,01,00,00,
311791,000003AA,false,Rx,0,8,FF,00,B0,00,54,00,00,00,
313256,00000495,false,Rx,0,8,49,00,00,00,00,00,00,00,
316590,0000010B,false,Rx,0,8,6B,A9,5E,00,00,00,00,05,
316626,0000010C,false,Rx,0,8,FF,F9,E7,1F,46,44,46,46,
317605,0000010D,false,Rx,0,8,10,03,00,00,00,00,01,35,
317638,00000146,false,Rx,0,8,8C,90,24,10,04,01,00,00,
317656,0000010E,false,Rx,0,8,00,00,0A,00,00,C0,AB,57,
317685,00000147,false,Rx,0,8,00,04,7D,00,40,00,00,00,
317703,00000148,false,Rx,0,8,00,00,00,00,00,90,40,05,
318962,00000149,false,Rx,0,8,00,00,00,00,00,00,00,00,
318997,00000419,false,Rx,0,8,99,80,83,D6,35,79,8F,00,
320307,000001B1,false,Rx,0,8,EA,48,24,00,72,00,00,00,
320350,000001B2,false,Rx,0,8,23,00,04,0F,0F,07,52,10,
320571,000001B3,false,Rx,0,8,10,2C,00,00,87,90,96,90,
321614,000001B4,false,Rx,0,8,95,91,17,00,00,40,01,00,
328591,00000380,false,Rx,0,8,AD,D7,FF,00,00,00,00,01,
330809,0000019B,false,Rx,0,8,5D,E7,5C,00,00,E4,00,00,
330852,0000019C,false,Rx,0,8,40,20,00,00,00,00,0B,09,
331621,0000019D,false,Rx,0,8,00,10,00,01,00,00,00,00,
331653,000003B0,false,Rx,0,8,72,37,FF,C7,00,00,03,C0,
331672,0000019E,false,Rx,0,8,15,00,00,00,00,32,00,00,
334258,00000448,false,Rx,0,8,10,20,00,00,00,00,00,00,
334418,0000011B,false,Rx,0,8,6C,32,54,05,80,08,A8,02,
334436,0000012B,false,Rx,0,8,2B,C8,54,06,00,00,08,00,
334454,0000011C,false,Rx,0,8,00,05,20,00,22,00,01,01,
334472,0000012C,false,Rx,0,8,00,00,01,00,00,64,00,00,
334489,000001FB,false,Rx,0,8,CB,AE,D5,00,00,00,00,00,
336411,000003B1,false,Rx,0,8,9B,3C,FF,40,00,00,20,00,
336448,000001FC,false,Rx,0,8,00,00,00,00,00,00,00,00,
336466,000001FD,false,Rx,0,8,00,1A,03,00,00,00,00,00,
336484,000001FE,false,Rx,0,8,00,00,00,00,00,00,00,00,
339609,00000121,false,Rx,0,8,C2,71,5F,00,00,00,00,05,
339649,00000122,false,Rx,0,8,FF,D9,67,1F,46,46,46,46,
339667,00000123,false,Rx,0,8,11,03,00,00,00,00,01,35,
339685,00000124,false,Rx,0,8,00,00,0A,00,00,00,20,40,
344362,000003B2,false,Rx,0,8,36,15,FF,02,29,2F,34,00,
344401,00000419,false,Rx,0,8,F2,90,83,D6,39,79,8F,00,
344821,000004A3,false,Rx,0,8,80,00,48,0B,3E,00,00,00,
345588,000004A4,false,Rx,0,8,FF,FF,FF,00,00,00,00,00,
345611,00000036,false,Rx,0,8,95,A1,61,51,00,00,25,01,
347975,00000037,false,Rx,0,8,00,00,00,10,00,40,00,00,
348033,00000038,false,Rx,0,8,04,00,00,00,90,38,96,D4,
348051,00000039,false,Rx,0,8,00,00,00,00,00,00,00,00,
348567,000001AB,false,Rx,0,8,2E,FF,6F,50,70,38,00,00,
348594,000001AC,false,Rx,0,8,00,28,00,00,00,00,00,00,
349568,000002FF,false,Rx,0,8,E2,01,00,F1,3F,00,00,00,
349590,00000316,false,Rx,0,8,0C,ED,D8,34,14,80,0A,00,
349607,00000317,false,Rx,0,8,00,00,05,00,00,00,00,00,
349625,00000427,false,Rx,0,8,1D,86,FF,00,80,0A,00,00,
350563,00000472,false,Rx,0,8,5C,EC,00,40,08,41,00,45,
350590,00000061,false,Rx,0,8,CD,59,67,00,00,00,00,00,
350608,00000473,false,Rx,0,8,5F,24,00,25,00,00,00,78,
350625,00000062,false,Rx,0,8,02,02,00,02,40,FF,00,FF,
351784,00000474,false,Rx,0,8,93,44,00,00,00,00,00,14,
351959,00000063,false,Rx,0,8,00,00,05,00,00,08,FD,00,
351977,00000064,false,Rx,0,8,00,00,00,04,FF,FA,00,00,
351995,000000A1,false,Rx,0,8,70,72,67,1A,00,00,00,00,
352012,000000A2,false,Rx,0,8,00,00,00,00,00,00,00,00,
353081,000000A3,false,Rx,0,8,00,40,01,00,00,00,00,00,
355924,000001F1,false,Rx,0,8,F7,CC,7B,01,00,00,28,00,
355960,000001F2,false,Rx,0,8,00,00,00,00,00,00,00,00,
358603,0000042A,false,Rx,0,8,F4,DE,FF,01,00,10,00,00,
364587,000001E1,false,Rx,0,8,FA,FE,AB,02,00,00,00,00,
364626,000001E2,false,Rx,0,8,00,00,00,00,00,00,00,00,
366857,0000010B,false,Rx,0,8,08,32,63,00,00,00,00,05,
366894,0000010C,false,Rx,0,8,FF,F9,E7,1F,46,44,46,46,
366912,0000010D,false,Rx,0,8,10,03,00,00,00,00,01,35,
367588,000002C1,false,Rx,0,8,22,F3,EC,21,00,41,00,A8,
367614,0000010E,false,Rx,0,8,00,00,0A,00,00,C0,AB,57,
367632,000002C2,false,Rx,0,8,0A,00,00,00,00,00,00,00,
368588,000002C3,false,Rx,0,8,00,00,00,00,00,00,00,00,
368614,000002C4,false,Rx,0,8,00,00,00,00,00,00,00,00,
373568,00000161,false,Rx,0,8,6D,00,2C,03,00,00,00,02,
373589,00000162,false,Rx,0,8,FF,FC,01,00,00,00,00,00,
374567,00000561,false,Rx,0,8,63,02,00,00,00,00,FF,FF,
380564,0000019B,false,Rx,0,8,3E,7C,61,00,00,E4,00,00,
381567,0000019C,false,Rx,0,8,40,20,00,00,00,00,0B,09,
381588,0000019D,false,Rx,0,8,00,10,00,01,00,00,00,00,
381605,0000019E,false,Rx,0,8,15,00,00,00,00,32,00,00,
383566,0000011B,false,Rx,0,8,1F,0B,59,05,80,08,A8,02,
384558,0000012B,false,Rx,0,8,58,F1,59,06,00,00,08,00,
384575,0000011C,false,Rx,0,8,00,05,20,00,22,00,01,01,
384593,0000012C,false,Rx,0,8,00,00,01,00,00,64,00,00,
384611,0000033B,false,Rx,0,8,ED,C2,D7,00,00,00,00,00,
385569,00000419,false,Rx,0,8,F2,90,83,D6,39,79,8F,00,
385590,0000033C,false,Rx,0,8,00,00,00,00,F0,00,00,00,
385608,0000033D,false,Rx,0,8,00,00,00,00,00,00,00,00,
385625,0000033E,false,Rx,0,8,00,00,00,00,00,00,00,00,
389565,00000121,false,Rx,0,8,14,2D,64,00,00,00,00,05,
389586,00000122,false,Rx,0,8,FF,D9,67,1F,46,46,46,46,
389604,00000123,false,Rx,0,8,11,03,00,00,00,00,01,35,
389622,00000124,false,Rx,0,8,00,00,0A,00,00,00,20,40,
395578,00000036,false,Rx,0,8,66,3F,66,51,00,00,25,01,
396565,00000037,false,Rx,0,8,00,00,00,10,00,40,00,00,
396589,00000038,false,Rx,0,8,04,00,00,00,90,38,96,D4,
396606,00000039,false,Rx,0,8,00,00,00,00,00,00,00,00,
397570,000002E6,false,Rx,0,8,E3,77,D4,01,00,00,00,15,
397601,00000256,false,Rx,0,8,26,C0,D4,15,00,00,00,01,
398569,000002E7,false,Rx,0,8,0A,00,00,00,00,00,00,00,
398593,00000257,false,Rx,0,8,00,8B,42,18,86,07,00,8B,
398611,000002E8,false,Rx,0,8,00,00,00,00,00,00,00,00,
398628,00000258,false,Rx,0,8,0A,71,1E,00,10,15,00,1C,
399563,000002E9,false,Rx,0,8,00,00,00,00,00,00,00,00,
399588,00000259,false,Rx,0,8,42,05,8A,3C,28,02,00,00,
400563,00000061,false,Rx,0,8,75,58,6C,00,00,00,00,00,
400587,00000062,false,Rx,0,8,02,02,00,02,40,FF,00,FF,
400605,00000063,false,Rx,0,8,00,00,05,00,00,08,FD,00,
401566,00000064,false,Rx,0,8,00,00,00,04,FF,FA,00,00,
401591,000000A1,false,Rx,0,8,4C,83,6C,1A,00,00,00,00,
401609,000000A2,false,Rx,0,8,00,00,00,00,00,00,00,00,
401627,000000A3,false,Rx,0,8,00,40,01,00,00,00,00,00,
402565,000003A1,false,Rx,0,8,1C,1C,FB,00,FF,FF,FF,FF,
403566,000003A2,false,Rx,0,8,00,00,00,00,00,00,00,00,
403586,000002BF,false,Rx,0,8,FF,FF,FF,00,00,00,00,00,
403610,000001A1,false,Rx,0,8,45,05,2D,FE,F7,7F,64,00,
403628,0000047F,false,Rx,0,8,FF,FF,FF,FF,FF,FF,F3,FF,
404571,000001A2,false,Rx,0,8,00,00,00,00,00,08,00,00,
404596,0000036F,false,Rx,0,8,99,51,01,00,00,00,00,00,
404613,000001A3,false,Rx,0,8,FF,F3,3F,00,00,00,00,00,
404631,0000037F,false,Rx,0,8,8B,D0,52,24,41,02,00,00,
405564,000001A4,false,Rx,0,8,FE,07,00,00,00,00,00,00,
405589,00000653,false,Rx,0,8,0A,19,03,01,02,2A,00,00,
407970,00000091,false,Rx,0,8,93,0A,D5,00,00,00,00,00,
408574,00000092,false,Rx,0,8,00,00,00,00,00,00,00,00,
408607,00000093,false,Rx,0,8,00,00,00,00,00,00,00,00,
408625,00000094,false,Rx,0,8,00,00,00,00,00,00,00,00,
415611,000000C5,false,Rx,0,8,00,00,00,00,00,00,00,00,
415665,00000244,false,Rx,0,8,FF,FF,FF,FF,FF,FF,FF,FF,
415684,000004B4,false,Rx,0,8,00,00,00,00,00,00,00,00,
415701,000004B5,false,Rx,0,8,08,00,F0,07,00,00,00,00,
415719,000004B7,false,Rx,0,8,08,00,F0,07,00,00,00,00,
416627,000004CA,false,Rx,0,8,00,00,00,00,00,00,00,00,
416660,000004CC,false,Rx,0,8,08,00,00,06,00,00,03,00,
416690,0000010B,false,Rx,0,8,B0,33,68,00,00,00,00,05,
416708,000004CE,false,Rx,0,8,14,01,FF,FF,FF,FF,FF,FF,
418150,0000010C,false,Rx,0,8,FF,F9,E7,1F,46,44,46,46,
418185,00000146,false,Rx,0,8,81,56,29,10,04,01,00,00,
418203,0000010D,false,Rx,0,8,10,03,00,00,00,00,01,35,
418221,00000147,false,Rx,0,8,00,04,7D,00,40,00,00,00,
418238,000000FF,false,Rx,0,8,CB,10,00,00,00,00,02,00,
419630,00000148,false,Rx,0,8,00,00,00,00,00,90,40,05,
419682,0000010E,false,Rx,0,8,00,00,0A,00,00,C0,AB,57,
419701,00000149,false,Rx,0,8,00,00,00,00,00,00,00,00,
419719,000004D7,false,Rx,0,8,23,01,00,00,00,00,00,00,
419737,00000394,false,Rx,0,8,2A,22,1A,49,00,00,00,00,
419755,000003C3,false,Rx,0,8,45,10,31,30,36,00,00,00,
420569,000003E0,false,Rx,0,8,66,20,01,00,54,03,00,00,
420596,000001B1,false,Rx,0,8,E7,8E,29,00,72,00,00,00,
420614,000003E5,false,Rx,0,8,37,80,01,00,00,00,00,00,
420632,000001B2,false,Rx,0,8,23,00,04,0F,0F,07,52,10,
422009,000003E6,false,Rx,0,8,67,90,00,00,00,00,00,00,
422045,000001B3,false,Rx,0,8,10,2C,00,00,87,90,96,90,
422063,0000041A,false,Rx,0,8,BB,A0,12,00,50,01,00,00,
422080,000001B4,false,Rx,0,8,95,91,17,00,00,40,01,00,
422098,0000041B,false,Rx,0,8,70,D0,00,00,00,00,00,00,
422116,000004DD,false,Rx,0,8,00,00,FE,00,04,00,00,00,
422611,0000041C,false,Rx,0,8,48,00,E0,00,00,00,00,00,
422637,00000475,false,Rx,0,8,12,00,00,00,00,00,00,00,
423569,00000422,false,Rx,0,8,9D,70,01,00,00,00,04,00,
423596,00000496,false,Rx,0,8,12,00,00,00,00,00,00,00,
423613,00000432,false,Rx,0,8,03,20,02,00,00,00,00,00,
423631,000004DF,false,Rx,0,8,FF,03,0C,3F,00,00,00,00,
424569,00000435,false,Rx,0,8,26,C0,00,40,00,00,00,00,
424591,000004E7,false,Rx,0,8,00,30,00,00,00,00,69,00,
424609,00000442,false,Rx,0,8,CE,20,11,81,00,00,00,00,
424627,00000405,false,Rx,0,8,BD,30,00,00,00,01,00,00,
425565,00000444,false,Rx,0,8,D5,20,20,50,55,50,00,00,
425583,00000111,false,Rx,0,8,12,FE,E0,01,00,00,00,00,
425601,00000410,false,Rx,0,8,A4,70,58,3C,16,6B,FF,FF,
425626,00000112,false,Rx,0,8,00,00,00,00,00,00,00,00,
425643,00000411,false,Rx,0,8,A8,01,50,50,00,00,44,04,
426568,00000113,false,Rx,0,8,00,00,00,00,00,00,00,00,
426590,00000412,false,Rx,0,8,6D,60,00,00,00,00,00,00,
426614,00000114,false,Rx,0,8,00,00,00,00,00,00,00,00,
426632,00000413,false,Rx,0,8,F5,10,00,41,00,00,00,00,
427682,000004E8,false,Rx,0,8,FF,FF,FF,05,FF,FF,FF,00,
428037,00000414,false,Rx,0,8,F0,10,00,00,28,00,00,00,
428060,000004E9,false,Rx,0,8,12,00,00,34,00,00,50,00,
428097,00000416,false,Rx,0,8,55,00,00,00,00,00,00,00,
428114,00000401,false,Rx,0,8,A9,30,10,00,00,04,00,00,
428132,00000417,false,Rx,0,8,06,10,00,00,00,01,00,00,
428611,000004EA,false,Rx,0,8,67,00,00,89,00,00,00,00,
428633,00000418,false,Rx,0,8,19,70,00,00,12,0C,00,00,
429691,000004EB,false,Rx,0,8,10,80,30,27,80,00,00,00,
430951,00000419,false,Rx,0,8,F2,90,83,D6,39,79,8F,00,
430983,000004EC,false,Rx,0,8,00,00,00,00,00,00,00,00,
431001,00000445,false,Rx,0,8,C6,C0,00,00,00,00,00,18,
432296,000004ED,false,Rx,0,8,00,00,00,00,00,FF,FF,1F,
432315,00000464,false,Rx,0,8,D5,20,F0,FF,38,7F,05,00,
434944,0000063D,false,Rx,0,8,00,80,00,00,00,00,00,00,
435004,0000019C,false,Rx,0,8,40,20,00,00,00,00,0B,09,
435022,0000063E,false,Rx,0,8,FF,FF,FF,FF,FF,FF,FF,FF,
435040,00000640,false,Rx,0,8,FF,FF,FF,00,FF,FF,FF,00,
435057,00000641,false,Rx,0,8,FF,FF,FF,FF,0F,FF,FF,FF,
435075,0000012B,false,Rx,0,8,C7,99,5E,06,00,00,08,00,
435595,0000030E,false,Rx,0,8,00,00,38,05,21,00,00,1A,
439581,00000121,false,Rx,0,8,19,EB,69,00,00,00,00,05,
439612,00000122,false,Rx,0,8,FF,D9,67,1F,46,46,46,46,
439630,00000123,false,Rx,0,8,11,03,00,00,00,00,01,35,
439648,00000124,false,Rx,0,8,00,00,0A,00,00,00,20,40,
446591,00000036,false,Rx,0,8,6B,F9,6B,51,00,00,25,01,
446631,00000037,false,Rx,0,8,00,00,00,10,00,40,00,00,
446649,00000038,false,Rx,0,8,04,00,00,00,90,38,96,D4,
446667,00000039,false,Rx,0,8,00,00,00,00,00,00,00,00,
448741,000001AB,false,Rx,0,8,EC,25,74,50,70,38,00,00,
448783,000001AC,false,Rx,0,8,00,28,00,00,00,00,00,00,
448801,00000226,false,Rx,0,8,79,1D,B1,FF,43,E1,05,42,
449879,00000227,false,Rx,0,8,02,70,E1,08,00,F2,17,04,
451180,00000061,false,Rx,0,8,BD,5A,71,00,00,00,00,00,
451204,00000062,false,Rx,0,8,02,02,00,02,40,FF,00,FF,
451604,00000063,false,Rx,0,8,00,00,05,00,00,08,FD,00,
451669,00000064,false,Rx,0,8,00,00,00,04,FF,FA,00,00,
451688,000000A1,false,Rx,0,8,29,80,71,1A,00,00,00,00,
451706,00000151,false,Rx,0,8,ED,03,D7,A0,C8,00,28,19,
451724,000000A2,false,Rx,0,8,00,00,00,00,00,00,00,00,
451742,00000152,false,Rx,0,8,16,18,18,00,0B,00,00,00,
452574,000000A3,false,Rx,0,8,00,40,01,00,00,00,00,00,
452604,00000153,false,Rx,0,8,00,00,00,00,00,00,00,00,
452629,000001F6,false,Rx,0,8,74,1F,D7,00,00,00,00,0D,
452647,00000154,false,Rx,0,8,00,00,00,00,00,00,00,00,
453798,000001F7,false,Rx,0,8,0B,00,00,00,00,00,00,00,
453833,000002FB,false,Rx,0,8,4C,E2,D7,04,5F,1A,CC,CC,
453870,000001F8,false,Rx,0,8,00,00,00,00,00,00,00,00,
453888,000002FC,false,Rx,0,8,04,00,16,19,00,00,86,BF,
453906,000001F9,false,Rx,0,8,00,00,A0,C8,14,00,00,00,
455274,000002FD,false,Rx,0,8,00,00,00,00,00,1C,0E,EA,
455708,00000236,false,Rx,0,8,4F,DD,D7,00,6E,3C,34,6C,
455747,000002FE,false,Rx,0,8,00,00,72,01,00,28,00,00,
455768,00000237,false,Rx,0,8,00,15,BA,00,00,AA,1E,00,
455786,00000326,false,Rx,0,8,24,7E,D7,00,00,00,00,00,
455815,00000238,false,Rx,0,8,00,00,5F,00,00,00,00,00,
455832,00000327,false,Rx,0,8,00,00,00,00,05,00,00,00,
455849,00000239,false,Rx,0,8,00,00,00,00,01,00,00,00,
456576,00000328,false,Rx,0,8,00,00,00,00,00,00,00,00,
456604,0000025B,false,Rx,0,8,ED,5F,D7,40,40,20,00,00,
456622,00000329,false,Rx,0,8,A0,00,00,00,00,00,00,00,
457561,0000025C,false,Rx,0,8,00,00,0B,00,34,89,19,00,
457583,00000331,false,Rx,0,8,37,31,D7,F1,C8,A0,2C,97,
457601,0000025D,false,Rx,0,8,00,C8,00,00,00,80,C0,70,
457619,00000332,false,Rx,0,8,94,02,00,00,00,00,00,00,
458563,0000025E,false,Rx,0,8,22,07,0E,03,00,00,00,00,
458590,00000333,false,Rx,0,8,00,00,00,1C,0C,40,20,A0,
458607,00000419,false,Rx,0,8,6A,A0,83,D6,3D,79,8F,00,
458625,00000334,false,Rx,0,8,C8,00,00,00,AC,70,1D,90,
459563,000001E6,false,Rx,0,8,1A,B2,AB,02,00,00,00,00,
459587,000001BB,false,Rx,0,8,AC,C4,AB,02,00,00,00,0A,
459605,000001BC,false,Rx,0,8,32,00,00,00,02,00,00,00,
459622,000001BD,false,Rx,0,8,00,00,00,00,00,00,00,00,
460563,000001E7,false,Rx,0,8,00,00,22,03,20,01,00,00,
461561,00000563,false,Rx,0,8,65,02,00,00,00,00,FF,FF,
462926,00000382,false,Rx,0,8,F1,7A,01,00,00,01,08,00,
466595,0000010B,false,Rx,0,8,CF,1F,6D,00,00,00,00,05,
466634,000002AB,false,Rx,0,8,6D,CD,D8,0C,0C,00,00,00,
467604,0000010C,false,Rx,0,8,FF,F9,E7,1F,46,44,46,46,
467638,000002AC,false,Rx,0,8,00,FF,FF,00,00,40,00,50,
467667,0000010D,false,Rx,0,8,10,03,00,00,00,00,01,35,
467684,000002AD,false,Rx,0,8,00,01,00,40,FF,FF,FF,0F,
467702,0000010E,false,Rx,0,8,00,00,0A,00,00,C0,AB,57,
468569,000002AE,false,Rx,0,8,01,00,FF,3F,01,01,00,00,
468591,000002B6,false,Rx,0,8,1F,BC,D8,01,00,00,00,40,
468609,00000251,false,Rx,0,8,DB,B9,D7,00,00,00,00,00,
469566,000002B7,false,Rx,0,8,08,02,F0,00,00,04,00,00,
469586,00000252,false,Rx,0,8,00,00,00,00,03,00,00,00,
469612,000002B8,false,Rx,0,8,AA,11,11,00,00,00,00,00,
469630,00000253,false,Rx,0,8,00,00,00,52,52,00,80,44,
469647,000002B9,false,Rx,0,8,0A,00,00,00,00,00,00,00,
470755,00000396,false,Rx,0,8,0B,F0,EB,0F,08,01,00,02,
471207,000002E1,false,Rx,0,8,4E,E8,D8,00,00,00,00,40,
471230,00000397,false,Rx,0,8,04,00,00,00,00,00,00,00,
471248,000002E2,false,Rx,0,8,FD,00,00,00,00,14,00,04,
471266,00000398,false,Rx,0,8,00,00,00,00,00,00,00,00,
471283,000002E3,false,Rx,0,8,00,00,00,00,00,00,72,01,
471583,000002E4,false,Rx,0,8,02,00,00,00,00,00,00,00,
473565,00000161,false,Rx,0,8,14,1A,31,03,00,00,00,02,
473586,00000162,false,Rx,0,8,FF,FC,01,00,00,00,00,00,
479589,00000419,false,Rx,0,8,1C,B0,84,D6,3D,79,8F,00,
481129,0000019B,false,Rx,0,8,C0,24,6B,00,00,E4,00,00,
481163,0000019C,false,Rx,0,8,40,20,00,00,00,00,0B,09,
481182,0000019D,false,Rx,0,8,00,10,00,01,00,00,00,00,
481785,000002D6,false,Rx,0,8,AA,91,EB,00,00,00,00,00,
481815,0000019E,false,Rx,0,8,15,00,00,00,00,32,00,00,
481833,000002D7,false,Rx,0,8,00,00,00,00,03,00,00,00,
482601,000002EB,false,Rx,0,8,93,EB,EB,09,08,01,00,02,
482630,000002D8,false,Rx,0,8,00,00,00,00,00,00,38,45,
483555,000002EC,false,Rx,0,8,0A,00,00,00,00,00,00,00,
483627,000002D9,false,Rx,0,8,00,00,00,00,00,00,00,00,
484013,000002ED,false,Rx,0,8,00,00,00,00,00,00,00,00,
484051,00000383,false,Rx,0,8,12,ED,01,00,02,00,00,00,
484073,000002EE,false,Rx,0,8,00,00,00,00,00,00,00,00,
484091,0000011B,false,Rx,0,8,ED,3F,63,05,80,08,A8,02,
484109,0000012B,false,Rx,0,8,AA,C5,63,06,00,00,08,00,
485135,0000011C,false,Rx,0,8,00,05,20,00,22,00,01,01,
485170,0000012C,false,Rx,0,8,00,00,01,00,00,64,00,00,
485610,00000356,false,Rx,0,8,95,46,EC,00,00,00,00,00,
485637,00000357,false,Rx,0,8,00,00,00,00,00,4B,4D,48,
485655,00000358,false,Rx,0,8,35,41,45,4D,52,37,33,4F,
485673,00000359,false,Rx,0,8,51,4F,34,52,4A,35,33,00,
486909,000004F0,false,Rx,0,8,4A,10,30,28,58,1A,18,02,
489453,00000121,false,Rx,0,8,EA,75,6E,00,00,00,00,05,
489493,00000122,false,Rx,0,8,FF,D9,67,1F,46,46,46,46,
489512,00000123,false,Rx,0,8,11,03,00,00,00,00,01,35,
489529,00000124,false,Rx,0,8,00,00,0A,00,00,00,20,40,
495635,00000036,false,Rx,0,8,16,3C,70,51,00,00,25,01,
496598,00000037,false,Rx,0,8,00,00,00,10,00,40,00,00,
496631,00000038,false,Rx,0,8,04,00,00,00,90,38,96,D4,
496650,00000039,false,Rx,0,8,00,00,00,00,00,00,00,00,
498442,000003B6,false,Rx,0,8,B8,00,EA,00,00,00,00,46,
498477,000003B7,false,Rx,0,8,46,00,00,00,00,00,00,00,
498495,000003B8,false,Rx,0,8,0C,03,00,00,00,00,69,0E,
499944,000003B9,false,Rx,0,8,00,00,00,00,00,00,00,00,
500004,00000061,false,Rx,0,8,4E,C4,76,00,00,00,00,00,
500568,00000062,false,Rx,0,8,02,02,00,02,40,FF,00,FF,
500595,00000063,false,Rx,0,8,00,00,05,00,00,08,FD,00,
501561,00000064,false,Rx,0,8,00,00,00,04,FF,FA,00,00,
501586,000000A1,false,Rx,0,8,20,05,76,1A,00,00,00,00,
501605,000000A2,false,Rx,0,8,00,00,00,00,00,00,00,00,
501622,000000A3,false,Rx,0,8,00,40,01,00,00,00,00,00,
503588,000001A1,false,Rx,0,8,01,B5,32,FE,F7,7F,64,00,
504573,000001A2,false,Rx,0,8,00,00,00,00,00,08,00,00,
504594,00000384,false,Rx,0,8,E9,DC,02,00,00,FF,00,21,
504612,000001A3,false,Rx,0,8,FF,F3,3F,00,00,00,00,00,
504630,0000036F,false,Rx,0,8,4F,61,01,00,00,00,00,00,
504658,000001A4,false,Rx,0,8,FE,07,00,00,00,00,00,00,
506372,0000037F,false,Rx,0,8,5D,E0,52,24,41,02,00,00,
506406,000001F1,false,Rx,0,8,01,E4,7E,01,00,00,28,00,
506425,000001F2,false,Rx,0,8,00,00,00,00,00,00,00,00,
507961,00000487,false,Rx,0,8,00,00,00,00,00,00,00,00,
508131,00000642,false,Rx,0,8,FF,FF,FF,FF,FF,FF,00,00,
508149,00000091,false,Rx,0,8,59,E1,D6,00,00,00,00,00,
508167,00000092,false,Rx,0,8,00,00,00,00,00,00,00,00,
509264,00000093,false,Rx,0,8,00,00,00,00,00,00,00,00,
510704,00000094,false,Rx,0,8,00,00,00,00,00,00,00,00,
513124,000003AA,false,Rx,0,8,FF,00,B0,00,54,00,00,00,
513161,00000495,false,Rx,0,8,49,00,00,00,00,00,00,00,
515100,000001E1,false,Rx,0,8,0C,D6,AE,02,00,00,00,00,
515139,000001E2,false,Rx,0,8,00,00,00,00,00,00,00,00,
517257,0000010B,false,Rx,0,8,8B,AF,72,00,00,00,00,05,
517428,0000010C,false,Rx,0,8,FF,F9,E7,1F,46,44,46,46,
517447,0000010D,false,Rx,0,8,10,03,00,00,00,00,01,35,
517464,00000146,false,Rx,0,8,72,C8,2E,10,04,01,00,00,
517482,0000010E,false,Rx,0,8,00,00,0A,00,00,C0,AB,57,
517500,00000147,false,Rx,0,8,00,04,7D,00,40,00,00,00,
518584,00000148,false,Rx,0,8,00,00,00,00,00,90,40,05,
518608,00000149,false,Rx,0,8,00,00,00,00,00,00,00,00,
521097,00000419,false,Rx,0,8,1C,B0,84,D6,3D,79,8F,00,
521131,000001B1,false,Rx,0,8,14,10,2E,00,72,00,00,00,
521149,000001B2,false,Rx,0,8,23,00,04,0F,0F,07,52,10,
521167,000001B3,false,Rx,0,8,10,2C,00,00,87,90,96,90,
521185,000001B4,false,Rx,0,8,95,91,17,00,00,40,01,00,
527590,0000034B,false,Rx,0,8,72,AC,2F,31,D8,0D,05,01,
527631,000004F0,false,Rx,0,8,4A,10,30,28,58,1A,18,02,
527651,0000034C,false,Rx,0,8,00,00,00,00,00,00,00,00,
527668,0000034D,false,Rx,0,8,00,00,00,00,00,00,00,00,
528609,0000034E,false,Rx,0,8,00,00,00,00,00,00,00,00,
528645,00000380,false,Rx,0,8,AD,D7,FF,00,00,00,00,01,
530730,0000019B,false,Rx,0,8,BD,E1,70,00,00,E4,00,00,
531577,0000019C,false,Rx,0,8,40,20,00,00,00,00,0B,09,
531604,0000019D,false,Rx,0,8,00,10,00,01,00,00,00,00,
531622,000003B0,false,Rx,0,8,72,37,FF,C7,00,00,03,C0,
531640,0000019E,false,Rx,0,8,15,00,00,00,00,32,00,00,
534160,00000448,false,Rx,0,8,10,20,00,00,00,00,00,00,
534196,0000011B,false,Rx,0,8,25,C6,68,05,80,08,A8,02,
534213,0000012B,false,Rx,0,8,62,3C,68,06,00,00,08,00,
534585,0000011C,false,Rx,0,8,00,05,20,00,22,00,01,01,
534645,0000012C,false,Rx,0,8,00,00,01,00,00,64,00,00,
534666,000001FB,false,Rx,0,8,47,1C,D7,00,00,00,00,00,
534683,000003B1,false,Rx,0,8,9B,3C,FF,40,00,00,20,00,
535576,000001FC,false,Rx,0,8,00,00,00,00,00,00,00,00,
535607,000001FD,false,Rx,0,8,00,1A,03,00,00,00,00,00,
535625,000001FE,false,Rx,0,8,00,00,00,00,00,00,00,00,
539587,00000121,false,Rx,0,8,22,77,73,00,00,00,00,05,
539622,00000122,false,Rx,0,8,FF,D9,67,1F,46,46,46,46,
539640,00000123,false,Rx,0,8,11,03,00,00,00,00,01,35,
539658,00000124,false,Rx,0,8,00,00,0A,00,00,00,20,40,
542743,000003B2,false,Rx,0,8,36,15,FF,02,29,2F,34,00,
546587,00000036,false,Rx,0,8,69,10,75,51,00,00,25,01,
546622,00000037,false,Rx,0,8,00,00,00,10,00,40,00,00,
546640,00000038,false,Rx,0,8,04,00,00,00,90,38,96,D4,
546665,00000039,false,Rx,0,8,00,00,00,00,00,00,00,00,
547658,000004A3,false,Rx,0,8,80,00,48,0B,3E,00,00,00,
547723,000004A4,false,Rx,0,8,FF,FF,FF,00,00,00,00,00,
551033,00000415,false,Rx,0,8,40,13,10,00,08,01,00,00,
552315,000001AB,false,Rx,0,8,9F,1C,79,50,70,38,00,00,
552399,000002FF,false,Rx,0,8,E2,01,00,F1,3F,00,00,00,
552417,000001AC,false,Rx,0,8,00,28,00,00,00,00,00,00,
552435,00000316,false,Rx,0,8,28,45,D9,34,14,80,0A,00,
552453,00000063,false,Rx,0,8,00,00,05,00,00,08,FD,00,
552470,00000064,false,Rx,0,8,00,00,00,04,FF,FA,00,00,
556884,000004E8,false,Rx,0,8,FF,FF,FF,05,FF,FF,FF,00,
558586,0000042A,false,Rx,0,8,F4,DE,FF,01,00,10,00,00,
558618,00000565,false,Rx,0,8,66,02,00,00,00,00,FF,FF,
560098,00000419,false,Rx,0,8,1C,B0,84,D6,3D,79,8F,00,
566699,0000010B,false,Rx,0,8,F4,83,77,00,00,00,00,05,
567449,0000010C,false,Rx,0,8,FF,F9,E7,1F,46,44,46,46,
567480,0000010D,false,Rx,0,8,10,03,00,00,00,00,01,35,
567499,000002C1,false,Rx,0,8,05,06,ED,21,00,41,00,A8,
567516,0000010E,false,Rx,0,8,00,00,0A,00,00,C0,AB,57,
567900,000002C2,false,Rx,0,8,0B,00,00,00,00,00,00,00,
567925,000004F0,false,Rx,0,8,4A,10,30,28,58,1A,18,02,
568576,000002C3,false,Rx,0,8,00,00,00,00,00,00,00,00,
568601,000002C4,false,Rx,0,8,00,00,00,00,00,00,00,00,
573591,00000161,false,Rx,0,8,8B,72,36,03,00,00,00,02,
573626,00000162,false,Rx,0,8,FF,FC,01,00,00,00,00,00,
580590,0000019B,false,Rx,0,8,C2,CD,75,00,00,E4,00,00,
581599,0000019C,false,Rx,0,8,40,20,00,00,00,00,0B,09,
581632,0000019D,false,Rx,0,8,00,10,00,01,00,00,00,00,
581650,0000019E,false,Rx,0,8,15,00,00,00,00,32,00,00,
584005,0000011B,false,Rx,0,8,D3,EE,6D,05,80,08,A8,02,
584065,0000012B,false,Rx,0,8,94,14,6D,06,00,00,08,00,
584083,0000011C,false,Rx,0,8,00,05,20,00,22,00,01,01,
584658,0000012C,false,Rx,0,8,00,00,01,00,00,64,00,00,
584691,0000033B,false,Rx,0,8,2A,EF,D9,00,00,00,00,00,
586256,0000033C,false,Rx,0,8,00,00,00,00,F0,00,00,00,
586291,0000033D,false,Rx,0,8,00,00,00,00,00,00,00,00,
586309,0000033E,false,Rx,0,8,00,00,00,00,00,00,00,00,
588846,00000121,false,Rx,0,8,9A,76,78,00,00,00,00,05,
590090,00000122,false,Rx,0,8,FF,D9,67,1F,46,46,46,46,
590126,00000123,false,Rx,0,8,11,03,00,00,00,00,01,35,
590144,00000124,false,Rx,0,8,00,00,0A,00,00,00,20,40,
595631,00000036,false,Rx,0,8,E8,64,7A,51,00,00,25,01,
596596,00000037,false,Rx,0,8,00,00,00,10,00,40,00,00,
596629,00000038,false,Rx,0,8,04,00,00,00,90,38,96,D4,
596647,00000039,false,Rx,0,8,00,00,00,00,00,00,00,00,
597574,000004E8,false,Rx,0,8,FF,FF,FF,05,FF,FF,FF,00,
597603,000002E6,false,Rx,0,8,6F,C5,D6,01,00,00,00,15,
597621,00000256,false,Rx,0,8,0C,76,D6,15,00,00,F0,00,
598936,000002E7,false,Rx,0,8,0A,00,00,00,00,00,00,00,
599342,00000257,false,Rx,0,8,00,8B,42,18,86,07,00,8B,
599366,000002E8,false,Rx,0,8,00,00,00,00,00,00,00,00,
599386,00000258,false,Rx,0,8,0A,72,1E,00,10,15,00,1C,
599405,000002E9,false,Rx,0,8,00,00,00,00,00,00,00,00,
599422,00000259,false,Rx,0,8,3F,05,8A,3C,28,02,00,00,
600575,00000061,false,Rx,0,8,0C,3B,80,00,00,00,00,00,
600596,00000062,false,Rx,0,8,02,02,00,02,40,FF,00,FF,
600614,00000063,false,Rx,0,8,00,00,05,00,00,08,FD,00,
601866,00000064,false,Rx,0,8,00,00,00,04,FF,FA,00,00,
601885,000000A1,false,Rx,0,8,68,44,80,1A,00,00,00,00,
601903,000000A2,false,Rx,0,8,00,00,00,00,00,00,00,00,
601921,000000A3,false,Rx,0,8,00,40,01,00,00,00,00,00,
602902,000003A1,false,Rx,0,8,83,74,FC,00,FF,FF,FF,FF,
602938,000003A2,false,Rx,0,8,00,00,00,00,00,00,00,00,
604313,000002BF,false,Rx,0,8,FF,FF,FF,00,00,00,00,00,
605550,0000047F,false,Rx,0,8,FF,FF,FF,FF,FF,FF,F3,FF,
605983,000001A1,false,Rx,0,8,7E,99,37,FE,F7,7F,64,00,
607048,00000653,false,Rx,0,8,0A,19,03,01,02,2A,00,00,
607085,000001A2,false,Rx,0,8,00,00,00,00,00,08,00,00,
607103,0000036F,false,Rx,0,8,F6,71,01,00,00,00,00,00,
607121,0000037F,false,Rx,0,8,4D,00,52,24,41,02,00,00,
608566,00000091,false,Rx,0,8,1F,B8,D7,00,00,00,00,00,
608585,00000092,false,Rx,0,8,00,00,00,00,00,00,00,00,
608609,00000093,false,Rx,0,8,00,00,00,00,00,00,00,00,
608626,000001E6,false,Rx,0,8,EC,9A,AE,02,00,00,00,00,
609673,00000094,false,Rx,0,8,00,00,00,00,00,00,00,00,
609708,000001BB,false,Rx,0,8,A3,2F,AE,02,00,00,00,0A,
609726,000001BC,false,Rx,0,8,32,00,00,00,02,00,00,00,
609744,000001BD,false,Rx,0,8,00,00,00,00,00,00,00,00,
611217,000001E7,false,Rx,0,8,00,00,22,03,20,01,00,00,
616635,0000010B,false,Rx,0,8,4C,82,7C,00,00,00,00,05,
616672,0000010C,false,Rx,0,8,FF,F9,E7,1F,46,44,46,46,
617589,000000C5,false,Rx,0,8,00,00,00,00,00,00,00,00,
617618,0000010D,false,Rx,0,8,10,03,00,00,00,00,01,35,
617636,00000146,false,Rx,0,8,BA,CA,33,10,04,01,00,00,
617654,0000010E,false,Rx,0,8,00,00,0A,00,00,C0,AB,57,
618567,00000147,false,Rx,0,8,00,04,7D,00,40,00,00,00,
618586,000000FF,false,Rx,0,8,CB,10,00,00,00,00,02,00,
618604,00000148,false,Rx,0,8,00,00,00,00,00,90,40,05,
618622,00000244,false,Rx,0,8,FF,FF,FF,FF,FF,FF,FF,FF,
619568,00000149,false,Rx,0,8,00,00,00,00,00,00,00,00,
619590,0000041F,false,Rx,0,8,00,0C,00,00,00,00,00,00,
619608,00000394,false,Rx,0,8,2A,22,1A,49,00,00,00,00,
619626,000003C3,false,Rx,0,8,45,10,31,30,36,00,00,00,
620565,000004B4,false,Rx,0,8,00,00,00,00,00,00,00,00,
620583,000003E0,false,Rx,0,8,66,20,01,00,54,03,00,00,
620601,000001B1,false,Rx,0,8,DC,12,33,00,72,00,00,00,
620626,000003E5,false,Rx,0,8,37,80,01,00,00,00,00,00,
620643,000001B2,false,Rx,0,8,23,00,04,0F,0F,07,52,10,
621574,000003E6,false,Rx,0,8,67,90,00,00,00,00,00,00,
621596,000001B3,false,Rx,0,8,10,2C,00,00,87,90,96,90,
621613,0000041A,false,Rx,0,8,BB,A0,12,00,50,01,00,00,
621631,000001B4,false,Rx,0,8,95,91,17,00,00,40,01,00,
622571,0000041B,false,Rx,0,8,70,D0,00,00,00,00,00,00,
622590,000004B5,false,Rx,0,8,08,00,F0,07,00,00,00,00,
622607,0000041C,false,Rx,0,8,48,00,E0,00,00,00,00,00,
622625,00000475,false,Rx,0,8,12,00,00,00,00,00,00,00,
623571,00000422,false,Rx,0,8,9D,70,01,00,00,00,04,00,
623593,000004B7,false,Rx,0,8,08,00,F0,07,00,00,00,00,
623611,00000432,false,Rx,0,8,03,20,02,00,00,00,00,00,
623628,000004CA,false,Rx,0,8,00,00,00,00,00,00,00,00,
624569,00000435,false,Rx,0,8,26,C0,00,40,00,00,00,00,
624590,00000405,false,Rx,0,8,BD,30,00,00,00,01,00,00,
624608,00000442,false,Rx,0,8,CE,20,11,81,00,00,00,00,
624626,00000410,false,Rx,0,8,A4,70,58,3C,16,6B,FF,FF,
625568,00000413,false,Rx,0,8,F5,10,00,41,00,00,00,00,
625590,00000111,false,Rx,0,8,54,A7,E1,01,00,00,00,00,
625608,00000411,false,Rx,0,8,A8,01,50,50,00,00,44,04,
625626,00000112,false,Rx,0,8,00,00,00,00,00,00,00,00,
626568,00000412,false,Rx,0,8,6D,60,00,00,00,00,00,00,
626590,00000113,false,Rx,0,8,00,00,00,00,00,00,00,00,
626607,00000414,false,Rx,0,8,F0,10,00,00,28,00,00,00,
626625,00000114,false,Rx,0,8,00,00,00,00,00,00,00,00,
627567,00000416,false,Rx,0,8,55,00,00,00,00,00,00,00,
627587,00000496,false,Rx,0,8,12,00,00,00,00,00,00,00,
627605,00000417,false,Rx,0,8,06,10,00,00,00,01,00,00,
627622,000004CC,false,Rx,0,8,08,00,00,06,00,00,03,00,
628569,00000418,false,Rx,0,8,19,70,00,00,12,0C,00,00,
628590,000004CE,false,Rx,0,8,14,01,FF,FF,FF,FF,FF,FF,
628608,00000401,false,Rx,0,8,A9,30,10,00,00,04,00,00,
628625,00000419,false,Rx,0,8,1C,B0,84,D6,3D,79,8F,00,
629565,000004D7,false,Rx,0,8,23,01,00,00,00,00,00,00,
629584,00000444,false,Rx,0,8,D5,20,20,50,55,50,00,00,
629602,000004D8,false,Rx,0,8,41,10,F0,F0,40,F2,1E,CC,
629626,00000445,false,Rx,0,8,C6,C0,00,00,00,00,00,18,
629643,000004DD,false,Rx,0,8,00,00,FE,00,04,00,00,00,
630569,00000464,false,Rx,0,8,D5,20,F0,FF,38,7F,05,00,
630590,000004DF,false,Rx,0,8,FF,03,0C,3F,00,00,00,00,
630614,000004E7,false,Rx,0,8,00,30,00,00,00,00,69,00,
630632,0000019B,false,Rx,0,8,43,B9,7A,00,00,E4,00,00,
631565,000004E9,false,Rx,0,8,12,00,00,34,00,00,50,00,
631590,0000019C,false,Rx,0,8,40,20,00,00,00,00,0B,09,
631608,000004EA,false,Rx,0,8,67,00,00,89,00,00,00,00,
631626,0000019D,false,Rx,0,8,00,10,00,01,00,00,00,00,
632574,000004EB,false,Rx,0,8,10,80,30,28,80,00,00,00,
632596,0000019E,false,Rx,0,8,15,00,00,00,00,32,00,00,
632613,000004EC,false,Rx,0,8,00,00,00,00,00,00,00,00,
632631,000004ED,false,Rx,0,8,00,00,00,00,00,FF,FF,1F,
633565,000004EE,false,Rx,0,8,FF,FF,00,00,00,00,00,00,
633584,000004EF,false,Rx,0,8,60,00,60,00,29,14,00,00,
633608,000004F0,false,Rx,0,8,4A,10,30,28,58,1A,18,02,
633626,0000011B,false,Rx,0,8,C3,B4,72,05,80,08,A8,02,
634629,0000012B,false,Rx,0,8,84,4E,72,06,00,00,08,00,
634660,0000011C,false,Rx,0,8,00,05,20,00,22,00,01,01,
634677,0000012C,false,Rx,0,8,00,00,01,00,00,64,00,00,
634695,0000030B,false,Rx,0,8,5B,03,D9,00,04,00,00,00,
635854,000004F1,false,Rx,0,8,00,C0,00,00,00,00,00,00,
636279,0000030C,false,Rx,0,8,00,00,0E,00,2C,00,A0,0F,
636328,000004F2,false,Rx,0,8,02,FF,DD,FF,03,01,00,00,
636346,0000030D,false,Rx,0,8,00,00,00,00,49,00,00,00,
636363,000004F3,false,Rx,0,8,00,00,00,00,F0,00,00,00,
636381,0000030E,false,Rx,0,8,00,00,38,05,21,00,00,00,
636399,000004F9,false,Rx,0,8,E0,FF,FF,FF,FF,FF,FF,FF,
637571,0000063D,false,Rx,0,8,00,80,00,00,00,00,00,00,
637596,0000063E,false,Rx,0,8,FF,FF,FF,FF,FF,FF,FF,FF,
637613,000004E8,false,Rx,0,8,FF,FF,FF,05,FF,FF,FF,00,
637631,0000063F,false,Rx,0,8,00,10,00,C4,FF,00,00,00,
637658,00000640,false,Rx,0,8,FF,FF,FF,00,FF,FF,FF,00,
638581,00000641,false,Rx,0,8,FF,FF,FF,FF,0F,FF,FF,FF,
638620,00000646,false,Rx,0,8,00,00,00,80,01,00,00,00,
638637,00000121,false,Rx,0,8,E5,5A,7D,00,00,00,00,05,
639581,00000122,false,Rx,0,8,FF,D9,67,1F,46,46,46,46,
639607,00000123,false,Rx,0,8,11,03,00,00,00,00,01,35,
639626,00000124,false,Rx,0,8,00,00,0A,00,00,00,20,40,
646568,00000036,false,Rx,0,8,97,48,7F,51,00,00,25,01,
646590,00000037,false,Rx,0,8,00,00,00,10,00,40,00,00,
646608,00000038,false,Rx,0,8,04,00,00,00,90,38,96,D4,
646625,00000039,false,Rx,0,8,00,00,00,00,00,00,00,00,
648575,000001AB,false,Rx,0,8,00,74,7E,50,70,38,00,00,
649566,00000226,false,Rx,0,8,10,5D,B3,FF,43,E1,05,42,
649585,000001AC,false,Rx,0,8,00,28,00,00,00,00,00,00,
649603,00000227,false,Rx,0,8,02,70,E1,08,00,F2,17,04,
649621,00000419,false,Rx,0,8,3D,C0,84,D6,41,79,8F,00,
650567,00000061,false,Rx,0,8,73,17,85,00,00,00,00,00,
650587,00000062,false,Rx,0,8,02,02,00,02,40,FF,00,FF,
650605,00000063,false,Rx,0,8,00,00,05,00,00,08,FD,00,
651566,00000151,false,Rx,0,8,2A,2E,D9,A0,C8,00,28,19,
651587,00000064,false,Rx,0,8,00,00,00,04,FF,FA,00,00,
651604,00000152,false,Rx,0,8,16,18,18,00,0B,00,00,00,
651629,000000A1,false,Rx,0,8,67,AF,85,1A,00,00,00,00,
651648,00000153,false,Rx,0,8,00,00,00,00,00,00,00,00,
652567,000000A2,false,Rx,0,8,00,00,00,00,00,00,00,00,
652586,00000154,false,Rx,0,8,00,00,00,00,00,00,00,00,
652613,000000A3,false,Rx,0,8,00,40,01,00,00,00,00,00,
652633,000001F6,false,Rx,0,8,B3,32,D9,00,00,00,00,0D,
653567,000002FB,false,Rx,0,8,8B,CF,D9,04,5F,1A,CC,CC,
653596,000001F7,false,Rx,0,8,0B,00,00,00,00,00,00,00,
653617,000002FC,false,Rx,0,8,04,00,16,19,00,00,86,BF,
653634,000001F8,false,Rx,0,8,00,00,00,00,00,00,00,00,
654574,000002FD,false,Rx,0,8,00,00,00,00,00,1C,0E,EA,
654592,000001F9,false,Rx,0,8,00,00,A0,C8,14,00,00,00,
654610,000002FE,false,Rx,0,8,00,00,72,01,00,28,00,00,
654628,00000236,false,Rx,0,8,88,F0,D9,00,6E,3C,34,6C,
655566,00000326,false,Rx,0,8,E3,53,D9,00,00,00,00,00,
655588,000001F1,false,Rx,0,8,5C,7C,81,01,00,00,28,00,
655605,00000237,false,Rx,0,8,00,15,BA,00,00,AA,1E,00,
655623,000001F2,false,Rx,0,8,00,00,00,00,00,00,00,00,
656575,00000238,false,Rx,0,8,00,00,5F,00,00,00,00,00,
656595,00000327,false,Rx,0,8,00,00,00,00,05,00,00,00,
656612,00000239,false,Rx,0,8,00,00,00,00,01,00,00,00,
656630,00000328,false,Rx,0,8,00,00,00,00,00,00,00,00,
657568,0000025B,false,Rx,0,8,99,47,D9,40,40,20,00,00,
657590,00000329,false,Rx,0,8,A0,00,00,00,00,00,00,00,
657608,0000025C,false,Rx,0,8,00,00,0B,00,34,89,19,00,
657626,00000331,false,Rx,0,8,F0,1C,D9,F1,C8,A0,2C,97,
658568,0000025D,false,Rx,0,8,00,C8,00,00,00,80,C0,70,
658588,00000332,false,Rx,0,8,94,02,00,00,00,00,00,00,
658606,0000025E,false,Rx,0,8,32,07,0E,05,00,00,00,00,
658624,00000333,false,Rx,0,8,00,00,00,1C,0C,40,20,A0,
659567,00000566,false,Rx,0,8,16,02,00,00,00,00,FF,FF,
659588,00000334,false,Rx,0,8,C8,00,00,00,AC,70,1D,90,
663566,00000382,false,Rx,0,8,F1,7A,01,00,00,01,08,00,
664569,000001E1,false,Rx,0,8,1C,8C,B1,02,00,00,00,00,
664589,000001E2,false,Rx,0,8,00,00,00,00,00,00,00,00,
666565,0000010B,false,Rx,0,8,B6,7C,81,00,00,00,00,05,
666587,0000010C,false,Rx,0,8,FF,F9,E7,1F,46,44,46,46,
667623,000002AB,false,Rx,0,8,E1,7F,DA,0C,0C,00,00,00,
667655,0000010D,false,Rx,0,8,10,03,00,00,00,00,01,35,
667687,000002AC,false,Rx,0,8,00,FF,FF,00,00,40,00,50,
667706,0000010E,false,Rx,0,8,00,00,0A,00,00,C0,AB,57,
667723,000002AD,false,Rx,0,8,00,01,00,40,FF,FF,FF,0F,
668801,000002AE,false,Rx,0,8,01,00,FF,3F,01,01,00,00,
668836,000002B6,false,Rx,0,8,93,0E,DA,01,00,00,00,40,
668854,00000251,false,Rx,0,8,E8,A3,D9,00,00,00,00,00,
668871,000002B7,false,Rx,0,8,08,02,F0,00,00,04,00,00,
669611,00000252,false,Rx,0,8,00,00,00,00,03,00,00,00,
669646,000002B8,false,Rx,0,8,AA,11,11,00,00,00,00,00,
669664,00000253,false,Rx,0,8,00,00,00,52,52,00,80,44,
669682,000002B9,false,Rx,0,8,0A,00,00,00,00,00,00,00,
670573,00000396,false,Rx,0,8,55,53,EC,0F,08,00,00,02,
670602,000002E1,false,Rx,0,8,C2,5A,DA,00,00,00,00,40,
670620,00000397,false,Rx,0,8,1D,00,00,00,00,00,00,00,
670637,000002E2,false,Rx,0,8,FD,00,00,00,00,14,00,04,
671567,00000398,false,Rx,0,8,00,00,00,00,00,00,00,00,
671587,000002E3,false,Rx,0,8,00,00,00,00,00,00,72,01,
671605,000002E4,false,Rx,0,8,02,00,00,00,00,00,00,00,
673573,00000161,false,Rx,0,8,F8,4B,3B,03,00,00,00,02,
673595,00000162,false,Rx,0,8,FF,FC,01,00,00,00,00,00,
680572,0000019B,false,Rx,0,8,3C,95,7F,00,00,E4,00,00,
681566,0000019C,false,Rx,0,8,40,20,00,00,00,00,0B,09,
681587,000002D6,false,Rx,0,8,59,0F,EC,00,00,00,00,00,
681605,0000019D,false,Rx,0,8,00,10,00,01,00,00,00,00,
681623,000002D7,false,Rx,0,8,00,00,00,00,03,00,00,00,
682569,0000019E,false,Rx,0,8,15,00,00,00,00,32,00,00,
682590,000002D8,false,Rx,0,8,00,00,00,00,00,00,38,45,
682607,000002EB,false,Rx,0,8,60,75,EC,09,08,01,00,02,
682625,000002D9,false,Rx,0,8,00,00,00,00,00,00,00,00,
683569,000002EC,false,Rx,0,8,0A,00,00,00,00,00,00,00,
683590,00000383,false,Rx,0,8,12,ED,01,00,02,00,00,00,
683608,000002ED,false,Rx,0,8,00,00,00,00,00,00,00,00,
683625,000002EE,false,Rx,0,8,00,00,00,00,00,00,00,00,
684569,0000011B,false,Rx,0,8,35,9C,77,05,80,08,A8,02,
684590,0000012B,false,Rx,0,8,72,66,77,06,00,00,08,00,
684608,0000011C,false,Rx,0,8,00,05,20,00,22,00,01,01,
684626,0000012C,false,Rx,0,8,00,00,01,00,00,64,00,00,
685567,00000356,false,Rx,0,8,D3,1F,ED,00,00,00,00,00,
685587,00000357,false,Rx,0,8,00,00,00,00,00,4B,4D,48,
685605,00000358,false,Rx,0,8,35,41,45,4D,52,37,33,4F,
685623,00000359,false,Rx,0,8,51,4F,34,52,4A,35,33,00,
689566,00000121,false,Rx,0,8,93,16,82,00,00,00,00,05,
689588,00000122,false,Rx,0,8,FF,D9,67,1F,46,46,46,46,
689605,00000123,false,Rx,0,8,11,03,00,00,00,00,01,35,
689623,00000419,false,Rx,0,8,3D,C0,84,D6,41,79,8F,00,
690565,00000124,false,Rx,0,8,00,00,0A,00,00,00,20,40,
695570,00000036,false,Rx,0,8,D8,71,84,51,00,00,25,01,
696567,00000037,false,Rx,0,8,00,00,00,10,00,40,00,00,
696589,00000038,false,Rx,0,8,04,00,00,00,90,38,96,D4,
696607,00000039,false,Rx,0,8,00,00,00,00,00,00,00,00,
698566,000003B6,false,Rx,0,8,FE,59,EB,00,00,00,00,46,
698586,000003B7,false,Rx,0,8,46,00,00,00,00,00,00,00,
698604,000003B8,false,Rx,0,8,0C,03,00,00,00,00,69,0E,
699569,000003B9,false,Rx,0,8,00,00,00,00,00,00,00,00,
700565,00000061,false,Rx,0,8,F2,63,8A,00,00,00,00,00,
700584,00000062,false,Rx,0,8,02,02,00,02,40,FF,00,FF,
700601,00000063,false,Rx,0,8,00,00,05,00,00,08,FD,00,
701571,00000064,false,Rx,0,8,00,00,00,04,FF,FA,00,00,
701593,000000A1,false,Rx,0,8,57,82,8A,1A,00,00,00,00,
701611,000000A2,false,Rx,0,8,00,00,00,00,00,00,00,00,
701629,000000A3,false,Rx,0,8,00,40,01,00,00,00,00,00,
703566,000001A1,false,Rx,0,8,C6,98,3C,FE,F7,7F,64,00,
704565,000001A2,false,Rx,0,8,00,00,00,00,00,08,00,00,
704586,00000384,false,Rx,0,8,E9,DC,02,00,00,FF,00,21,
704604,000001A3,false,Rx,0,8,FF,F3,3F,00,00,00,00,00,
704622,0000036F,false,Rx,0,8,5F,81,01,00,00,00,00,00,
705567,000001A4,false,Rx,0,8,FE,07,00,00,00,00,00,00,
705587,0000037F,false,Rx,0,8,F4,10,52,24,41,02,00,00,
708572,00000091,false,Rx,0,8,9E,CC,D8,00,00,00,00,00,
708595,00000092,false,Rx,0,8,00,00,00,00,00,00,00,00,
708613,00000093,false,Rx,0,8,00,00,00,00,00,00,00,00,
708630,00000094,false,Rx,0,8,00,00,00,00,00,00,00,00,
709601,00000487,false,Rx,0,8,00,00,00,00,00,00,00,00,
709635,00000642,false,Rx,0,8,FF,FF,FF,FF,FF,FF,00,00,
709654,00000645,false,Rx,0,8,C7,35,06,79,E0,32,56,00,
712588,000003AA,false,Rx,0,8,FF,00,B0,00,54,00,00,00,
713572,00000495,false,Rx,0,8,49,00,00,00,00,00,00,00,
716571,0000010B,false,Rx,0,8,45,E2,86,00,00,00,00,05,
716595,0000010C,false,Rx,0,8,FF,F9,E7,1F,46,44,46,46,
717567,0000010D,false,Rx,0,8,10,03,00,00,00,00,01,35,
717591,00000146,false,Rx,0,8,02,CB,38,10,04,01,00,00,
717608,0000010E,false,Rx,0,8,00,00,0A,00,00,C0,AB,57,
717626,00000147,false,Rx,0,8,00,04,7D,00,40,00,00,00,
718566,00000148,false,Rx,0,8,00,00,00,00,00,90,40,05,
718588,00000149,false,Rx,0,8,00,00,00,00,00,00,00,00,
720564,000001B1,false,Rx,0,8,64,13,38,00,72,00,00,00,
720590,000001B2,false,Rx,0,8,23,00,04,0F,0F,07,52,10,
720607,000001B3,false,Rx,0,8,10,2C,00,00,87,90,96,90,
720625,000001B4,false,Rx,0,8,95,91,17,00,00,40,01,00,
728570,00000380,false,Rx,0,8,AD,D7,FF,00,00,00,00,01,
729568,00000419,false,Rx,0,8,3D,C0,84,D6,41,79,8F,00,
730566,0000019B,false,Rx,0,8,73,AC,84,00,00,E4,00,00,
731567,0000019C,false,Rx,0,8,40,20,00,00,00,00,0B,09,
731586,0000019D,false,Rx,0,8,00,10,00,01,00,00,00,00,
731604,000003B0,false,Rx,0,8,72,37,FF,C7,00,00,03,C0,
731622,0000019E,false,Rx,0,8,15,00,00,00,00,32,00,00,
733567,00000448,false,Rx,0,8,10,20,00,00,00,00,00,00,
733589,0000011B,false,Rx,0,8,FD,65,7C,05,80,08,A8,02,
734567,0000012B,false,Rx,0,8,BA,9F,7C,06,00,00,08,00,
734587,0000011C,false,Rx,0,8,00,05,20,00,22,00,01,01,
734605,0000012C,false,Rx,0,8,00,00,01,00,00,64,00,00,
734622,000001FB,false,Rx,0,8,80,31,D9,00,00,00,00,00,
735566,000003B1,false,Rx,0,8,9B,3C,FF,40,00,00,20,00,
735587,000001FC,false,Rx,0,8,00,00,00,00,00,00,00,00,
735605,000001FD,false,Rx,0,8,00,1A,03,00,00,00,00,00,
735623,000001FE,false,Rx,0,8,00,00,00,00,00,00,00,00,
739563,00000121,false,Rx,0,8,EC,3A,87,00,00,00,00,05,
739583,00000122,false,Rx,0,8,FF,D9,67,1F,46,46,46,46,
739601,00000123,false,Rx,0,8,11,03,00,00,00,00,01,35,
739619,00000124,false,Rx,0,8,00,00,0A,00,00,00,20,40,
743581,000003B2,false,Rx,0,8,36,15,FF,02,29,2F,34,00,
745575,00000036,false,Rx,0,8,D5,B7,89,51,00,00,25,01,
746562,00000037,false,Rx,0,8,00,00,00,10,00,40,00,00,
746588,00000038,false,Rx,0,8,04,00,00,00,90,38,96,D4,
746606,00000039,false,Rx,0,8,00,00,00,00,00,00,00,00,
748565,000001AB,false,Rx,0,8,34,AC,83,50,70,38,00,00,
748587,000001AC,false,Rx,0,8,00,28,00,00,00,00,00,00,
748604,000002FF,false,Rx,0,8,E2,01,00,F1,3F,00,00,00,
749565,000004A3,false,Rx,0,8,80,00,48,0B,3E,00,00,00,
749592,00000316,false,Rx,0,8,65,AD,DA,34,14,80,0A,00,
749610,00000427,false,Rx,0,8,1D,86,FF,00,80,0A,00,00,
749627,00000317,false,Rx,0,8,00,00,05,00,00,00,00,00,
750562,00000472,false,Rx,0,8,5C,EC,00,40,08,41,00,45,
750588,00000061,false,Rx,0,8,8D,4F,8F,00,00,00,00,00,
750606,00000473,false,Rx,0,8,5F,24,00,25,00,00,00,78,
750624,00000062,false,Rx,0,8,02,02,00,02,40,FF,00,FF,
751562,00000474,false,Rx,0,8,93,44,00,00,00,00,00,14,
751588,00000063,false,Rx,0,8,00,00,05,00,00,08,FD,00,
751606,000004A4,false,Rx,0,8,FF,FF,FF,00,00,00,00,00,
751624,00000064,false,Rx,0,8,00,00,00,04,FF,FA,00,00,
752562,000000A1,false,Rx,0,8,58,69,8F,1A,00,00,00,00,
752587,000000A2,false,Rx,0,8,00,00,00,00,00,00,00,00,
752604,000000A3,false,Rx,0,8,00,40,01,00,00,00,00,00,
754565,00000516,false,Rx,0,8,61,02,00,00,00,00,FF,FF,
758600,0000042A,false,Rx,0,8,F4,DE,FF,01,00,10,00,00,
758638,000001E6,false,Rx,0,8,FC,C0,B1,02,00,00,00,00,
759598,000001BB,false,Rx,0,8,C0,42,B1,02,00,00,00,0A,
759648,000001BC,false,Rx,0,8,32,00,00,00,02,00,00,00,
759666,000001BD,false,Rx,0,8,00,00,00,00,00,00,00,00,
759684,000001E7,false,Rx,0,8,00,00,22,03,20,01,00,00,
766593,0000010B,false,Rx,0,8,BE,F1,8B,00,00,00,00,05,
766634,0000010C,false,Rx,0,8,FF,F9,E7,1F,46,45,46,46,
767598,0000010D,false,Rx,0,8,10,03,00,00,00,00,01,35,
767631,0000010E,false,Rx,0,8,00,00,0A,00,00,C0,AB,57,
767649,000002C1,false,Rx,0,8,CF,ED,EE,21,00,41,00,A8,
767667,000002C2,false,Rx,0,8,0B,00,00,00,00,00,00,00,
768877,000002C3,false,Rx,0,8,00,00,00,00,00,00,00,00,
768912,000002C4,false,Rx,0,8,00,00,00,00,00,00,00,00,
773662,00000161,false,Rx,0,8,06,5B,40,03,00,00,00,02,
773700,00000162,false,Rx,0,8,FF,FC,01,00,00,00,00,00,
780593,0000019B,false,Rx,0,8,7E,6A,89,00,00,E4,00,00,
781598,0000019C,false,Rx,0,8,40,20,00,00,00,00,0B,09,
781631,0000019D,false,Rx,0,8,00,10,00,01,00,00,00,00,
782677,0000019E,false,Rx,0,8,15,00,00,00,00,32,00,00,
784184,0000011B,false,Rx,0,8,C9,BD,81,05,80,08,A8,02,
784221,0000012B,false,Rx,0,8,8E,47,81,06,00,00,08,00,
784239,0000011C,false,Rx,0,8,00,05,20,00,22,00,01,01,
785366,0000012C,false,Rx,0,8,00,00,01,00,00,64,00,00,
785416,0000033B,false,Rx,0,8,A6,5D,DB,00,00,00,00,00,
786941,0000033C,false,Rx,0,8,00,00,00,00,F0,00,00,00,
787002,0000033D,false,Rx,0,8,00,00,00,00,00,00,00,00,
787020,0000033E,false,Rx,0,8,00,00,00,00,00,00,00,00,
789602,00000121,false,Rx,0,8,54,3B,8C,00,00,00,00,05,
789642,00000122,false,Rx,0,8,FF,D9,67,1F,46,46,46,46,
789660,00000123,false,Rx,0,8,11,03,00,00,00,00,01,35,
789678,00000124,false,Rx,0,8,00,00,0A,00,00,00,20,40,
796590,00000036,false,Rx,0,8,26,29,8E,51,00,00,25,01,
796627,00000037,false,Rx,0,8,00,00,00,10,00,40,00,00,
796646,00000038,false,Rx,0,8,04,00,00,00,90,38,96,D4,
796664,00000039,false,Rx,0,8,00,00,00,00,00,00,00,00,
797618,000002E6,false,Rx,0,8,A8,E8,D8,01,00,00,00,15,
797651,00000256,false,Rx,0,8,66,CF,D8,15,00,00,00,01,
798899,000002E7,false,Rx,0,8,0A,00,00,00,00,00,00,00,
798934,00000257,false,Rx,0,8,00,8B,42,18,86,07,00,8B,
798952,000002E8,false,Rx,0,8,00,00,00,00,00,00,00,00,
799313,00000258,false,Rx,0,8,0A,73,1E,00,10,15,00,1C,
799351,000002E9,false,Rx,0,8,00,00,00,00,00,00,00,00,
799373,00000259,false,Rx,0,8,41,05,8A,3C,28,02,00,00,
800381,00000061,false,Rx,0,8,F0,8A,94,00,00,00,00,00,
800418,00000062,false,Rx,0,8,02,02,00,02,40,FF,00,FF,
800436,00000063,false,Rx,0,8,00,00,05,00,00,08,FD,00,
801803,00000064,false,Rx,0,8,00,00,00,04,FF,FA,00,00,
803451,000000A1,false,Rx,0,8,37,D8,94,1A,00,00,00,00,
804710,000000A2,false,Rx,0,8,00,00,00,00,00,00,00,00,
804779,000000A3,false,Rx,0,8,00,40,01,00,00,00,00,00,
804798,000003A1,false,Rx,0,8,A7,DC,FD,00,FF,FF,FF,FF,
804815,000003A2,false,Rx,0,8,00,00,00,00,00,00,00,00,
804850,000001A1,false,Rx,0,8,D2,20,41,FE,F7,7F,64,00,
804867,00000653,false,Rx,0,8,0A,19,03,01,02,2A,00,00,
806129,0000037F,false,Rx,0,8,22,20,52,24,41,02,00,00,
806148,000001A4,false,Rx,0,8,FE,07,00,00,00,00,00,00,
806166,000001F1,false,Rx,0,8,AA,54,84,01,00,00,28,00,
806183,000001F2,false,Rx,0,8,00,00,00,00,00,00,00,00,
808627,00000091,false,Rx,0,8,D8,95,D9,00,00,00,00,00,
808663,00000092,false,Rx,0,8,00,00,00,00,00,00,00,00,
808681,00000093,false,Rx,0,8,00,00,00,00,00,00,00,00,
808699,00000094,false,Rx,0,8,00,00,00,00,00,00,00,00,
814596,000001E1,false,Rx,0,8,EA,A4,B4,02,00,00,00,00,
814634,000001E2,false,Rx,0,8,00,00,00,00,00,00,00,00,
816965,0000010B,false,Rx,0,8,35,E1,90,00,00,00,00,05,
817006,0000010C,false,Rx,0,8,FF,F9,E7,1F,46,44,46,46,
817024,0000010D,false,Rx,0,8,10,03,00,00,00,00,01,35,
817041,00000146,false,Rx,0,8,7D,E7,3D,10,04,01,00,00,
817417,0000010E,false,Rx,0,8,00,00,0A,00,00,C0,AB,57,
817458,00000147,false,Rx,0,8,00,04,7D,00,40,00,00,00,
818387,000000FF,false,Rx,0,8,CB,10,00,00,00,00,02,00,
818420,00000148,false,Rx,0,8,00,00,00,00,00,90,40,05,
818438,00000149,false,Rx,0,8,00,00,00,00,00,00,00,00,
819572,00000394,false,Rx,0,8,2A,22,1A,49,00,00,00,00,
819595,000003C3,false,Rx,0,8,45,10,31,30,36,00,00,00,
819619,000003E0,false,Rx,0,8,66,20,01,00,54,03,00,00,
819637,000000C5,false,Rx,0,8,00,00,00,00,00,00,00,00,
820660,000001B1,false,Rx,0,8,1B,3F,3D,00,72,00,00,00,
820685,00000244,false,Rx,0,8,FF,FF,FF,FF,FF,FF,FF,FF,
820703,000001B2,false,Rx,0,8,23,00,04,0F,0F,07,52,10,
820721,000003E4,false,Rx,0,8,FE,00,00,00,00,00,00,00,
821755,000001B3,false,Rx,0,8,10,2C,00,00,87,90,96,90,
821789,000003E5,false,Rx,0,8,37,80,01,00,00,00,00,00,
821823,000001B4,false,Rx,0,8,95,91,17,00,00,40,01,00,
821841,000003E6,false,Rx,0,8,67,90,00,00,00,00,00,00,
821859,0000041A,false,Rx,0,8,BB,A0,12,00,50,01,00,00,
823324,000004B4,false,Rx,0,8,00,00,00,00,00,00,00,00,
823725,0000041B,false,Rx,0,8,70,D0,00,00,00,00,00,00,
823752,00000475,false,Rx,0,8,12,00,00,00,00,00,00,00,
823771,0000041C,false,Rx,0,8,48,00,E0,00,00,00,00,00,
823812,000004B5,false,Rx,0,8,08,00,F0,07,00,00,00,00,
823830,00000422,false,Rx,0,8,9D,70,01,00,00,00,04,00,
823847,00000432,false,Rx,0,8,03,20,02,00,00,00,00,00,
824785,000004CA,false,Rx,0,8,00,00,00,00,00,00,00,00,
825188,00000435,false,Rx,0,8,26,C0,00,40,00,00,00,00,
825213,00000405,false,Rx,0,8,BD,30,00,00,00,01,00,00,
825252,00000442,false,Rx,0,8,CE,20,11,81,00,00,00,00,
825269,00000111,false,Rx,0,8,9E,4C,E2,01,00,00,00,00,
825287,00000410,false,Rx,0,8,A4,70,58,3C,16,6B,FF,FF,
827561,00000112,false,Rx,0,8,00,00,00,00,00,00,00,00,
827626,00000411,false,Rx,0,8,A8,01,50,50,00,00,44,04,
828105,00000416,false,Rx,0,8,55,00,00,00,00,00,00,00,
829450,00000417,false,Rx,0,8,06,10,00,00,00,01,00,00,
829484,00000401,false,Rx,0,8,A9,30,10,00,00,04,00,00,
829502,00000418,false,Rx,0,8,19,70,00,00,12,0C,00,00,
829520,000004CE,false,Rx,0,8,14,01,FF,FF,FF,FF,FF,FF,
829980,00000419,false,Rx,0,8,3D,C0,84,D6,41,79,8F,00,
831229,00000444,false,Rx,0,8,D5,20,20,50,55,50,00,00,
831248,000004D8,false,Rx,0,8,41,10,F0,F0,40,F2,1E,CC,
831265,00000445,false,Rx,0,8,C6,C0,00,00,00,00,00,18,
832673,000004DD,false,Rx,0,8,00,00,FE,00,04,00,00,00,
832694,0000019B,false,Rx,0,8,8D,F4,8E,00,00,E4,00,00,
832712,000004DF,false,Rx,0,8,FF,03,0C,3F,00,00,00,00,
832805,000004E9,false,Rx,0,8,12,00,00,34,00,00,50,00,
834164,000004EA,false,Rx,0,8,67,00,00,89,00,00,00,00,
834575,0000012C,false,Rx,0,8,00,00,01,00,00,64,00,00,
834606,0000030B,false,Rx,0,8,D7,B1,DB,00,04,00,00,00,
835622,000004ED,false,Rx,0,8,00,00,00,00,00,FF,FF,1F,
836002,0000030C,false,Rx,0,8,00,00,0E,00,2C,00,A0,0F,
836020,000004EE,false,Rx,0,8,FF,FF,00,00,00,00,00,00,
837382,0000030D,false,Rx,0,8,00,00,00,00,49,00,00,00,
837426,000004EF,false,Rx,0,8,60,00,60,00,29,14,00,00,
837444,0000030E,false,Rx,0,8,00,00,38,05,21,00,00,00,
837462,0000063D,false,Rx,0,8,00,80,00,00,00,00,00,00,
838740,00000646,false,Rx,0,8,00,00,00,80,01,00,00,00,
839848,00000122,false,Rx,0,8,FF,D9,67,1F,46,46,46,46,
839882,00000123,false,Rx,0,8,11,03,00,00,00,00,01,35,
839900,00000124,false,Rx,0,8,00,00,0A,00,00,00,20,40,
845621,00000036,false,Rx,0,8,EE,2B,93,51,00,00,25,01,
846887,00000037,false,Rx,0,8,00,00,00,10,00,40,00,00,
846922,00000038,false,Rx,0,8,04,00,00,00,90,38,96,D4,
846940,00000039,false,Rx,0,8,00,00,00,00,00,00,00,00,
848371,000001AB,false,Rx,0,8,FC,55,88,50,70,38,00,00,
848422,000001AC,false,Rx,0,8,00,28,00,00,00,00,00,00,
848440,00000226,false,Rx,0,8,AB,9D,B5,FF,43,E1,05,42,
849956,00000227,false,Rx,0,8,02,70,E1,08,00,F2,17,04,
850038,00000061,false,Rx,0,8,FD,4C,99,00,00,00,00,00,
851254,00000062,false,Rx,0,8,02,02,00,02,40,FF,00,FF,
851290,00000063,false,Rx,0,8,00,00,05,00,00,08,FD,00,
851308,00000151,false,Rx,0,8,A6,9C,DB,A0,C8,00,28,19,
851326,00000064,false,Rx,0,8,00,00,00,04,FF,FA,00,00,
851343,00000152,false,Rx,0,8,16,18,18,00,0B,00,00,00,
851563,000000A1,false,Rx,0,8,01,9B,99,1A,00,00,00,00,
852591,00000153,false,Rx,0,8,00,00,00,00,00,00,00,00,
852629,000000A2,false,Rx,0,8,00,00,00,00,00,00,00,00,
852647,00000154,false,Rx,0,8,00,00,00,00,00,00,00,00,
852665,000000A3,false,Rx,0,8,00,40,01,00,00,00,00,00,
852682,000001F6,false,Rx,0,8,3F,80,DB,00,00,00,00,0D,
855013,000002FB,false,Rx,0,8,07,7D,DB,04,5F,1A,CC,CC,
855066,000001F7,false,Rx,0,8,0B,00,00,00,00,00,00,00,
855084,000002FC,false,Rx,0,8,04,00,16,19,00,00,86,BF,
855102,000001F8,false,Rx,0,8,00,00,00,00,00,00,00,00,
855119,000002FD,false,Rx,0,8,00,00,00,00,00,1C,0E,EA,
856419,00000237,false,Rx,0,8,00,15,BA,00,00,AA,1E,00,
856438,00000327,false,Rx,0,8,00,00,00,00,05,00,00,00,
856879,00000238,false,Rx,0,8,00,00,5F,00,00,00,00,00,
856897,00000328,false,Rx,0,8,00,00,00,00,00,00,00,00,
856914,00000239,false,Rx,0,8,00,00,00,00,01,00,00,00,
856932,0000025B,false,Rx,0,8,F7,EA,DB,40,40,20,00,00,
856950,00000331,false,Rx,0,8,7C,AE,DB,F1,C8,A0,2C,97,
858249,0000025C,false,Rx,0,8,00,00,0B,00,34,89,19,00,
858273,00000332,false,Rx,0,8,94,02,00,00,00,00,00,00,
858290,0000025D,false,Rx,0,8,00,C8,00,00,00,80,C0,70,
858308,00000333,false,Rx,0,8,00,00,00,1C,0C,40,20,A0,
858326,0000025E,false,Rx,0,8,04,07,0E,01,00,00,00,00,
859243,00000419,false,Rx,0,8,CA,D0,84,D6,45,79,8F,00,
860391,00000561,false,Rx,0,8,63,02,00,00,00,00,FF,FF,
863173,00000382,false,Rx,0,8,F1,7A,01,00,00,01,08,00,
866524,0000010B,false,Rx,0,8,4A,CD,95,00,00,00,00,05,
866734,000002AB,false,Rx,0,8,54,B8,DC,0C,0C,00,00,00,
866752,0000010C,false,Rx,0,8,FF,F9,E7,1F,46,44,46,46,
867596,000002AC,false,Rx,0,8,00,FF,FF,00,00,40,00,50,
867623,0000010D,false,Rx,0,8,10,03,00,00,00,00,01,35,
867641,000002AD,false,Rx,0,8,00,01,00,40,FF,FF,FF,0F,
867667,0000010E,false,Rx,0,8,00,00,0A,00,00,C0,AB,57,
868565,000002AE,false,Rx,0,8,01,00,FF,3F,01,01,00,00,
868584,000002B6,false,Rx,0,8,26,C9,DC,01,00,00,00,40,
868602,00000251,false,Rx,0,8,EE,CD,DB,00,00,00,00,00,
869569,000002B7,false,Rx,0,8,08,02,F0,00,00,04,00,00,
869590,00000252,false,Rx,0,8,00,00,00,00,03,00,00,00,
869608,000002B8,false,Rx,0,8,AA,11,11,00,00,00,00,00,
869631,00000253,false,Rx,0,8,00,00,00,52,52,00,80,44,
869649,000002B9,false,Rx,0,8,0A,00,00,00,00,00,00,00,
870567,00000396,false,Rx,0,8,A6,B2,ED,0F,08,01,00,02,
870594,000002E1,false,Rx,0,8,77,9D,DC,00,00,00,00,40,
870612,00000397,false,Rx,0,8,00,00,00,00,00,00,00,00,
870630,000002E2,false,Rx,0,8,FD,00,00,00,00,14,00,04,
871565,00000398,false,Rx,0,8,00,00,00,00,00,00,00,00,
871584,000002E3,false,Rx,0,8,00,00,00,00,00,00,72,01,
871602,000002E4,false,Rx,0,8,02,00,00,00,00,00,00,00,
873565,00000161,false,Rx,0,8,F0,73,45,03,00,00,00,02,
874565,00000162,false,Rx,0,8,FF,FC,01,00,00,00,00,00,
880564,0000019B,false,Rx,0,8,45,F6,93,00,00,E4,00,00,
881569,0000019C,false,Rx,0,8,40,20,00,00,00,00,0B,09,
881591,0000019D,false,Rx,0,8,00,10,00,01,00,00,00,00,
881609,000002D6,false,Rx,0,8,1F,56,ED,00,00,00,00,00,
881626,0000019E,false,Rx,0,8,15,00,00,00,00,32,00,00,
882567,000002D7,false,Rx,0,8,00,00,00,00,03,00,00,00,
882588,000002EB,false,Rx,0,8,A2,91,ED,08,08,01,00,02,
882605,000002D8,false,Rx,0,8,00,00,00,00,00,00,38,45,
882623,000002EC,false,Rx,0,8,02,00,00,00,00,00,00,00,
883568,000002D9,false,Rx,0,8,00,00,00,00,00,00,00,00,
883589,000002ED,false,Rx,0,8,00,00,00,00,00,00,00,00,
883607,00000383,false,Rx,0,8,12,ED,01,00,02,00,00,00,
883625,000002EE,false,Rx,0,8,00,00,00,00,00,00,00,00,
884567,0000011B,false,Rx,0,8,25,EC,8B,05,80,08,A8,02,
884588,0000012B,false,Rx,0,8,62,16,8B,06,00,00,08,00,
884605,0000011C,false,Rx,0,8,00,05,20,00,22,00,01,01,
884623,0000012C,false,Rx,0,8,00,00,01,00,00,64,00,00,
885569,00000356,false,Rx,0,8,19,F4,EE,00,00,00,00,00,
885590,00000357,false,Rx,0,8,00,00,00,00,00,4B,4D,48,
885607,00000358,false,Rx,0,8,35,41,45,4D,52,37,33,4F,
885625,00000359,false,Rx,0,8,51,4F,34,52,4A,35,33,00,
889564,00000121,false,Rx,0,8,6F,A7,96,00,00,00,00,05,
889584,00000122,false,Rx,0,8,FF,D9,67,1F,46,46,46,46,
889602,00000123,false,Rx,0,8,11,03,00,00,00,00,01,35,
889619,00000124,false,Rx,0,8,00,00,0A,00,00,00,20,40,
894565,00000419,false,Rx,0,8,CA,D0,84,D6,45,79,8F,00,
895574,00000036,false,Rx,0,8,56,2A,98,51,00,00,25,01,
896570,00000037,false,Rx,0,8,00,00,00,10,00,40,00,00,
896591,00000038,false,Rx,0,8,04,00,00,00,90,38,96,D4,
896609,00000039,false,Rx,0,8,00,00,00,00,00,00,00,00,
898572,000003B6,false,Rx,0,8,0D,C7,EC,00,00,00,00,46,
898592,000003B7,false,Rx,0,8,46,00,00,00,00,00,00,00,
898610,000003B8,false,Rx,0,8,0C,03,00,00,00,00,69,0E,
899568,000003B9,false,Rx,0,8,00,00,00,00,00,00,00,00,
900566,00000061,false,Rx,0,8,0E,D2,9E,00,00,00,00,00,
900586,00000062,false,Rx,0,8,02,02,00,02,40,FF,00,FF,
900604,00000063,false,Rx,0,8,00,00,05,00,00,08,FD,00,
901566,00000064,false,Rx,0,8,00,00,00,04,FF,FA,00,00,
901585,000000A1,false,Rx,0,8,08,1E,9E,1A,00,00,00,00,
901603,000000A2,false,Rx,0,8,00,00,00,00,00,00,00,00,
901620,000000A3,false,Rx,0,8,00,40,01,00,00,00,00,00,
903565,000001A1,false,Rx,0,8,21,BE,46,FE,F7,7F,64,00,
904566,000001A2,false,Rx,0,8,00,00,00,00,00,08,00,00,
904586,00000384,false,Rx,0,8,E9,DC,02,00,00,FF,00,21,
904603,000001A3,false,Rx,0,8,FF,F3,3F,00,00,00,00,00,
904621,0000036F,false,Rx,0,8,30,A1,01,00,00,00,00,00,
905567,000001A4,false,Rx,0,8,FE,07,00,00,00,00,00,00,
905589,0000037F,false,Rx,0,8,9B,30,52,24,41,02,00,00,
908319,00000091,false,Rx,0,8,12,7E,DA,00,00,00,00,00,
908732,00000092,false,Rx,0,8,00,00,00,00,00,00,00,00,
908764,00000093,false,Rx,0,8,00,00,00,00,00,00,00,00,
908784,000001E6,false,Rx,0,8,0A,E8,B4,02,00,00,00,00,
909580,00000094,false,Rx,0,8,00,00,00,00,00,00,00,00,
909607,000001BB,false,Rx,0,8,CF,A9,B4,02,00,00,00,0A,
909632,000001BC,false,Rx,0,8,32,00,00,00,02,00,00,00,
909650,000001BD,false,Rx,0,8,00,00,00,00,00,00,00,00,
910561,000001E7,false,Rx,0,8,00,00,22,03,20,01,00,00,
911561,00000487,false,Rx,0,8,00,00,00,00,00,00,00,00,
911583,00000642,false,Rx,0,8,FF,FF,FF,FF,FF,FF,00,00,
912561,000003AA,false,Rx,0,8,FF,00,B0,00,54,00,00,00,
913561,00000495,false,Rx,0,8,49,00,00,00,00,00,00,00,
916564,0000010B,false,Rx,0,8,CB,B9,9A,00,00,00,00,05,
916586,0000010C,false,Rx,0,8,FF,F9,E7,1F,46,44,46,46,
917576,0000010D,false,Rx,0,8,10,03,00,00,00,00,01,35,
917598,00000146,false,Rx,0,8,E5,ED,42,10,04,01,00,00,
917616,0000010E,false,Rx,0,8,00,00,0A,00,00,C0,AB,57,
917634,00000147,false,Rx,0,8,00,04,7D,00,40,00,00,00,
918565,00000148,false,Rx,0,8,00,00,00,00,00,90,40,05,
918590,00000149,false,Rx,0,8,00,00,00,00,00,00,00,00,
920562,000001B1,false,Rx,0,8,83,35,42,00,72,00,00,00,
920583,000001B2,false,Rx,0,8,23,00,04,0F,0F,07,52,10,
920601,000001B3,false,Rx,0,8,10,2C,00,00,87,90,96,90,
920619,000001B4,false,Rx,0,8,95,91,17,00,00,40,01,00,
921571,00000643,false,Rx,0,8,00,FC,FF,FF,FF,FF,03,00,
928563,00000380,false,Rx,0,8,AD,D7,FF,00,00,00,00,01,
929564,00000419,false,Rx,0,8,CE,E0,84,D6,49,79,8F,00,
930564,0000019B,false,Rx,0,8,FD,F7,98,00,00,E4,00,00,
931565,0000019C,false,Rx,0,8,40,20,00,00,00,00,0B,09,
931589,0000019D,false,Rx,0,8,00,10,00,01,00,00,00,00,
931607,000003B0,false,Rx,0,8,72,37,FF,C7,00,00,03,C0,
931625,0000019E,false,Rx,0,8,15,00,00,00,00,32,00,00,
933565,00000448,false,Rx,0,8,10,20,00,00,00,00,00,00,
933586,0000011B,false,Rx,0,8,E7,36,90,05,80,08,A8,02,
934566,0000012B,false,Rx,0,8,A0,CC,90,06,00,00,08,00,
934590,0000011C,false,Rx,0,8,00,05,20,00,22,00,01,01,
934608,0000012C,false,Rx,0,8,00,00,01,00,00,64,00,00,
934626,000001FB,false,Rx,0,8,0C,83,DB,00,00,00,00,00,
935565,000003B1,false,Rx,0,8,9B,3C,FF,40,00,00,20,00,
935589,000001FC,false,Rx,0,8,00,00,00,00,00,00,00,00,
935607,000001FD,false,Rx,0,8,00,1A,03,00,00,00,00,00,
935625,000001FE,false,Rx,0,8,00,00,00,00,00,00,00,00,
939566,00000121,false,Rx,0,8,62,61,9B,00,00,00,00,05,
939587,00000122,false,Rx,0,8,FF,D9,67,1F,46,46,46,46,
939605,00000123,false,Rx,0,8,11,03,00,00,00,00,01,35,
939622,00000124,false,Rx,0,8,00,00,0A,00,00,00,20,40,
943566,000003B2,false,Rx,0,8,36,15,FF,02,29,2F,34,00,
945586,00000036,false,Rx,0,8,29,06,9D,51,00,00,25,01,
946582,00000037,false,Rx,0,8,00,00,00,10,00,40,00,00,
946609,00000563,false,Rx,0,8,65,02,00,00,00,00,FF,FF,
946627,00000038,false,Rx,0,8,04,00,00,00,90,38,96,D4,
946645,00000039,false,Rx,0,8,00,00,00,00,00,00,00,00,
947571,000001AB,false,Rx,0,8,0A,7D,8D,50,70,38,00,00,
948571,000001AC,false,Rx,0,8,00,28,00,00,00,00,00,00,
948597,00000316,false,Rx,0,8,41,05,DB,34,14,80,0A,00,
948615,00000317,false,Rx,0,8,00,00,05,00,00,00,00,00,
949571,000003CB,false,Rx,0,8,36,14,00,F4,00,00,00,00,
949593,00000427,false,Rx,0,8,1D,86,FF,00,80,0A,00,00,
949611,000003CC,false,Rx,0,8,36,31,34,30,33,34,31,00,
949629,00000472,false,Rx,0,8,5C,EC,00,40,08,41,00,45,
950566,00000473,false,Rx,0,8,5F,24,00,25,00,00,00,78,
950587,00000061,false,Rx,0,8,6D,49,A3,00,00,00,00,00,
950605,00000474,false,Rx,0,8,93,44,00,00,00,00,00,14,
950623,00000062,false,Rx,0,8,02,02,00,02,40,FF,00,FF,
952006,00000063,false,Rx,0,8,00,00,05,00,00,08,FD,00,
952041,00000064,false,Rx,0,8,00,00,00,04,FF,FA,00,00,
952058,000000A1,false,Rx,0,8,CB,9D,A3,1A,00,00,00,00,
952076,000004A3,false,Rx,0,8,80,00,48,0B,3E,00,00,00,
952094,000000A2,false,Rx,0,8,00,00,00,00,00,00,00,00,
952112,000002FF,false,Rx,0,8,E2,01,00,F1,3F,00,00,00,
953761,000000A3,false,Rx,0,8,00,40,01,00,00,00,00,00,
954987,000004A4,false,Rx,0,8,FF,FF,FF,00,00,00,00,00,
955021,000001F1,false,Rx,0,8,E7,BC,87,01,00,00,28,00,
955039,000001F2,false,Rx,0,8,00,00,00,00,00,00,00,00,
958610,0000042A,false,Rx,0,8,F4,DE,FF,01,00,10,00,00,
964585,000001E1,false,Rx,0,8,A7,4C,B7,02,00,00,00,00,
964622,000001E2,false,Rx,0,8,00,00,00,00,00,00,00,00,
966621,0000010B,false,Rx,0,8,B4,95,9F,00,00,00,00,05,
966662,0000010C,false,Rx,0,8,FF,F9,E7,1F,46,44,46,46,
968188,0000010D,false,Rx,0,8,10,03,00,00,00,00,01,35,
968223,000002C1,false,Rx,0,8,89,B4,EF,21,00,41,00,A8,
968241,0000010E,false,Rx,0,8,00,00,0A,00,00,C0,AB,57,
968258,000002C2,false,Rx,0,8,0B,00,00,00,00,00,00,00,
968276,000002C3,false,Rx,0,8,00,00,00,00,00,00,00,00,
969507,00000419,false,Rx,0,8,CE,E0,84,D6,49,79,8F,00,
973619,00000161,false,Rx,0,8,EA,0A,4A,03,00,00,00,02,
973658,00000162,false,Rx,0,8,FF,FC,01,00,00,00,00,00,
980600,0000019B,false,Rx,0,8,82,DB,9D,00,00,E4,00,00,
981597,0000019C,false,Rx,0,8,40,20,00,00,00,00,0B,09,
981630,0000019D,false,Rx,0,8,00,10,00,01,00,00,00,00,
981648,0000019E,false,Rx,0,8,15,00,00,00,00,32,00,00,
984653,0000011B,false,Rx,0,8,11,1E,95,05,80,08,A8,02,
986051,0000012B,false,Rx,0,8,56,E4,95,06,00,00,08,00,
986079,0000011C,false,Rx,0,8,00,05,20,00,22,00,01,01,
986097,0000012C,false,Rx,0,8,00,00,01,00,00,64,00,00,
986114,0000033B,false,Rx,0,8,13,9A,DD,00,00,00,00,00,
986132,0000033C,false,Rx,0,8,00,00,00,00,F0,00,00,00,
988715,00000121,false,Rx,0,8,B4,3D,A0,00,00,00,00,05,
990145,00000122,false,Rx,0,8,FF,D9,67,1F,46,46,46,46,
990180,00000123,false,Rx,0,8,11,03,00,00,00,00,01,35,
990198,00000124,false,Rx,0,8,00,00,0A,00,00,00,20,40,
995627,00000036,false,Rx,0,8,C6,2F,A2,51,00,00,25,01,
996907,00000037,false,Rx,0,8,00,00,00,10,00,40,00,00,
996942,00000038,false,Rx,0,8,04,00,00,00,90,38,96,D4,
996960,00000039,false,Rx,0,8,00,00,00,00,00,00,00,00,
998446,000002E6,false,Rx,0,8,24,5A,DA,01,00,00,00,15,
998479,00000256,false,Rx,0,8,EC,0D,DA,15,00,00,10,01,
998498,000002E7,false,Rx,0,8,0A,00,00,00,00,00,00,00,
998515,00000257,false,Rx,0,8,00,8B,42,1A,86,07,00,8B,
998533,000002E8,false,Rx,0,8,00,00,00,00,00,00,00,00,
1001256,00000258,false,Rx,0,8,0A,73,1E,00,10,15,00,1C,
1002725,000002E9,false,Rx,0,8,00,00,00,00,00,00,00,00,
1002792,00000259,false,Rx,0,8,4B,05,8B,3C,28,02,00,00,
1002811,00000061,false,Rx,0,8,D5,48,A8,00,00,00,00,00,
1002829,00000062,false,Rx,0,8,02,02,00,02,40,FF,00,FF,
1002846,00000063,false,Rx,0,8,00,00,05,00,00,08,FD,00,
1002864,000000A3,false,Rx,0,8,00,40,01,00,00,00,00,00,
1004265,000002BF,false,Rx,0,8,FF,FF,FF,00,00,00,00,00,
1004300,0000047F,false,Rx,0,8,FF,FF,FF,FF,FF,FF,F3,FF,
1004318,000001A1,false,Rx,0,8,2C,78,4B,FE,F7,7F,64,00,
1005665,00000653,false,Rx,0,8,0A,19,03,01,02,2A,00,00,
1005732,000001A2,false,Rx,0,8,00,00,00,00,00,08,00,00,
1005751,0000036F,false,Rx,0,8,89,B1,01,00,00,00,00,00,
1005769,000001A3,false,Rx,0,8,FF,F3,3F,00,00,00,00,00,
1005787,0000037F,false,Rx,0,8,93,40,52,24,41,02,00,00,
1009661,000001A4,false,Rx,0,8,FE,07,00,00,00,00,00,00,
1010326,00000091,false,Rx,0,8,54,27,DB,00,00,00,00,00,
1017788,0000010B,false,Rx,0,8,62,C9,A4,00,00,00,00,05,
1017823,0000010C,false,Rx,0,8,FF,F9,E7,1F,46,44,46,46,
1017841,0000010D,false,Rx,0,8,10,03,00,00,00,00,01,35,
1017859,00000146,false,Rx,0,8,9A,C1,47,10,04,01,00,00,
1017877,000000FF,false,Rx,0,8,CB,10,00,00,00,00,02,00,
1018618,00000148,false,Rx,0,8,00,00,00,00,00,90,40,05,
1018647,00000149,false,Rx,0,8,00,00,00,00,00,00,00,00,
1018666,00000394,false,Rx,0,8,2A,22,1A,49,00,00,00,00,
1020101,000003C3,false,Rx,0,8,45,10,31,30,36,00,00,00,
1020136,000003E0,false,Rx,0,8,66,20,01,00,54,03,00,00,
1020154,000001B1,false,Rx,0,8,FC,19,47,00,72,00,00,00,
1020172,000003E5,false,Rx,0,8,37,80,01,00,00,00,00,00,
1020586,000001B2,false,Rx,0,8,23,00,04,0F,0F,07,52,10,
1020609,000003E6,false,Rx,0,8,67,90,00,00,00,00,00,00,
1021612,000001B3,false,Rx,0,8,10,2C,00,00,87,90,96,90,
1021647,0000041A,false,Rx,0,8,BB,A0,12,00,50,01,00,00,
1021665,000001B4,false,Rx,0,8,95,91,17,00,00,40,01,00,
1021683,0000041B,false,Rx,0,8,70,D0,00,00,00,00,00,00,
1022961,000000C5,false,Rx,0,8,00,00,00,00,00,00,00,00,
1022996,0000041C,false,Rx,0,8,48,00,E0,00,00,00,00,00,
1023013,00000244,false,Rx,0,8,FF,FF,FF,FF,FF,FF,FF,FF,
1023031,00000422,false,Rx,0,8,9D,70,01,00,00,00,04,00,
1023049,00000475,false,Rx,0,8,12,00,00,00,00,00,00,00,
1023067,00000432,false,Rx,0,8,03,20,02,00,00,00,00,00,
1023708,00000496,false,Rx,0,8,12,00,00,00,00,00,00,00,
1023737,00000435,false,Rx,0,8,26,C0,00,40,00,00,00,00,
1023755,000004B4,false,Rx,0,8,00,00,00,00,00,00,00,00,
1024575,00000442,false,Rx,0,8,CE,20,11,81,00,00,00,00,
1024596,00000405,false,Rx,0,8,BD,30,00,00,00,01,00,00,
1024613,00000444,false,Rx,0,8,D5,20,20,50,55,50,00,00,
1025581,00000410,false,Rx,0,8,A4,70,58,3C,16,6B,FF,FF,
1025613,00000111,false,Rx,0,8,D8,15,E3,01,00,00,00,00,
1025631,00000411,false,Rx,0,8,A8,01,50,50,00,00,44,04,
1025649,00000112,false,Rx,0,8,00,00,00,00,00,00,00,00,
1025667,00000412,false,Rx,0,8,6D,60,00,00,00,00,00,00,
1026781,00000113,false,Rx,0,8,00,00,00,00,00,00,00,00,
1026816,00000413,false,Rx,0,8,F5,10,00,41,00,00,00,00,
1028101,00000114,false,Rx,0,8,00,00,00,00,00,00,00,00,
1028509,00000414,false,Rx,0,8,F0,10,00,00,28,00,00,00,
1028533,000004B5,false,Rx,0,8,08,00,F0,07,00,00,00,00,
1028666,00000416,false,Rx,0,8,55,00,00,00,00,00,00,00,
1028688,000004B7,false,Rx,0,8,08,00,F0,07,00,00,00,00,
1028924,00000417,false,Rx,0,8,06,10,00,00,00,01,00,00,
1028953,00000445,false,Rx,0,8,C6,C0,00,00,00,00,00,18,
1028971,00000401,false,Rx,0,8,A9,30,10,00,00,04,00,00,
1030199,00000464,false,Rx,0,8,D5,20,F0,FF,38,7F,05,00,
1030234,000004CE,false,Rx,0,8,14,01,FF,FF,FF,FF,FF,FF,
1030252,000004D7,false,Rx,0,8,23,01,00,00,00,00,00,00,
1031630,000004D8,false,Rx,0,8,41,10,F0,F0,40,F2,1E,CC,
1031656,000004DD,false,Rx,0,8,00,00,FE,00,04,00,00,00,
1031674,000004DF,false,Rx,0,8,FF,03,0C,3F,00,00,00,00,
1031692,0000019B,false,Rx,0,8,6D,F2,A2,00,00,E4,00,00,
1031709,000004E7,false,Rx,0,8,00,30,00,00,00,00,69,00,
1032056,000004E9,false,Rx,0,8,12,00,00,34,00,00,50,00,
1032077,0000019E,false,Rx,0,8,15,00,00,00,00,32,00,00,
1033139,000004EA,false,Rx,0,8,67,00,00,89,00,00,00,00,
1033175,000004EB,false,Rx,0,8,10,80,30,28,80,00,00,00,
1033193,000004EC,false,Rx,0,8,00,00,00,00,00,00,00,00,
1033580,000004ED,false,Rx,0,8,00,00,00,00,00,FF,FF,1F,
1033626,000004EE,false,Rx,0,8,FF,FF,00,00,00,00,00,00,
1033644,0000011B,false,Rx,0,8,0B,67,9A,05,80,08,A8,02,
1035199,0000012B,false,Rx,0,8,4C,9D,9A,06,00,00,08,00,
1035242,0000011C,false,Rx,0,8,00,05,20,00,22,00,01,01,
1035261,0000012C,false,Rx,0,8,00,00,01,00,00,64,00,00,
1035299,0000030B,false,Rx,0,8,31,8E,DD,00,04,00,00,00,
1035319,00000419,false,Rx,0,8,90,00,84,D6,4D,79,8F,00,
1035337,0000030C,false,Rx,0,8,00,00,0E,00,2C,00,A0,0F,
1035355,000004EF,false,Rx,0,8,60,00,60,00,29,14,00,00,
1035578,0000030D,false,Rx,0,8,00,00,00,00,49,00,00,00,
1037118,0000063D,false,Rx,0,8,00,80,00,00,00,00,00,00,
1037152,0000030E,false,Rx,0,8,00,00,38,05,21,00,00,FE,
1037170,0000063E,false,Rx,0,8,FF,FF,FF,FF,FF,FF,FF,FF,
1037187,0000063F,false,Rx,0,8,00,10,00,C4,FF,00,00,00,
1037324,00000640,false,Rx,0,8,FF,FF,FF,00,FF,FF,FF,00,
1037355,00000641,false,Rx,0,8,FF,FF,FF,FF,0F,FF,FF,FF,
1037373,00000646,false,Rx,0,8,00,00,00,80,01,00,00,00,
1039027,00000565,false,Rx,0,8,66,02,00,00,00,00,FF,FF,
1039065,00000121,false,Rx,0,8,CB,11,A5,00,00,00,00,05,
1039083,00000122,false,Rx,0,8,FF,D9,67,1F,46,46,46,46,
1040649,00000123,false,Rx,0,8,11,03,00,00,00,00,01,35,
1040693,00000124,false,Rx,0,8,00,00,0A,00,00,00,20,40,
1045626,00000036,false,Rx,0,8,B9,03,A7,51,00,00,25,01,
1046644,00000037,false,Rx,0,8,00,00,00,10,00,40,00,00,
1046676,00000038,false,Rx,0,8,04,00,00,00,90,38,96,D4,
1046694,00000039,false,Rx,0,8,00,00,00,00,00,00,00,00,
1048136,000001AB,false,Rx,0,8,1A,27,92,50,70,38,00,00,
1048171,000001AC,false,Rx,0,8,00,28,00,00,00,00,00,00,
1048189,00000226,false,Rx,0,8,C2,DD,B7,FF,43,E1,05,42,
1048207,00000227,false,Rx,0,8,02,70,E1,08,00,F2,17,04,
1050952,00000061,false,Rx,0,8,AA,64,AD,00,00,00,00,00,
1050990,00000062,false,Rx,0,8,02,02,00,02,40,FF,00,FF,
1051389,00000063,false,Rx,0,8,00,00,05,00,00,08,FD,00,
1051413,00000151,false,Rx,0,8,13,5B,DD,A0,C8,00,28,19,
1052684,00000064,false,Rx,0,8,00,00,00,04,FF,FA,00,00,
1052725,00000152,false,Rx,0,8,16,18,18,00,0B,00,00,00,
1052743,000000A1,false,Rx,0,8,F8,87,AD,1A,00,00,00,00,
1052761,00000153,false,Rx,0,8,00,00,00,00,00,00,00,00,
1052779,000000A2,false,Rx,0,8,00,00,00,00,00,00,00,00,
1052797,00000154,false,Rx,0,8,00,00,00,00,00,00,00,00,
1054118,000002FB,false,Rx,0,8,F6,CF,DD,04,5F,1A,CC,CC,
1054153,000001F7,false,Rx,0,8,0B,00,00,00,00,00,00,00,
1055212,000002FC,false,Rx,0,8,03,00,16,19,00,00,86,BF,
1055295,000001F8,false,Rx,0,8,00,00,00,00,00,00,00,00,
1055314,000002FD,false,Rx,0,8,00,00,00,00,00,1C,0E,EA,
1055332,000002FE,false,Rx,0,8,00,00,72,01,00,28,00,00,
1055349,00000236,false,Rx,0,8,B1,85,DD,00,6E,3C,34,6C,
1055367,00000326,false,Rx,0,8,DA,26,DD,00,00,00,00,00,
1055606,00000238,false,Rx,0,8,00,00,5F,00,00,00,00,00,
1056908,00000328,false,Rx,0,8,00,00,00,00,00,00,00,00,
1056959,00000239,false,Rx,0,8,00,00,00,00,01,00,00,00,
1056977,00000329,false,Rx,0,8,A0,00,00,00,00,00,00,00,
1056995,0000025B,false,Rx,0,8,99,D9,DD,40,40,20,00,00,
1057013,00000331,false,Rx,0,8,C9,69,DD,F1,C8,A0,2C,97,
1057031,0000025C,false,Rx,0,8,00,00,0B,00,34,89,19,00,
