Time Stamp,ID,Extended,Dir,Bus,LEN,D1,D2,D3,D4,D5,D6,D7,D8
27319309,000001AB,false,Rx,0,8,57,E5,72,50,70,38,00,00,
27319476,000001AC,false,Rx,0,8,00,28,00,00,00,00,00,00,
27319494,00000226,false,Rx,0,8,83,6E,17,FF,30,E1,05,42,
27319512,00000227,false,Rx,0,8,02,70,E1,08,00,F2,17,04,
27320846,0000033B,false,Rx,0,8,94,A1,3B,00,00,00,00,00,
27321586,0000033C,false,Rx,0,8,00,00,00,00,F0,00,00,00,
27321608,0000033D,false,Rx,0,8,00,00,00,00,00,00,00,00,
27321628,0000033E,false,Rx,0,8,00,00,00,00,00,00,00,00,
27324571,00000415,false,Rx,0,8,40,13,10,00,08,01,00,00,
27325483,00000121,false,Rx,0,8,CD,5E,4C,00,00,00,00,05,
27325504,00000122,false,Rx,0,8,FF,D9,67,1F,46,46,46,46,
27326589,00000123,false,Rx,0,8,11,03,00,00,00,00,01,35,
27326616,00000124,false,Rx,0,8,00,00,0A,00,00,00,20,40,
27327647,00000382,false,Rx,0,8,C5,F7,11,00,00,05,05,00,
27329731,00000036,false,Rx,0,8,7E,32,4E,51,00,00,25,01,
27329769,00000037,false,Rx,0,8,3B,00,00,10,00,40,00,00,
27331371,00000038,false,Rx,0,8,04,00,00,00,90,38,96,D4,
27331405,00000039,false,Rx,0,8,00,00,00,00,00,00,00,00,
27331424,00000091,false,Rx,0,8,27,19,39,09,00,00,00,00,
27331441,00000092,false,Rx,0,8,2B,00,00,00,B0,02,00,00,
27331459,00000093,false,Rx,0,8,00,00,00,00,00,00,00,00,
27331672,00000094,false,Rx,0,8,00,00,00,00,00,00,00,00,
27332816,000001E2,false,Rx,0,8,00,00,00,00,00,00,00,00,
27332851,00000061,false,Rx,0,8,69,EF,54,00,00,00,00,00,
27333226,00000256,false,Rx,0,8,8B,3F,38,15,40,00,00,01,
27334522,00000062,false,Rx,0,8,02,02,00,02,40,FF,00,FF,
27334661,00000257,false,Rx,0,8,00,93,42,1B,86,07,00,94,
27334680,00000063,false,Rx,0,8,00,00,05,00,00,08,FD,00,
27334698,00000258,false,Rx,0,8,0B,6B,1E,00,10,15,00,28,
27334727,00000064,false,Rx,0,8,00,00,00,04,FF,FA,00,00,
27334745,00000259,false,Rx,0,8,60,05,8C,3C,4C,02,00,00,
27334762,000002E7,false,Rx,0,8,0A,00,00,00,00,00,00,00,
27335571,000000A3,false,Rx,0,8,00,40,01,00,00,00,00,00,
27335592,000002E8,false,Rx,0,8,00,00,00,00,00,00,00,00,
27335610,0000048B,false,Rx,0,8,B4,B4,06,1E,01,00,00,00,
27336768,000002E9,false,Rx,0,8,00,00,00,00,00,00,00,00,
27337881,0000048C,false,Rx,0,8,00,00,00,00,00,00,00,00,
27339297,00000419,false,Rx,0,8,50,30,72,D6,6D,86,90,00,
27342052,00000146,false,Rx,0,8,8B,D6,1D,10,04,05,00,00,
27342091,00000147,false,Rx,0,8,01,04,7D,00,40,98,08,00,
27342110,00000148,false,Rx,0,8,00,00,42,00,1E,92,40,05,
27342127,00000149,false,Rx,0,8,00,38,00,D4,00,00,00,00,
27342145,00000161,false,Rx,0,8,3A,91,20,03,00,00,00,02,
27345603,000002BF,false,Rx,0,8,FF,FF,FF,00,00,00,00,00,
27345643,0000047F,false,Rx,0,8,FF,FC,FF,FF,FF,3F,F3,FF,
27345661,000001B1,false,Rx,0,8,00,E2,1D,00,72,00,00,00,
27346602,00000653,false,Rx,0,8,0A,19,03,01,02,2A,00,00,
27346635,000001B2,false,Rx,0,8,23,00,04,EF,25,07,52,10,
27346653,000001B3,false,Rx,0,8,25,38,4B,00,83,91,90,8E,
27346671,000003A1,false,Rx,0,8,B9,93,2E,00,FF,FF,FF,FF,
27347683,000001B4,false,Rx,0,8,82,8D,10,00,00,41,01,00,
27347718,000003A2,false,Rx,0,8,00,00,00,00,00,00,00,00,
27349009,0000010B,false,Rx,0,8,75,B6,50,00,00,00,00,05,
27349044,0000010C,false,Rx,0,8,FF,F9,E7,1F,46,44,46,46,
27349063,0000010D,false,Rx,0,8,10,03,00,00,00,00,01,35,
27350432,0000010E,false,Rx,0,8,00,00,1E,00,00,C0,AB,57,
27350467,00000566,false,Rx,0,8,16,02,00,00,00,00,FF,FF,
27350877,0000011B,false,Rx,0,8,90,39,41,05,80,08,A8,02,
27350917,0000012B,false,Rx,0,8,D7,C3,41,06,00,00,08,00,
27352100,0000011C,false,Rx,0,8,00,05,20,00,22,00,01,01,
27352160,0000012C,false,Rx,0,8,00,00,01,00,00,64,00,00,
27353447,00000475,false,Rx,0,8,12,00,00,00,00,00,00,00,
27354803,00000496,false,Rx,0,8,12,00,00,00,00,00,00,00,
27357613,00000111,false,Rx,0,8,69,74,12,01,00,00,00,00,
27357653,00000112,false,Rx,0,8,00,00,00,00,00,00,00,00,
27357671,00000113,false,Rx,0,8,00,00,00,00,00,00,00,00,
27357689,00000114,false,Rx,0,8,00,00,00,00,00,00,00,00,
27361593,000000FF,false,Rx,0,8,CB,10,00,00,00,00,02,00,
27362597,00000394,false,Rx,0,8,2A,22,1A,49,00,00,00,00,
27362630,000003C3,false,Rx,0,8,45,10,31,30,36,00,00,00,
27364100,000003E0,false,Rx,0,8,66,20,01,00,54,03,00,00,
27364153,000003E5,false,Rx,0,8,37,80,01,00,00,00,00,00,
27364171,000003E6,false,Rx,0,8,67,90,00,00,00,00,00,00,
27364189,0000041A,false,Rx,0,8,8D,D0,12,00,00,00,00,00,
27365135,0000041B,false,Rx,0,8,70,D0,00,00,00,00,00,00,
27365531,0000041C,false,Rx,0,8,48,00,E0,00,00,00,00,00,
27366431,00000422,false,Rx,0,8,9D,70,01,00,00,00,04,00,
27366452,00000432,false,Rx,0,8,03,20,02,00,00,00,00,00,
27366470,0000019B,false,Rx,0,8,14,91,4E,00,00,E4,00,00,
27366488,0000019C,false,Rx,0,8,40,20,00,00,00,00,0B,09,
27366931,0000019D,false,Rx,0,8,00,10,00,01,00,00,00,00,
27366949,00000435,false,Rx,0,8,26,C0,00,40,00,00,00,00,
27367574,0000019E,false,Rx,0,8,15,00,00,00,00,32,00,00,
27367607,00000442,false,Rx,0,8,CE,20,11,81,00,00,00,00,
27367625,00000444,false,Rx,0,8,D5,20,20,50,55,50,00,00,
27368564,00000445,false,Rx,0,8,C6,C0,00,00,00,00,00,18,
27368589,00000464,false,Rx,0,8,D5,20,F0,FF,38,7F,05,00,
27370464,0000030B,false,Rx,0,8,84,36,3B,00,04,00,00,00,
27370499,0000030C,false,Rx,0,8,00,00,0E,00,2C,00,A0,0F,
27370559,000001A1,false,Rx,0,8,0E,9A,21,FE,F7,7F,64,00,
27371942,0000030D,false,Rx,0,8,00,00,00,00,48,00,00,00,
27371977,000001A2,false,Rx,0,8,00,00,00,00,00,08,00,00,
27371995,0000030E,false,Rx,0,8,00,00,38,05,21,00,00,00,
27372013,000001A3,false,Rx,0,8,FF,F3,3F,00,00,00,00,00,
27372031,000001A4,false,Rx,0,8,FE,07,00,00,00,00,00,00,
27373616,0000036F,false,Rx,0,8,5F,81,01,00,00,00,00,00,
27374927,0000037F,false,Rx,0,8,22,20,52,24,41,02,00,00,
27376262,00000121,false,Rx,0,8,05,5C,51,00,00,00,00,05,
27376297,00000122,false,Rx,0,8,FF,D9,67,1F,46,46,46,46,
27376316,00000123,false,Rx,0,8,11,03,00,00,00,00,01,35,
27376333,00000124,false,Rx,0,8,00,00,0A,00,00,00,20,40,
27378590,000004E8,false,Rx,0,8,FF,FF,FF,05,FF,FF,FF,00,
27379558,00000419,false,Rx,0,8,50,30,72,D6,6D,86,90,00,
27379576,00000036,false,Rx,0,8,B6,30,53,51,00,00,25,01,
27379600,00000037,false,Rx,0,8,3B,00,00,10,00,40,00,00,
27381327,00000038,false,Rx,0,8,04,00,00,00,90,38,96,D4,
27381362,00000039,false,Rx,0,8,00,00,00,00,00,00,00,00,
27382800,00000061,false,Rx,0,8,64,29,59,00,00,00,00,00,
27382837,00000062,false,Rx,0,8,02,02,00,02,40,FF,00,FF,
27383212,00000063,false,Rx,0,8,00,00,05,00,00,08,FD,00,
27383260,00000064,false,Rx,0,8,00,00,00,04,FF,FA,00,00,
27383279,000000A1,false,Rx,0,8,B6,A8,59,1A,00,00,00,00,
27383297,000000A2,false,Rx,0,8,00,00,00,00,00,00,00,00,
27383579,000000A3,false,Rx,0,8,00,40,01,00,00,00,00,00,
27388595,00000487,false,Rx,0,8,00,00,00,00,00,00,00,00,
27388635,00000642,false,Rx,0,8,FF,FF,FF,FF,FF,FF,00,00,
27390846,00000151,false,Rx,0,8,94,60,3B,A0,C8,00,28,19,
27390885,000001F6,false,Rx,0,8,A7,43,3B,00,00,00,00,0E,
27390903,00000152,false,Rx,0,8,16,18,18,00,0B,00,00,00,
27392320,000001F7,false,Rx,0,8,0B,00,00,00,00,00,00,00,
27392355,00000153,false,Rx,0,8,00,00,00,00,00,00,00,00,
27392373,000001F8,false,Rx,0,8,00,00,00,00,00,00,00,00,
27392390,00000154,false,Rx,0,8,00,00,00,00,00,00,00,00,
27392423,000001F9,false,Rx,0,8,00,00,A0,C8,14,00,00,00,
27394019,00000236,false,Rx,0,8,0D,C3,3B,00,6E,3C,34,6C,
27394053,000002FC,false,Rx,0,8,10,00,16,19,00,00,8E,BF,
27394071,00000237,false,Rx,0,8,00,15,BA,00,00,A7,1E,00,
27394088,000002FD,false,Rx,0,8,00,00,00,00,00,1C,0E,EA,
27394121,000001E6,false,Rx,0,8,CC,04,73,02,00,00,00,00,
27394139,00000239,false,Rx,0,8,00,00,00,00,01,00,00,00,
27394631,000001BB,false,Rx,0,8,71,1F,73,02,00,00,00,0A,
27394659,0000025B,false,Rx,0,8,71,E2,3B,40,40,20,00,00,
27395777,000001BC,false,Rx,0,8,32,00,00,00,02,00,00,00,
27395830,0000025C,false,Rx,0,8,00,00,0B,00,34,89,19,00,
27395849,000001BD,false,Rx,0,8,00,00,00,00,00,00,00,00,
27395867,0000025D,false,Rx,0,8,00,C8,00,00,00,80,C0,70,
27395884,000002FE,false,Rx,0,8,00,00,72,01,00,28,00,00,
27396609,0000025E,false,Rx,0,8,5A,07,0E,08,00,00,00,00,
27396636,00000326,false,Rx,0,8,5D,1D,3B,00,00,00,00,00,
27396654,00000380,false,Rx,0,8,73,DE,00,0C,0C,0C,0C,01,
27397892,00000327,false,Rx,0,8,00,00,00,00,05,00,00,00,
27397926,00000383,false,Rx,0,8,FC,DC,02,10,01,00,00,00,
27397944,00000328,false,Rx,0,8,00,00,00,00,00,00,00,00,
27397962,00000405,false,Rx,0,8,BD,30,00,00,00,01,00,00,
27398344,00000329,false,Rx,0,8,A0,00,00,00,00,00,00,00,
27398378,00000410,false,Rx,0,8,4B,80,59,3C,16,6B,FF,FF,
27398400,00000331,false,Rx,0,8,4E,52,3B,F1,C8,A0,2C,97,
27399496,0000010B,false,Rx,0,8,0A,9A,55,00,00,00,00,05,
27399530,00000332,false,Rx,0,8,94,02,00,00,00,00,00,00,
27399695,0000010C,false,Rx,0,8,FF,F9,E7,1F,46,44,46,46,
27399715,00000333,false,Rx,0,8,00,00,00,1C,0C,40,20,A0,
27399732,0000010D,false,Rx,0,8,10,03,00,00,00,00,01,35,
27399750,00000334,false,Rx,0,8,C8,00,00,00,AC,70,1D,90,
27402631,0000010E,false,Rx,0,8,00,00,1E,00,00,C0,AB,57,
27402689,00000411,false,Rx,0,8,A8,01,50,50,00,00,44,04,
27402708,0000011B,false,Rx,0,8,0F,51,46,05,80,08,A8,02,
27402725,0000012B,false,Rx,0,8,48,AB,46,06,00,00,08,00,
27402742,0000011C,false,Rx,0,8,00,05,20,00,22,00,01,01,
27402760,0000012C,false,Rx,0,8,00,00,01,00,00,64,00,00,
27403576,00000412,false,Rx,0,8,6D,60,00,00,00,00,00,00,
27403761,000002AE,false,Rx,0,8,01,00,FF,3F,01,01,00,00,
27403795,00000396,false,Rx,0,8,17,2E,1D,0F,08,02,00,02,
27403813,000002B6,false,Rx,0,8,1C,73,3C,01,00,00,00,40,
27403830,00000397,false,Rx,0,8,0C,00,00,00,00,00,00,00,
27405141,000002B7,false,Rx,0,8,EA,01,F0,78,00,04,00,00,
27405177,00000398,false,Rx,0,8,00,00,00,00,00,00,00,00,
27405195,000002B8,false,Rx,0,8,AA,11,11,00,00,00,00,00,
27405212,00000413,false,Rx,0,8,6F,30,00,00,00,00,00,00,
27405230,000002B9,false,Rx,0,8,0A,00,00,00,00,00,00,00,
27405653,00000414,false,Rx,0,8,F0,10,00,00,28,00,00,00,
27405679,000002E1,false,Rx,0,8,45,61,3C,00,00,00,00,40,
27406607,00000416,false,Rx,0,8,55,00,00,00,00,00,00,00,
27406639,000002E2,false,Rx,0,8,FD,00,00,00,00,14,00,04,
27406657,00000417,false,Rx,0,8,5F,20,00,00,00,00,00,00,
27406674,000002E3,false,Rx,0,8,00,00,00,00,00,00,72,01,
27408113,00000418,false,Rx,0,8,19,70,00,00,12,0C,00,00,
27408147,000002E4,false,Rx,0,8,02,00,00,00,00,00,00,00,
27408165,00000419,false,Rx,0,8,50,30,72,D6,6D,86,90,00,
27408183,00000485,false,Rx,0,8,00,40,11,02,00,00,00,00,
27415592,00000401,false,Rx,0,8,A9,30,10,00,00,04,00,00,
27416612,0000019B,false,Rx,0,8,DC,93,53,00,00,E4,00,00,
27416644,0000019C,false,Rx,0,8,40,20,00,00,00,00,0B,09,
27416662,0000019D,false,Rx,0,8,00,10,00,01,00,00,00,00,
27417741,0000019E,false,Rx,0,8,15,00,00,00,00,32,00,00,
27417779,000002D6,false,Rx,0,8,E8,6E,1D,00,00,00,00,00,
27419080,000002EB,false,Rx,0,8,7C,27,1D,09,08,01,00,02,
27419116,000002D7,false,Rx,0,8,00,00,00,00,03,00,00,00,
27419134,000001AB,false,Rx,0,8,A1,CD,77,50,70,38,00,00,
27419152,000002D8,false,Rx,0,8,00,00,00,00,00,00,38,45,
27419170,000001AC,false,Rx,0,8,00,28,00,00,00,00,00,00,
27421533,000002EC,false,Rx,0,8,02,00,00,00,00,00,00,00,
27423527,00000472,false,Rx,0,8,5C,EC,00,40,08,41,00,45,
27423606,000002ED,false,Rx,0,8,00,00,00,00,00,00,00,00,
27423624,000002EE,false,Rx,0,8,00,00,00,00,00,00,00,00,
27423642,000002FF,false,Rx,0,8,E2,01,00,F1,3F,00,00,00,
27423660,00000316,false,Rx,0,8,15,69,0C,04,13,80,0A,00,
27426346,00000121,false,Rx,0,8,F6,C2,56,00,00,00,00,05,
27426381,00000122,false,Rx,0,8,FF,D9,67,1F,46,46,46,46,
27426399,00000123,false,Rx,0,8,11,03,00,00,00,00,01,35,
27426417,00000124,false,Rx,0,8,00,00,0A,00,00,00,20,40,
27430503,00000036,false,Rx,0,8,0E,31,58,51,00,00,25,01,
27431523,00000037,false,Rx,0,8,3B,00,00,10,00,40,00,00,
27431998,00000038,false,Rx,0,8,04,00,00,00,90,38,96,D4,
27432023,00000039,false,Rx,0,8,00,00,00,00,00,00,00,00,
27432041,00000091,false,Rx,0,8,56,A7,3A,09,00,00,00,00,
27432059,00000092,false,Rx,0,8,2E,00,00,00,E0,02,00,00,
27432076,00000093,false,Rx,0,8,00,00,00,00,00,00,00,00,
27433020,00000061,false,Rx,0,8,97,B7,5E,00,00,00,00,00,
27433055,000003B7,false,Rx,0,8,46,00,00,00,00,00,00,00,
27433073,00000062,false,Rx,0,8,02,02,00,02,40,FF,00,FF,
27433091,000003B8,false,Rx,0,8,0B,03,00,00,00,00,69,0E,
27434556,00000063,false,Rx,0,8,00,00,05,00,00,08,FD,00,
27434604,000003B9,false,Rx,0,8,00,00,00,00,00,00,00,00,
27434622,00000064,false,Rx,0,8,00,00,00,04,FF,FA,00,00,
27434640,000004A4,false,Rx,0,8,FF,FF,FF,00,00,00,00,00,
27434657,000000A1,false,Rx,0,8,BF,2D,5E,1A,00,00,00,00,
27434675,000000A2,false,Rx,0,8,00,00,00,00,00,00,00,00,
27434692,000000A3,false,Rx,0,8,00,40,01,00,00,00,00,00,
27437051,000001F1,false,Rx,0,8,9A,90,46,01,00,00,28,00,
27437086,000001F2,false,Rx,0,8,00,00,00,00,00,00,00,00,
27441083,00000146,false,Rx,0,8,64,FF,22,10,04,05,00,00,
27441122,00000147,false,Rx,0,8,01,04,7D,00,40,98,08,00,
27441159,00000148,false,Rx,0,8,00,00,42,00,1E,92,40,05,
27441727,00000149,false,Rx,0,8,00,38,00,D4,00,00,00,00,
27441759,00000161,false,Rx,0,8,CC,B9,25,03,00,00,00,02,
27442756,00000162,false,Rx,0,8,FF,FC,01,00,00,00,00,00,
27446566,000001B1,false,Rx,0,8,EF,CB,22,00,72,00,00,00,
27446588,000001B2,false,Rx,0,8,23,00,04,EF,25,07,52,10,
27446606,000001B3,false,Rx,0,8,25,38,4B,00,83,91,90,8E,
27446624,000001B4,false,Rx,0,8,82,8D,10,00,00,41,01,00,
27449579,00000495,false,Rx,0,8,49,00,00,00,00,00,00,00,
27449614,000003AA,false,Rx,0,8,FF,00,B0,00,54,00,00,00,
27449632,0000010B,false,Rx,0,8,8B,EE,5A,00,00,00,00,05,
27449650,0000010C,false,Rx,0,8,FF,F9,E7,1F,46,44,46,46,
27449668,0000010D,false,Rx,0,8,10,03,00,00,00,00,01,35,
27450652,0000011B,false,Rx,0,8,7C,68,4B,05,80,08,A8,02,
27450685,0000012B,false,Rx,0,8,3B,92,4B,06,00,00,08,00,
27450703,0000011C,false,Rx,0,8,00,05,20,00,22,00,01,01,
27451691,0000012C,false,Rx,0,8,00,00,01,00,00,64,00,00,
27456589,000003B0,false,Rx,0,8,72,37,FF,C7,00,00,03,C0,
27459591,000003B1,false,Rx,0,8,9B,3C,FF,40,00,00,20,00,
27460604,00000448,false,Rx,0,8,00,C0,00,00,00,00,00,00,
27463700,000004E8,false,Rx,0,8,FF,FF,FF,05,FF,FF,FF,00,
27463735,00000384,false,Rx,0,8,C5,8D,05,01,00,FF,00,14,
27464589,0000042A,false,Rx,0,8,9F,1D,02,02,00,10,00,00,
27467969,0000019B,false,Rx,0,8,64,92,58,00,00,E4,00,00,
27468004,0000019C,false,Rx,0,8,40,20,00,00,00,00,0B,09,
27468021,0000019D,false,Rx,0,8,00,10,00,01,00,00,00,00,
27468039,0000019E,false,Rx,0,8,15,00,00,00,00,32,00,00,
27468057,000003B2,false,Rx,0,8,36,15,FF,02,29,2F,34,00,
27470738,000001A1,false,Rx,0,8,FD,04,26,FE,F7,7F,64,00,
27471573,000001A2,false,Rx,0,8,00,00,00,00,00,08,00,00,
27471594,000001A3,false,Rx,0,8,FF,F3,3F,00,00,00,00,00,
27471612,000001A4,false,Rx,0,8,FE,07,00,00,00,00,00,00,
27473067,00000427,false,Rx,0,8,1D,86,FF,00,80,0A,00,00,
27474182,0000036F,false,Rx,0,8,E6,91,01,00,00,00,00,00,
27474217,0000037F,false,Rx,0,8,9B,30,52,24,41,02,00,00,
27475607,00000121,false,Rx,0,8,FB,04,5B,00,00,00,00,05,
27475989,00000122,false,Rx,0,8,FF,D9,67,1F,46,46,46,46,
27476056,00000123,false,Rx,0,8,11,03,00,00,00,00,01,35,
27476079,00000124,false,Rx,0,8,00,00,0A,00,00,00,20,40,
27479621,00000036,false,Rx,0,8,71,1D,5D,51,00,00,25,01,
27479658,00000037,false,Rx,0,8,3B,00,00,10,00,40,00,00,
27480570,00000038,false,Rx,0,8,04,00,00,00,90,38,96,D4,
27480595,00000039,false,Rx,0,8,00,00,00,00,00,00,00,00,
27481862,000001E1,false,Rx,0,8,DA,60,76,02,00,00,00,00,
27484283,000001E2,false,Rx,0,8,00,00,00,00,00,00,00,00,
27484301,00000061,false,Rx,0,8,F4,2C,63,00,00,00,00,00,
27484319,00000062,false,Rx,0,8,02,02,00,02,40,FF,00,FF,
27484761,00000063,false,Rx,0,8,00,00,05,00,00,08,FD,00,
27484976,00000064,false,Rx,0,8,00,00,00,04,FF,FA,00,00,
27498591,0000010B,false,Rx,0,8,02,17,5F,00,00,00,00,05,
174599,0000010C,false,Rx,0,8,FF,F9,E7,1F,46,45,46,46,
174631,0000010D,false,Rx,0,8,10,03,00,00,00,00,01,35,
174649,0000010E,false,Rx,0,8,00,00,1E,00,00,C0,AB,57,
175757,0000011B,false,Rx,0,8,BE,B2,50,05,80,08,A8,02,
176665,0000012B,false,Rx,0,8,F9,48,50,06,00,00,08,00,
176688,0000011C,false,Rx,0,8,00,05,20,00,22,00,01,01,
176706,0000012C,false,Rx,0,8,00,00,01,00,00,64,00,00,
176724,000001FB,false,Rx,0,8,3E,7F,3B,00,00,00,00,00,
176741,000002C1,false,Rx,0,8,45,A4,1F,21,00,41,00,AB,
176759,000000C5,false,Rx,0,8,00,00,00,00,00,00,00,00,
177572,000001FC,false,Rx,0,8,00,00,00,00,00,00,00,00,
177598,00000244,false,Rx,0,8,FF,FF,FF,FF,FF,FF,FF,FF,
177617,000001FD,false,Rx,0,8,00,1A,03,00,00,00,00,00,
178776,000002C2,false,Rx,0,8,2D,00,00,00,00,00,00,00,
178806,000001FE,false,Rx,0,8,00,00,00,00,00,00,00,00,
178824,000002C3,false,Rx,0,8,00,00,00,00,00,00,00,00,
178842,000004B4,false,Rx,0,8,00,00,00,00,00,00,00,00,
178859,000002C4,false,Rx,0,8,00,00,00,00,00,00,00,00,
179569,000004B5,false,Rx,0,8,08,00,F0,07,00,00,00,00,
179591,000004B7,false,Rx,0,8,08,00,F0,07,00,00,00,00,
179609,000004CA,false,Rx,0,8,00,00,00,00,00,00,00,00,
180569,000004CC,false,Rx,0,8,08,00,00,06,00,00,03,00,
180590,000004CE,false,Rx,0,8,14,01,FF,FF,FF,FF,FF,FF,
180608,000004D7,false,Rx,0,8,23,01,00,00,00,00,00,00,
180817,000004D8,false,Rx,0,8,41,10,F0,F0,40,F2,1E,CC,
180850,000004DD,false,Rx,0,8,00,00,FE,00,04,00,00,00,
181573,000004DF,false,Rx,0,8,FF,03,0C,3F,00,00,00,00,
181595,000004E7,false,Rx,0,8,00,30,00,00,00,00,69,00,
181613,000004E8,false,Rx,0,8,FF,FF,FF,05,FF,FF,FF,00,
182564,000004E9,false,Rx,0,8,12,00,00,34,00,00,50,00,
182583,000004EA,false,Rx,0,8,67,00,00,89,00,00,00,00,
182608,000004EB,false,Rx,0,8,10,80,34,0E,80,00,00,00,
182626,000004EC,false,Rx,0,8,00,00,00,00,00,00,00,00,
183568,000004ED,false,Rx,0,8,00,00,00,00,00,FF,FF,1F,
183590,000004EE,false,Rx,0,8,FF,FF,00,00,00,00,00,00,
183607,000004EF,false,Rx,0,8,60,00,60,00,29,14,00,00,
184567,0000063D,false,Rx,0,8,00,80,00,00,00,00,00,00,
184587,0000063E,false,Rx,0,8,FF,FF,FF,FF,FF,FF,FF,FF,
184605,0000063F,false,Rx,0,8,00,10,00,C4,FF,00,00,00,
184623,00000640,false,Rx,0,8,FF,FF,FF,00,FF,FF,FF,00,
185568,00000641,false,Rx,0,8,FF,FF,FF,FF,0F,FF,FF,FF,
185590,00000646,false,Rx,0,8,00,00,00,80,01,00,00,00,
191570,0000019B,false,Rx,0,8,1B,BE,5D,00,00,E4,00,00,
191591,0000019C,false,Rx,0,8,40,20,00,00,00,00,0B,09,
191608,0000019D,false,Rx,0,8,00,10,00,01,00,00,00,00,
192568,0000019E,false,Rx,0,8,15,00,00,00,00,32,00,00,
193561,000001AB,false,Rx,0,8,69,34,7C,50,70,38,00,00,
193586,000001AC,false,Rx,0,8,00,28,00,00,00,00,00,00,
193604,00000226,false,Rx,0,8,BD,BF,19,FF,30,E1,05,42,
194566,00000227,false,Rx,0,8,02,70,E1,08,00,F2,17,04,
196559,0000033B,false,Rx,0,8,21,66,3D,00,00,00,00,00,
196580,0000033C,false,Rx,0,8,00,00,00,00,F0,00,00,00,
196598,0000033D,false,Rx,0,8,00,00,00,00,00,00,00,00,
196616,0000033E,false,Rx,0,8,00,00,00,00,00,00,00,00,
200564,00000121,false,Rx,0,8,2D,58,60,00,00,00,00,05,
200585,00000122,false,Rx,0,8,FF,D9,67,1F,46,46,46,46,
201566,00000123,false,Rx,0,8,11,03,00,00,00,00,01,35,
201587,00000124,false,Rx,0,8,00,00,0A,00,00,00,20,40,
202656,00000382,false,Rx,0,8,C5,F7,11,00,00,05,05,00,
204565,00000036,false,Rx,0,8,9E,34,62,51,00,00,25,01,
204593,00000037,false,Rx,0,8,3B,00,00,10,00,40,00,00,
205567,00000038,false,Rx,0,8,04,00,00,00,90,38,96,D4,
205587,00000039,false,Rx,0,8,00,00,00,00,00,00,00,00,
206569,00000091,false,Rx,0,8,10,FE,3B,09,00,00,00,00,
206590,00000092,false,Rx,0,8,2E,00,00,00,E0,02,00,00,
206607,00000093,false,Rx,0,8,00,00,00,00,00,00,00,00,
206625,000002E6,false,Rx,0,8,16,A6,3A,01,00,00,00,15,
206650,00000094,false,Rx,0,8,00,00,00,00,00,00,00,00,
207567,00000256,false,Rx,0,8,A3,D8,3A,15,40,00,10,01,
207594,00000061,false,Rx,0,8,4C,2D,68,00,00,00,00,00,
207611,00000257,false,Rx,0,8,00,94,42,1C,86,07,00,94,
207629,00000062,false,Rx,0,8,02,02,00,02,40,FF,00,FF,
208575,00000258,false,Rx,0,8,0B,6C,1E,00,10,15,00,28,
208597,00000063,false,Rx,0,8,00,00,05,00,00,08,FD,00,
208614,00000259,false,Rx,0,8,64,05,8C,3C,4C,02,00,00,
208632,00000064,false,Rx,0,8,00,00,00,04,FF,FA,00,00,
209677,000002E7,false,Rx,0,8,0A,00,00,00,00,00,00,00,
209712,000000A1,false,Rx,0,8,40,5F,68,1A,00,00,00,00,
209730,000002E8,false,Rx,0,8,00,00,00,00,00,00,00,00,
209748,000000A2,false,Rx,0,8,00,00,00,00,00,00,00,00,
210703,000002E9,false,Rx,0,8,00,00,00,00,00,00,00,00,
210738,000000A3,false,Rx,0,8,00,40,01,00,00,00,00,00,
216689,00000146,false,Rx,0,8,ED,15,27,10,04,05,00,00,
216725,00000147,false,Rx,0,8,01,04,7D,00,40,97,08,00,
216743,00000148,false,Rx,0,8,00,00,42,00,1E,92,40,05,
216760,00000149,false,Rx,0,8,00,38,00,D4,00,00,00,00,
216778,00000161,false,Rx,0,8,D6,C0,2A,03,00,00,00,02,
217588,00000162,false,Rx,0,8,FF,FC,01,00,00,00,00,00,
217611,000001E6,false,Rx,0,8,3A,2C,76,02,00,00,00,00,
217629,000001E7,false,Rx,0,8,00,00,22,03,20,01,00,00,
218567,000001BB,false,Rx,0,8,7E,F4,76,02,00,00,00,0A,
218587,000001BC,false,Rx,0,8,32,00,00,00,02,00,00,00,
219566,000001BD,false,Rx,0,8,00,00,00,00,00,00,00,00,
220567,000002BF,false,Rx,0,8,FF,FF,FF,00,00,00,00,00,
220587,0000047F,false,Rx,0,8,FF,FC,FF,FF,FF,3F,F3,FF,
220605,000001B1,false,Rx,0,8,90,E7,27,00,72,00,00,00,
221566,00000653,false,Rx,0,8,0A,19,03,01,02,2A,00,00,
221587,000001B2,false,Rx,0,8,23,00,04,EF,25,07,52,10,
221605,000001B3,false,Rx,0,8,25,38,4B,00,83,91,90,8E,
221622,000003A1,false,Rx,0,8,9D,3B,2F,00,FF,FF,FF,FF,
222568,000001B4,false,Rx,0,8,82,8D,10,00,00,41,01,00,
222590,000003A2,false,Rx,0,8,00,00,00,00,00,00,00,00,
223572,0000010B,false,Rx,0,8,22,9E,64,00,00,00,00,05,
225592,00000561,false,Rx,0,8,63,02,00,00,00,00,FF,FF,
225625,0000010C,false,Rx,0,8,FF,F9,E7,1F,46,44,46,46,
225642,0000010D,false,Rx,0,8,10,03,00,00,00,00,01,35,
225660,0000010E,false,Rx,0,8,00,00,1E,00,00,C0,AB,57,
225678,0000011B,false,Rx,0,8,48,9A,55,05,80,08,A8,02,
226767,0000012C,false,Rx,0,8,00,00,01,00,00,64,00,00,
228575,00000475,false,Rx,0,8,12,00,00,00,00,00,00,00,
228600,00000496,false,Rx,0,8,12,00,00,00,00,00,00,00,
232570,00000111,false,Rx,0,8,2F,2D,13,01,00,00,00,00,
232600,00000112,false,Rx,0,8,00,00,00,00,00,00,00,00,
232618,00000113,false,Rx,0,8,00,00,00,00,00,00,00,00,
232635,00000114,false,Rx,0,8,00,00,00,00,00,00,00,00,
236756,000000FF,false,Rx,0,8,CB,10,00,00,00,00,02,00,
237596,00000394,false,Rx,0,8,2A,22,1A,49,00,00,00,00,
237624,000003C3,false,Rx,0,8,45,10,31,30,36,00,00,00,
237642,000003E0,false,Rx,0,8,66,20,01,00,54,03,00,00,
239204,000003E5,false,Rx,0,8,37,80,01,00,00,00,00,00,
239239,000003E6,false,Rx,0,8,67,90,00,00,00,00,00,00,
239258,0000041A,false,Rx,0,8,8D,D0,12,00,00,00,00,00,
239275,0000041B,false,Rx,0,8,70,D0,00,00,00,00,00,00,
240817,0000041C,false,Rx,0,8,48,00,E0,00,00,00,00,00,
240851,00000422,false,Rx,0,8,9D,70,01,00,00,00,04,00,
240868,00000432,false,Rx,0,8,03,20,02,00,00,00,00,00,
241568,0000019B,false,Rx,0,8,F4,97,62,00,00,E4,00,00,
241590,0000019C,false,Rx,0,8,40,20,00,00,00,00,0B,09,
241608,0000019D,false,Rx,0,8,00,10,00,01,00,00,00,00,
242564,00000435,false,Rx,0,8,26,C0,00,40,00,00,00,00,
242583,0000019E,false,Rx,0,8,15,00,00,00,00,32,00,00,
242601,00000442,false,Rx,0,8,CE,20,11,81,00,00,00,00,
242619,00000444,false,Rx,0,8,D5,20,20,50,55,50,00,00,
243568,00000445,false,Rx,0,8,C6,C0,00,00,00,00,00,18,
243590,00000464,false,Rx,0,8,D5,20,F0,FF,38,7F,05,00,
245563,0000030B,false,Rx,0,8,62,09,3D,00,04,00,00,00,
245583,0000030C,false,Rx,0,8,00,00,0E,00,2C,00,A0,0F,
245601,000001A1,false,Rx,0,8,F0,C2,2B,FE,F7,7F,64,00,
246576,0000030D,false,Rx,0,8,00,00,00,00,48,00,00,00,
246598,000001A2,false,Rx,0,8,00,00,00,00,00,08,00,00,
246615,0000030E,false,Rx,0,8,00,00,38,05,21,00,00,FE,
246633,000001A3,false,Rx,0,8,FF,F3,3F,00,00,00,00,00,
247567,000001A4,false,Rx,0,8,FE,07,00,00,00,00,00,00,
248558,0000036F,false,Rx,0,8,30,A1,01,00,00,00,00,00,
249568,0000037F,false,Rx,0,8,93,40,52,24,41,02,00,00,
250558,00000121,false,Rx,0,8,52,74,65,00,00,00,00,05,
250576,00000122,false,Rx,0,8,FF,D9,67,1F,46,46,46,46,
251567,00000123,false,Rx,0,8,11,03,00,00,00,00,01,35,
251587,00000124,false,Rx,0,8,00,00,0A,00,00,00,20,40,
254599,00000036,false,Rx,0,8,20,64,67,51,00,00,25,01,
254634,00000037,false,Rx,0,8,3B,00,00,10,00,40,00,00,
255578,00000038,false,Rx,0,8,04,00,00,00,50,38,96,D4,
255600,00000039,false,Rx,0,8,00,00,00,00,00,00,00,00,
257567,00000061,false,Rx,0,8,33,01,6D,00,00,00,00,00,
257589,00000062,false,Rx,0,8,02,02,00,02,40,FF,00,FF,
257607,00000063,false,Rx,0,8,00,00,05,00,00,08,FD,00,
258569,00000064,false,Rx,0,8,00,00,00,04,FF,FA,00,00,
258590,000000A1,false,Rx,0,8,4F,B4,6D,1A,00,00,00,00,
258608,000000A2,false,Rx,0,8,00,00,00,00,00,00,00,00,
258626,000000A3,false,Rx,0,8,00,40,01,00,00,00,00,00,
262567,000001F1,false,Rx,0,8,80,E9,49,01,00,00,28,00,
262589,000001F2,false,Rx,0,8,00,00,00,00,00,00,00,00,
265567,00000151,false,Rx,0,8,21,A7,3D,A0,C8,00,28,19,
265590,00000152,false,Rx,0,8,16,18,18,00,0B,00,00,00,
265607,000001F6,false,Rx,0,8,12,84,3D,00,00,00,00,0E,
266568,00000153,false,Rx,0,8,00,00,00,00,00,00,00,00,
266590,000001F7,false,Rx,0,8,0B,00,00,00,00,00,00,00,
266608,00000154,false,Rx,0,8,00,00,00,00,00,00,00,00,
266626,000001F8,false,Rx,0,8,00,00,00,00,00,00,00,00,
267568,000001F9,false,Rx,0,8,00,00,A0,C8,14,00,00,00,
267590,000002FB,false,Rx,0,8,A5,0D,3D,04,5F,1A,CC,CC,
267607,00000236,false,Rx,0,8,B8,04,3D,00,6E,3C,34,6C,
267625,000002FC,false,Rx,0,8,10,00,16,19,00,00,8E,BF,
268569,00000237,false,Rx,0,8,00,15,BA,00,00,A7,1E,00,
268590,000002FD,false,Rx,0,8,00,00,00,00,00,1C,0E,EA,
268607,00000238,false,Rx,0,8,00,00,5F,00,00,00,00,00,
268625,000002FE,false,Rx,0,8,00,00,72,01,00,28,00,00,
269569,00000239,false,Rx,0,8,00,00,00,00,01,00,00,00,
269590,00000326,false,Rx,0,8,E8,DA,3D,00,00,00,00,00,
269608,0000025B,false,Rx,0,8,68,D2,3D,40,40,20,00,00,
269625,00000327,false,Rx,0,8,00,00,00,00,05,00,00,00,
270569,0000025C,false,Rx,0,8,00,00,0B,00,34,89,19,00,
270590,00000328,false,Rx,0,8,00,00,00,00,00,00,00,00,
270608,0000025D,false,Rx,0,8,00,C8,00,00,00,80,C0,70,
270626,00000329,false,Rx,0,8,A0,00,00,00,00,00,00,00,
271568,0000025E,false,Rx,0,8,35,07,0E,05,00,00,00,00,
271590,00000331,false,Rx,0,8,FB,95,3D,F1,C8,A0,2C,97,
271614,00000380,false,Rx,0,8,73,DE,00,0C,0C,0C,0C,01,
271632,00000332,false,Rx,0,8,94,02,00,00,00,00,00,00,
271649,00000383,false,Rx,0,8,FC,DC,02,10,01,00,00,00,
272568,00000333,false,Rx,0,8,00,00,00,1C,0C,40,20,A0,
272598,00000405,false,Rx,0,8,BD,30,00,00,00,01,00,00,
272616,00000334,false,Rx,0,8,C8,00,00,00,AC,70,1D,90,
272633,00000410,false,Rx,0,8,4B,80,59,3C,16,6B,FF,FF,
273575,00000413,false,Rx,0,8,6F,30,00,00,00,00,00,00,
273596,00000411,false,Rx,0,8,A8,01,50,50,00,00,44,04,
273614,00000414,false,Rx,0,8,F0,10,00,00,28,00,00,00,
273632,0000010B,false,Rx,0,8,2F,58,69,00,00,00,00,05,
274572,00000412,false,Rx,0,8,6D,60,00,00,00,00,00,00,
274593,0000010C,false,Rx,0,8,FF,F9,E7,1F,46,44,46,46,
274611,00000416,false,Rx,0,8,55,00,00,00,00,00,00,00,
274628,0000010D,false,Rx,0,8,10,03,00,00,00,00,01,35,
275569,00000417,false,Rx,0,8,5F,20,00,00,00,00,00,00,
275592,0000010E,false,Rx,0,8,00,00,1E,00,00,C0,AB,57,
275609,000002AB,false,Rx,0,8,EA,F6,3E,0C,0C,00,00,00,
275627,0000011B,false,Rx,0,8,52,E3,5A,05,80,08,A8,02,
276569,0000012B,false,Rx,0,8,15,19,5A,06,00,00,08,00,
276590,0000011C,false,Rx,0,8,00,05,20,00,22,00,01,01,
276608,0000012C,false,Rx,0,8,00,00,01,00,00,64,00,00,
276626,00000251,false,Rx,0,8,38,83,3D,00,00,00,00,00,
277568,000002AC,false,Rx,0,8,00,FF,FF,00,00,40,00,50,
277590,00000252,false,Rx,0,8,00,00,1B,1B,03,00,00,00,
277608,000002AD,false,Rx,0,8,00,01,00,40,FF,FF,FF,0F,
277626,00000253,false,Rx,0,8,00,00,00,55,56,00,80,44,
278572,000002AE,false,Rx,0,8,01,00,FF,3F,01,01,00,00,
278595,00000396,false,Rx,0,8,46,E8,1E,0F,08,01,00,02,
278612,000002B6,false,Rx,0,8,90,C1,3E,01,00,00,00,40,
278637,00000397,false,Rx,0,8,04,00,00,00,00,00,00,00,
278655,000002B7,false,Rx,0,8,EA,01,F0,78,00,04,00,00,
279568,00000398,false,Rx,0,8,00,00,00,00,00,00,00,00,
279590,000002B8,false,Rx,0,8,AA,11,11,00,00,00,00,00,
279607,00000418,false,Rx,0,8,19,70,00,00,12,0C,00,00,
279632,000002B9,false,Rx,0,8,0A,00,00,00,00,00,00,00,
280622,00000419,false,Rx,0,8,50,30,72,D6,6D,86,90,00,
280654,000002E1,false,Rx,0,8,C9,D3,3E,00,00,00,00,40,
280672,00000487,false,Rx,0,8,00,00,00,00,00,00,00,00,
280690,000002E2,false,Rx,0,8,FD,00,00,00,00,14,00,04,
282259,00000642,false,Rx,0,8,FF,FF,FF,FF,FF,FF,00,00,
282309,000002E3,false,Rx,0,8,00,00,00,00,00,00,72,01,
282328,000002E4,false,Rx,0,8,02,00,00,00,00,00,00,00,
290567,00000401,false,Rx,0,8,A9,30,10,00,00,04,00,00,
291569,0000019B,false,Rx,0,8,8B,BB,67,00,00,E4,00,00,
291593,0000019C,false,Rx,0,8,40,20,00,00,00,00,0B,09,
291610,0000019D,false,Rx,0,8,00,10,00,01,00,00,00,00,
292571,0000019E,false,Rx,0,8,15,00,00,00,00,32,00,00,
292592,000002D6,false,Rx,0,8,22,85,1E,00,00,00,00,00,
293567,000002EB,false,Rx,0,8,55,84,1E,09,08,01,00,02,
293590,000001AB,false,Rx,0,8,5D,EC,81,50,70,38,00,00,
293608,000002D7,false,Rx,0,8,00,00,00,00,03,00,00,00,
293625,000001AC,false,Rx,0,8,00,28,00,00,00,00,00,00,
294567,000002D8,false,Rx,0,8,00,00,00,00,00,00,38,45,
294590,000002EC,false,Rx,0,8,00,00,00,00,00,00,00,00,
294607,000002D9,false,Rx,0,8,00,00,00,00,00,00,00,00,
294625,000002ED,false,Rx,0,8,00,00,00,00,00,00,00,00,
295573,00000472,false,Rx,0,8,5C,EC,00,40,08,41,00,45,
295595,000002EE,false,Rx,0,8,00,00,00,00,00,00,00,00,
295612,000002FF,false,Rx,0,8,E2,01,00,F1,3F,00,00,00,
295630,00000316,false,Rx,0,8,31,C1,0D,04,13,80,0A,00,
296568,00000317,false,Rx,0,8,00,00,05,00,00,00,00,00,
296591,00000473,false,Rx,0,8,5F,24,00,25,00,00,00,78,
296609,00000356,false,Rx,0,8,A8,95,1F,00,00,00,00,00,
297567,00000474,false,Rx,0,8,93,44,00,00,00,00,00,14,
297590,00000357,false,Rx,0,8,00,00,00,00,00,4B,4D,48,
297608,00000358,false,Rx,0,8,35,41,45,4D,52,37,33,4F,
297625,00000359,false,Rx,0,8,51,4F,34,52,4A,35,33,00,
300564,00000121,false,Rx,0,8,D3,00,6A,00,00,00,00,05,
300586,00000122,false,Rx,0,8,FF,D9,67,1F,46,46,46,46,
301567,00000123,false,Rx,0,8,11,03,00,00,00,00,01,35,
301590,00000124,false,Rx,0,8,00,00,0A,00,00,00,20,40,
304564,00000036,false,Rx,0,8,98,65,6C,51,00,00,25,01,
305567,00000037,false,Rx,0,8,3B,00,00,10,00,40,00,00,
305590,00000038,false,Rx,0,8,04,00,00,00,50,38,96,D4,
305615,00000039,false,Rx,0,8,00,00,00,00,00,00,00,00,
305633,00000091,false,Rx,0,8,58,35,3C,09,00,00,00,00,
306567,00000092,false,Rx,0,8,2B,00,00,00,B0,02,00,00,
306589,000001E1,false,Rx,0,8,C0,19,79,02,00,00,00,00,
306607,00000093,false,Rx,0,8,00,00,00,00,00,00,00,00,
306633,000001E2,false,Rx,0,8,00,00,00,00,00,00,00,00,
307567,00000094,false,Rx,0,8,00,00,00,00,00,00,00,00,
307590,00000061,false,Rx,0,8,77,B1,72,00,00,00,00,00,
307607,00000062,false,Rx,0,8,02,02,00,02,40,FF,00,FF,
308567,000003B6,false,Rx,0,8,69,56,1D,00,00,00,00,46,
308590,00000063,false,Rx,0,8,00,00,05,00,00,08,FD,00,
308608,000003B7,false,Rx,0,8,46,00,00,00,00,00,00,00,
308625,00000064,false,Rx,0,8,00,00,00,04,FF,FA,00,00,
309567,000003B8,false,Rx,0,8,0B,03,00,00,00,00,69,0E,
309590,000000A1,false,Rx,0,8,2C,D9,72,1A,00,00,00,00,
309607,000003B9,false,Rx,0,8,00,00,00,00,00,00,00,00,
309625,000000A2,false,Rx,0,8,00,00,00,00,00,00,00,00,
310567,000004A3,false,Rx,0,8,80,00,48,0B,3E,00,00,00,
310589,000000A3,false,Rx,0,8,00,40,01,00,00,00,00,00,
310607,000004A4,false,Rx,0,8,FF,FF,FF,00,00,00,00,00,
316574,00000146,false,Rx,0,8,A3,D2,2C,10,04,05,00,00,
316596,00000147,false,Rx,0,8,01,04,7D,00,40,98,08,00,
316613,00000148,false,Rx,0,8,00,00,42,00,1E,92,40,05,
316631,00000149,false,Rx,0,8,00,38,00,D4,00,00,00,00,
316648,00000161,false,Rx,0,8,20,E8,2F,03,00,00,00,02,
317568,00000162,false,Rx,0,8,FF,FC,01,00,00,00,00,00,
321565,000001B1,false,Rx,0,8,28,E6,2C,00,72,00,00,00,
321586,000001B2,false,Rx,0,8,23,00,04,EF,25,07,52,10,
321603,000001B3,false,Rx,0,8,25,38,4B,00,83,91,90,8E,
321621,000001B4,false,Rx,0,8,82,8D,10,00,00,41,01,00,
322567,00000495,false,Rx,0,8,49,00,00,00,00,00,00,00,
322590,000003AA,false,Rx,0,8,FF,00,B0,00,54,00,00,00,
323569,0000010B,false,Rx,0,8,DC,C6,6E,00,00,00,00,05,
324568,0000010C,false,Rx,0,8,FF,F9,E7,1F,46,44,46,46,
324597,00000563,false,Rx,0,8,65,02,00,00,00,00,FF,FF,
324615,0000010D,false,Rx,0,8,10,03,00,00,00,00,01,35,
324633,0000010E,false,Rx,0,8,00,00,1E,00,00,C0,AB,57,
325676,0000011B,false,Rx,0,8,A4,CB,5F,05,80,08,A8,02,
325710,0000012B,false,Rx,0,8,E3,31,5F,06,00,00,08,00,
326577,0000011C,false,Rx,0,8,00,05,20,00,22,00,01,01,
326603,0000012C,false,Rx,0,8,00,00,01,00,00,64,00,00,
326621,0000034B,false,Rx,0,8,ED,86,06,31,D8,0D,05,01,
327965,0000034C,false,Rx,0,8,00,00,00,00,00,00,00,00,
328000,0000034D,false,Rx,0,8,00,00,00,00,00,00,00,00,
329167,0000034E,false,Rx,0,8,00,00,00,00,00,00,00,00,
332024,000003B0,false,Rx,0,8,72,37,FF,C7,00,00,03,C0,
333643,000003B1,false,Rx,0,8,9B,3C,FF,40,00,00,20,00,
335601,00000448,false,Rx,0,8,00,C0,00,00,00,00,00,00,
338586,00000384,false,Rx,0,8,C5,8D,05,01,00,FF,00,14,
339596,0000042A,false,Rx,0,8,9F,1D,02,02,00,10,00,00,
341950,0000019B,false,Rx,0,8,33,BA,6C,00,00,E4,00,00,
341990,0000019C,false,Rx,0,8,40,20,00,00,00,00,0B,09,
342008,0000019D,false,Rx,0,8,00,10,00,01,00,00,00,00,
342026,0000019E,false,Rx,0,8,15,00,00,00,00,32,00,00,
342603,000003B2,false,Rx,0,8,36,15,FF,02,29,2F,34,00,
345625,000001A1,false,Rx,0,8,8D,07,30,FE,F7,7F,64,00,
346589,000001A2,false,Rx,0,8,00,00,00,00,00,08,00,00,
346625,000001A3,false,Rx,0,8,FF,F3,3F,00,00,00,00,00,
346643,000001A4,false,Rx,0,8,FE,07,00,00,00,00,00,00,
348146,00000427,false,Rx,0,8,1D,86,FF,00,80,0A,00,00,
348573,0000036F,false,Rx,0,8,89,B1,01,00,00,00,00,00,
349610,0000037F,false,Rx,0,8,2A,50,52,24,41,02,00,00,
351101,00000121,false,Rx,0,8,AC,2C,6F,00,00,00,00,05,
351136,00000122,false,Rx,0,8,FF,D9,67,1F,46,46,46,46,
351154,00000123,false,Rx,0,8,11,03,00,00,00,00,01,35,
351172,00000124,false,Rx,0,8,00,00,0A,00,00,00,20,40,
354771,00000036,false,Rx,0,8,50,67,71,51,00,00,25,01,
354810,00000037,false,Rx,0,8,3B,00,00,10,00,40,00,00,
354847,00000038,false,Rx,0,8,04,00,00,00,50,38,96,D4,
355732,00000039,false,Rx,0,8,00,00,00,00,00,00,00,00,
357373,00000061,false,Rx,0,8,08,9D,77,00,00,00,00,00,
357408,00000062,false,Rx,0,8,02,02,00,02,40,FF,00,FF,
358691,00000063,false,Rx,0,8,00,00,05,00,00,08,FD,00,
358710,00000064,false,Rx,0,8,00,00,00,04,FF,FA,00,00,
358727,000000A1,false,Rx,0,8,23,32,77,1A,00,00,00,00,
358745,000000A2,false,Rx,0,8,00,00,00,00,00,00,00,00,
358763,000000A3,false,Rx,0,8,00,40,01,00,00,00,00,00,
368589,000001E6,false,Rx,0,8,20,55,79,02,00,00,00,00,
368627,000001E7,false,Rx,0,8,00,00,22,03,20,01,00,00,
369597,000001BB,false,Rx,0,8,4E,D9,79,02,00,00,00,0A,
369630,000001BC,false,Rx,0,8,32,00,00,00,02,00,00,00,
369649,000001BD,false,Rx,0,8,00,00,00,00,00,00,00,00,
373590,0000010B,false,Rx,0,8,14,C4,73,00,00,00,00,05,
374598,0000010C,false,Rx,0,8,FF,F9,E7,1F,46,44,46,46,
374630,0000010D,false,Rx,0,8,10,03,00,00,00,00,01,35,
374648,0000010E,false,Rx,0,8,00,00,1E,00,00,C0,AB,57,
375764,0000011B,false,Rx,0,8,72,57,64,05,80,08,A8,02,
376197,0000011C,false,Rx,0,8,00,05,20,00,22,00,01,01,
376235,0000012B,false,Rx,0,8,35,AD,64,06,00,00,08,00,
376255,0000012C,false,Rx,0,8,00,00,01,00,00,64,00,00,
376272,000001FB,false,Rx,0,8,8B,B8,3D,00,00,00,00,00,
377326,000001FC,false,Rx,0,8,00,00,00,00,00,00,00,00,
377378,000001FD,false,Rx,0,8,00,1A,03,00,00,00,00,00,
377396,000002C1,false,Rx,0,8,28,69,20,21,00,41,00,AB,
377414,000001FE,false,Rx,0,8,00,00,00,00,00,00,00,00,
378634,000002C2,false,Rx,0,8,2E,00,00,00,00,00,00,00,
378681,000002C3,false,Rx,0,8,00,00,00,00,00,00,00,00,
378699,000002C4,false,Rx,0,8,00,00,00,00,00,00,00,00,
380266,000000C5,false,Rx,0,8,00,00,00,00,00,00,00,00,
380301,00000244,false,Rx,0,8,FF,FF,FF,FF,FF,FF,FF,FF,
380716,000004B4,false,Rx,0,8,00,00,00,00,00,00,00,00,
380742,000004B5,false,Rx,0,8,08,00,F0,07,00,00,00,00,
382070,000004B7,false,Rx,0,8,08,00,F0,07,00,00,00,00,
382105,000004CA,false,Rx,0,8,00,00,00,00,00,00,00,00,
382123,000004CC,false,Rx,0,8,08,00,00,06,00,00,03,00,
385023,000004CE,false,Rx,0,8,14,01,FF,FF,FF,FF,FF,FF,
385099,000004D7,false,Rx,0,8,23,01,00,00,00,00,00,00,
385118,000004D8,false,Rx,0,8,41,10,F0,F0,40,F2,1E,CC,
385155,000004DD,false,Rx,0,8,00,00,FE,00,04,00,00,00,
385173,000004DF,false,Rx,0,8,FF,03,0C,3F,00,00,00,00,
385191,000004E7,false,Rx,0,8,00,30,00,00,00,00,69,00,
385209,000004EF,false,Rx,0,8,60,00,60,00,29,14,00,00,
385565,0000063D,false,Rx,0,8,00,80,00,00,00,00,00,00,
386563,0000063E,false,Rx,0,8,FF,FF,FF,FF,FF,FF,FF,FF,
386588,0000063F,false,Rx,0,8,00,10,00,C4,FF,00,00,00,
386606,00000640,false,Rx,0,8,FF,FF,FF,00,FF,FF,FF,00,
386623,00000641,false,Rx,0,8,FF,FF,FF,FF,0F,FF,FF,FF,
387803,00000646,false,Rx,0,8,00,00,00,80,01,00,00,00,
391602,0000019B,false,Rx,0,8,FB,B8,71,00,00,E4,00,00,
391643,0000019C,false,Rx,0,8,40,20,00,00,00,00,0B,09,
391661,0000019D,false,Rx,0,8,00,10,00,01,00,00,00,00,
392598,0000019E,false,Rx,0,8,15,00,00,00,00,32,00,00,
393825,000001AB,false,Rx,0,8,C2,84,86,50,70,38,00,00,
393861,000001AC,false,Rx,0,8,00,28,00,00,00,00,00,00,
394239,00000226,false,Rx,0,8,D4,FF,1B,FF,30,E1,05,42,
394263,00000227,false,Rx,0,8,02,70,E1,08,00,F2,17,04,
396618,0000033B,false,Rx,0,8,AD,D4,3F,00,00,00,00,00,
396654,0000033C,false,Rx,0,8,00,00,00,00,F0,00,00,00,
396672,0000033D,false,Rx,0,8,00,00,00,00,00,00,00,00,
396690,0000033E,false,Rx,0,8,00,00,00,00,00,00,00,00,
400600,00000121,false,Rx,0,8,D1,E9,74,00,00,00,00,05,
400639,00000122,false,Rx,0,8,FF,D9,67,1F,46,46,46,46,
401686,00000123,false,Rx,0,8,11,03,00,00,00,00,01,35,
401718,00000124,false,Rx,0,8,00,00,0A,00,00,00,20,40,
402988,00000382,false,Rx,0,8,C5,F7,11,00,00,05,05,00,
404594,00000036,false,Rx,0,8,A3,F9,76,51,00,00,25,01,
404628,00000037,false,Rx,0,8,3B,00,00,10,00,40,00,00,
405743,00000038,false,Rx,0,8,04,00,00,00,50,38,96,D4,
405778,00000039,false,Rx,0,8,00,00,00,00,00,00,00,00,
405796,00000091,false,Rx,0,8,A5,39,3D,09,00,00,00,00,
407270,00000092,false,Rx,0,8,2E,00,00,00,E0,02,00,00,
407692,00000093,false,Rx,0,8,00,00,00,00,00,00,00,00,
407718,000002E6,false,Rx,0,8,A3,61,3C,01,00,00,00,15,
407737,00000094,false,Rx,0,8,00,00,00,00,00,00,00,00,
407755,00000256,false,Rx,0,8,8F,59,3C,15,40,00,50,01,
407773,00000257,false,Rx,0,8,00,94,42,22,86,07,00,94,
408972,00000258,false,Rx,0,8,0B,6C,1E,00,10,15,00,28,
409006,00000063,false,Rx,0,8,00,00,05,00,00,08,FD,00,
409023,00000259,false,Rx,0,8,83,05,8D,3C,4C,02,00,00,
409041,00000064,false,Rx,0,8,00,00,00,04,FF,FA,00,00,
409461,000002E7,false,Rx,0,8,0A,00,00,00,00,00,00,00,
409487,000000A1,false,Rx,0,8,1F,C3,7C,1A,00,00,00,00,
409504,000002E8,false,Rx,0,8,00,00,00,00,00,00,00,00,
409765,000000A2,false,Rx,0,8,00,00,00,00,00,00,00,00,
410883,000002E9,false,Rx,0,8,00,00,00,00,00,00,00,00,
410918,000000A3,false,Rx,0,8,00,40,01,00,00,00,00,00,
410936,000004F0,false,Rx,0,8,4A,10,34,0F,58,1A,18,02,
412278,000001F1,false,Rx,0,8,76,C1,4C,01,00,00,28,00,
412313,000001F2,false,Rx,0,8,00,00,00,00,00,00,00,00,
415973,00000565,false,Rx,0,8,66,02,00,00,00,00,FF,FF,
416013,00000146,false,Rx,0,8,6B,D0,31,10,04,05,00,00,
416032,00000147,false,Rx,0,8,01,04,7D,00,40,98,08,00,
416598,00000148,false,Rx,0,8,00,00,42,00,1E,92,40,05,
416647,00000149,false,Rx,0,8,00,38,00,D4,00,00,00,00,
416667,00000161,false,Rx,0,8,E2,32,34,03,00,00,00,02,
417593,00000162,false,Rx,0,8,FF,FC,01,00,00,00,00,00,
420817,000002BF,false,Rx,0,8,FF,FF,FF,00,00,00,00,00,
420858,0000047F,false,Rx,0,8,FF,FC,FF,FF,FF,3F,F3,FF,
420876,000001B1,false,Rx,0,8,2F,55,31,00,72,00,00,00,
420893,00000653,false,Rx,0,8,0A,19,03,01,02,2A,00,00,
421798,000001B2,false,Rx,0,8,23,00,04,EF,25,07,52,10,
421830,000003A1,false,Rx,0,8,8D,61,30,00,FF,FF,FF,FF,
421848,000001B3,false,Rx,0,8,25,38,4B,00,83,91,90,8E,
421866,000003A2,false,Rx,0,8,00,00,00,00,00,00,00,00,
422890,000001B4,false,Rx,0,8,81,8D,10,00,00,41,01,00,
424604,0000010B,false,Rx,0,8,AC,C5,78,00,00,00,00,05,
424657,0000010C,false,Rx,0,8,FF,F9,E7,1F,46,44,46,46,
424678,0000010D,false,Rx,0,8,10,03,00,00,00,00,01,35,
424695,0000010E,false,Rx,0,8,00,00,1E,00,00,C0,AB,57,
425614,0000011B,false,Rx,0,8,01,6E,69,05,80,08,A8,02,
426058,0000011C,false,Rx,0,8,00,05,20,00,22,00,01,01,
426079,0000012B,false,Rx,0,8,46,94,69,06,00,00,08,00,
426097,0000012C,false,Rx,0,8,00,00,01,00,00,64,00,00,
428483,00000475,false,Rx,0,8,12,00,00,00,00,00,00,00,
428520,00000496,false,Rx,0,8,12,00,00,00,00,00,00,00,
432586,00000111,false,Rx,0,8,DC,B3,14,01,00,00,00,00,
432615,00000112,false,Rx,0,8,00,00,00,00,00,00,00,00,
432632,00000113,false,Rx,0,8,00,00,00,00,00,00,00,00,
432649,00000114,false,Rx,0,8,00,00,00,00,00,00,00,00,
436565,000000FF,false,Rx,0,8,CB,10,00,00,00,00,02,00,
437566,00000394,false,Rx,0,8,2A,22,1A,49,00,00,00,00,
437589,000003C3,false,Rx,0,8,45,10,31,30,36,00,00,00,
437606,000003E0,false,Rx,0,8,66,20,01,00,54,03,00,00,
438567,000003E5,false,Rx,0,8,37,80,01,00,00,00,00,00,
438586,000003E6,false,Rx,0,8,67,90,00,00,00,00,00,00,
439566,0000041A,false,Rx,0,8,8D,D0,12,00,00,00,00,00,
439589,0000041B,false,Rx,0,8,70,D0,00,00,00,00,00,00,
439606,0000041C,false,Rx,0,8,48,00,E0,00,00,00,00,00,
439623,00000422,false,Rx,0,8,9D,70,01,00,00,00,04,00,
440567,00000432,false,Rx,0,8,03,20,02,00,00,00,00,00,
441575,0000019B,false,Rx,0,8,08,26,76,00,00,E4,00,00,
441597,0000019C,false,Rx,0,8,40,20,00,00,00,00,0B,09,
441615,00000435,false,Rx,0,8,26,C0,00,40,00,00,00,00,
442569,0000019D,false,Rx,0,8,00,10,00,01,00,00,00,00,
442590,00000442,false,Rx,0,8,CE,20,11,81,00,00,00,00,
442608,0000019E,false,Rx,0,8,15,00,00,00,00,32,00,00,
442626,00000444,false,Rx,0,8,D5,20,20,50,55,50,00,00,
443567,00000445,false,Rx,0,8,C6,C0,00,00,00,00,00,18,
443589,00000464,false,Rx,0,8,D5,20,F0,FF,38,7F,05,00,
445573,0000030B,false,Rx,0,8,DD,2D,3F,00,04,00,00,00,
445594,0000030C,false,Rx,0,8,00,00,0E,00,2C,00,A0,0F,
445612,000001A1,false,Rx,0,8,F2,2B,35,FE,F7,7F,64,00,
446573,0000030D,false,Rx,0,8,00,00,00,00,48,00,00,00,
446595,000001A2,false,Rx,0,8,00,00,00,00,00,08,00,00,
446613,0000030E,false,Rx,0,8,00,00,38,05,21,00,00,02,
446631,000001A3,false,Rx,0,8,FF,F3,3F,00,00,00,00,00,
447568,000001A4,false,Rx,0,8,FE,07,00,00,00,00,00,00,
448565,0000036F,false,Rx,0,8,81,C1,01,00,00,00,00,00,
449568,0000037F,false,Rx,0,8,FC,60,52,24,41,02,00,00,
450565,000004F0,false,Rx,0,8,4A,10,34,0F,58,1A,18,02,
450586,00000121,false,Rx,0,8,DC,2F,79,00,00,00,00,05,
450604,00000122,false,Rx,0,8,FF,D9,67,1F,46,46,46,46,
451568,00000123,false,Rx,0,8,11,03,00,00,00,00,01,35,
451588,00000124,false,Rx,0,8,00,00,0A,00,00,00,20,40,
454566,00000036,false,Rx,0,8,AE,3F,7B,51,00,00,25,01,
454596,00000037,false,Rx,0,8,3B,00,00,10,00,40,00,00,
455568,00000038,false,Rx,0,8,04,00,00,00,50,38,96,D4,
455589,00000039,false,Rx,0,8,00,00,00,00,00,00,00,00,
456567,000001E1,false,Rx,0,8,36,31,7C,02,00,00,00,00,
456589,000001E2,false,Rx,0,8,00,00,00,00,00,00,00,00,
457568,00000061,false,Rx,0,8,4A,62,81,00,00,00,00,00,
457589,00000062,false,Rx,0,8,02,02,00,02,40,FF,00,FF,
457606,00000063,false,Rx,0,8,00,00,05,00,00,08,FD,00,
458567,00000064,false,Rx,0,8,00,00,00,04,FF,FA,00,00,
458589,000000A1,false,Rx,0,8,6B,73,81,1A,00,00,00,00,
458607,000000A2,false,Rx,0,8,00,00,00,00,00,00,00,00,
458625,000000A3,false,Rx,0,8,00,40,01,00,00,00,00,00,
465571,00000151,false,Rx,0,8,AD,15,3F,A0,C8,00,28,19,
465592,000001F6,false,Rx,0,8,9E,36,3F,00,00,00,00,0E,
465610,00000152,false,Rx,0,8,16,18,18,00,0B,00,00,00,
466574,000001F7,false,Rx,0,8,0B,00,00,00,00,00,00,00,
466597,00000153,false,Rx,0,8,00,00,00,00,00,00,00,00,
466615,000001F8,false,Rx,0,8,00,00,00,00,00,00,00,00,
466633,00000154,false,Rx,0,8,00,00,00,00,00,00,00,00,
467567,000001F9,false,Rx,0,8,00,00,A0,C8,14,00,00,00,
467587,000002FB,false,Rx,0,8,29,BF,3F,04,5F,1A,CC,CC,
467604,00000236,false,Rx,0,8,34,B6,3F,00,6E,3C,34,6C,
467622,000002FC,false,Rx,0,8,10,00,16,19,00,00,8E,BF,
468566,00000237,false,Rx,0,8,00,15,BA,00,00,A7,1E,00,
468588,000002FD,false,Rx,0,8,00,00,00,00,00,1C,0E,EA,
468606,00000238,false,Rx,0,8,00,00,5F,00,00,00,00,00,
468624,000002FE,false,Rx,0,8,00,00,72,01,00,28,00,00,
470530,00000239,false,Rx,0,8,00,00,00,00,01,00,00,00,
470584,00000326,false,Rx,0,8,64,68,3F,00,00,00,00,00,
470603,0000025B,false,Rx,0,8,E4,60,3F,40,40,20,00,00,
470620,00000327,false,Rx,0,8,00,00,00,00,05,00,00,00,
470638,0000025C,false,Rx,0,8,00,00,0B,00,34,89,19,00,
471591,0000025E,false,Rx,0,8,35,07,0E,05,00,00,00,00,
471618,00000331,false,Rx,0,8,77,27,3F,F1,C8,A0,2C,97,
471636,00000380,false,Rx,0,8,73,DE,00,0C,0C,0C,0C,01,
471654,00000332,false,Rx,0,8,94,02,00,00,00,00,00,00,
472697,00000383,false,Rx,0,8,FC,DC,02,10,01,00,00,00,
472730,00000333,false,Rx,0,8,00,00,00,1C,0C,40,20,A0,
472747,00000405,false,Rx,0,8,BD,30,00,00,00,01,00,00,
472765,00000334,false,Rx,0,8,C8,00,00,00,AC,70,1D,90,
472783,00000410,false,Rx,0,8,4B,80,59,3C,16,6B,FF,FF,
473591,00000413,false,Rx,0,8,6F,30,00,00,00,00,00,00,
473630,00000411,false,Rx,0,8,A8,01,50,50,00,00,44,04,
473647,00000414,false,Rx,0,8,F0,10,00,00,28,00,00,00,
473665,0000010B,false,Rx,0,8,D3,E9,7D,00,00,00,00,05,
474567,00000412,false,Rx,0,8,6D,60,00,00,00,00,00,00,
474593,0000010C,false,Rx,0,8,FF,F9,E7,1F,46,44,46,46,
474611,00000416,false,Rx,0,8,55,00,00,00,00,00,00,00,
474628,0000010D,false,Rx,0,8,10,03,00,00,00,00,01,35,
476048,00000417,false,Rx,0,8,5F,20,00,00,00,00,00,00,
476082,0000010E,false,Rx,0,8,00,00,1E,00,00,C0,AB,57,
476099,000002AB,false,Rx,0,8,34,A5,40,0C,0C,00,00,00,
476117,0000011B,false,Rx,0,8,9E,06,6E,05,80,08,A8,02,
476491,0000012B,false,Rx,0,8,D9,FC,6E,06,00,00,08,00,
476639,0000011C,false,Rx,0,8,00,05,20,00,22,00,01,01,
476667,0000012C,false,Rx,0,8,00,00,01,00,00,64,00,00,
476684,00000251,false,Rx,0,8,DE,23,3F,00,00,00,00,00,
478858,000002AC,false,Rx,0,8,00,FF,FF,00,00,40,00,50,
479322,00000252,false,Rx,0,8,00,00,1B,1B,03,00,00,00,
480622,000002AD,false,Rx,0,8,00,01,00,40,FF,FF,FF,0F,
480660,00000253,false,Rx,0,8,00,00,00,55,55,00,80,44,
480678,000002AE,false,Rx,0,8,01,00,FF,3F,01,01,00,00,
480695,00000396,false,Rx,0,8,3E,24,1F,0F,08,01,00,02,
480713,00000398,false,Rx,0,8,00,00,00,00,00,00,00,00,
480731,000002E2,false,Rx,0,8,FD,00,00,00,00,14,00,04,
481576,00000642,false,Rx,0,8,FF,FF,FF,FF,FF,FF,00,00,
481598,000002E3,false,Rx,0,8,00,00,00,00,00,00,72,01,
481615,000002E4,false,Rx,0,8,02,00,00,00,00,00,00,00,
490594,00000401,false,Rx,0,8,A9,30,10,00,00,04,00,00,
491632,0000019B,false,Rx,0,8,05,E0,7B,00,00,E4,00,00,
491664,0000019C,false,Rx,0,8,40,20,00,00,00,00,0B,09,
491682,0000019D,false,Rx,0,8,00,10,00,01,00,00,00,00,
492575,0000019E,false,Rx,0,8,15,00,00,00,00,32,00,00,
492607,000004F0,false,Rx,0,8,4A,10,34,0F,58,1A,18,02,
492625,000002D6,false,Rx,0,8,64,DC,1F,00,00,00,00,00,
494085,000002EB,false,Rx,0,8,F0,95,1F,09,08,01,00,02,
494120,000002D7,false,Rx,0,8,00,00,00,00,03,00,00,00,
494138,000001AB,false,Rx,0,8,B1,BD,8B,50,70,38,00,00,
494156,000002D8,false,Rx,0,8,00,00,00,00,00,00,38,45,
494173,000001AC,false,Rx,0,8,00,28,00,00,00,00,00,00,
494191,000002D9,false,Rx,0,8,00,00,00,00,00,00,00,00,
496892,000002EC,false,Rx,0,8,02,00,00,00,00,00,00,00,
496951,000003CB,false,Rx,0,8,36,14,00,F4,00,00,00,00,
496983,000002ED,false,Rx,0,8,00,00,00,00,00,00,00,00,
497208,000003CC,false,Rx,0,8,36,31,34,30,33,34,31,00,
497262,000002EE,false,Rx,0,8,00,00,00,00,00,00,00,00,
497281,00000472,false,Rx,0,8,5C,EC,00,40,08,41,00,45,
497298,00000357,false,Rx,0,8,00,00,00,00,00,4B,4D,48,
497316,00000358,false,Rx,0,8,35,41,45,4D,52,37,33,4F,
497567,00000359,false,Rx,0,8,51,4F,34,52,4A,35,33,00,
498568,000002FF,false,Rx,0,8,E2,01,00,F1,3F,00,00,00,
500429,00000121,false,Rx,0,8,2F,B1,7E,00,00,00,00,05,
500858,00000122,false,Rx,0,8,FF,D9,67,1F,46,46,46,46,
500884,00000123,false,Rx,0,8,11,03,00,00,00,00,01,35,
501577,00000124,false,Rx,0,8,00,00,0A,00,00,00,20,40,
505301,00000036,false,Rx,0,8,E1,06,80,51,00,00,25,01,
505336,00000037,false,Rx,0,8,3B,00,00,10,00,40,00,00,
505354,00000038,false,Rx,0,8,04,00,00,00,50,38,96,D4,
505372,00000039,false,Rx,0,8,00,00,00,00,00,00,00,00,
506873,00000091,false,Rx,0,8,6F,D2,3E,09,00,00,00,00,
506922,00000092,false,Rx,0,8,2E,00,00,00,E0,02,00,00,
506965,00000093,false,Rx,0,8,00,00,00,00,00,00,00,00,
506983,00000094,false,Rx,0,8,00,00,00,00,00,00,00,00,
507000,00000061,false,Rx,0,8,B9,FC,86,00,00,00,00,00,
509348,00000062,false,Rx,0,8,02,02,00,02,40,FF,00,FF,
509503,00000063,false,Rx,0,8,00,00,05,00,00,08,FD,00,
509521,000003B6,false,Rx,0,8,A3,BD,1E,00,00,00,00,46,
509766,00000064,false,Rx,0,8,00,00,00,04,FF,FA,00,00,
509792,000003B7,false,Rx,0,8,46,00,00,00,00,00,00,00,
510916,000000A3,false,Rx,0,8,00,40,01,00,00,00,00,00,
512572,000004A3,false,Rx,0,8,80,00,48,0B,3E,00,00,00,
512596,000004A4,false,Rx,0,8,FF,FF,FF,00,00,00,00,00,
514566,00000419,false,Rx,0,8,1E,40,73,D6,6D,86,90,00,
515824,00000566,false,Rx,0,8,16,02,00,00,00,00,FF,FF,
515860,00000146,false,Rx,0,8,6E,88,36,10,04,05,00,00,
516233,00000147,false,Rx,0,8,01,04,7D,00,40,97,08,00,
516263,00000148,false,Rx,0,8,00,00,42,00,1E,92,40,05,
516592,00000149,false,Rx,0,8,00,38,00,D4,00,00,00,00,
516614,00000161,false,Rx,0,8,91,0B,39,03,00,00,00,02,
517572,00000162,false,Rx,0,8,FF,FC,01,00,00,00,00,00,
517593,000001E6,false,Rx,0,8,D6,7D,7C,02,00,00,00,00,
517611,000001E7,false,Rx,0,8,00,00,22,03,20,01,00,00,
518565,000001BB,false,Rx,0,8,41,32,7C,02,00,00,00,0A,
518587,000001BC,false,Rx,0,8,32,00,00,00,02,00,00,00,
520255,000001BD,false,Rx,0,8,00,00,00,00,00,00,00,00,
520679,000001B1,false,Rx,0,8,DC,CB,36,00,72,00,00,00,
520712,000001B2,false,Rx,0,8,23,00,04,EF,25,07,52,10,
521584,000001B3,false,Rx,0,8,25,38,4B,00,83,91,90,8E,
521605,000001B4,false,Rx,0,8,81,8D,10,00,00,41,01,00,
522569,00000495,false,Rx,0,8,49,00,00,00,00,00,00,00,
522590,000003AA,false,Rx,0,8,FF,00,B0,00,54,00,00,00,
523569,0000010B,false,Rx,0,8,A5,A5,82,00,00,00,00,05,
524794,0000010C,false,Rx,0,8,FF,F9,E7,1F,46,44,46,46,
524827,0000010D,false,Rx,0,8,10,03,00,00,00,00,01,35,
524845,0000010E,false,Rx,0,8,00,00,1E,00,00,C0,AB,57,
525592,0000011B,false,Rx,0,8,E7,1C,73,05,80,08,A8,02,
525620,0000012B,false,Rx,0,8,A0,E6,73,06,00,00,08,00,
527183,0000011C,false,Rx,0,8,00,05,20,00,22,00,01,01,
527217,0000012C,false,Rx,0,8,00,00,01,00,00,64,00,00,
532028,000003B0,false,Rx,0,8,72,37,FF,C7,00,00,03,C0,
533594,000003B1,false,Rx,0,8,9B,3C,FF,40,00,00,20,00,
535569,00000448,false,Rx,0,8,00,C0,00,00,00,00,00,00,
538600,00000384,false,Rx,0,8,C5,8D,05,01,00,FF,00,14,
539596,0000042A,false,Rx,0,8,9F,1D,02,02,00,10,00,00,
542267,0000019B,false,Rx,0,8,4A,D9,80,00,00,E4,00,00,
542442,0000019C,false,Rx,0,8,40,20,00,00,00,00,0B,09,
542461,0000019D,false,Rx,0,8,00,10,00,01,00,00,00,00,
542478,0000019E,false,Rx,0,8,15,00,00,00,00,32,00,00,
542496,000003B2,false,Rx,0,8,36,15,FF,02,29,2F,34,00,
546369,000001A1,false,Rx,0,8,73,5F,3A,FE,F7,7F,64,00,
546408,000001A2,false,Rx,0,8,00,00,00,00,00,08,00,00,
546426,000001A3,false,Rx,0,8,FF,F3,3F,00,00,00,00,00,
546444,000001A4,false,Rx,0,8,FE,07,00,00,00,00,00,00,
548160,00000427,false,Rx,0,8,1D,86,FF,00,80,0A,00,00,
548596,0000036F,false,Rx,0,8,38,D1,01,00,00,00,00,00,
549581,0000037F,false,Rx,0,8,45,70,52,24,41,02,00,00,
550567,00000121,false,Rx,0,8,D5,4F,83,00,00,00,00,05,
550588,00000122,false,Rx,0,8,FF,D9,67,1F,46,46,46,46,
551898,00000123,false,Rx,0,8,11,03,00,00,00,00,01,35,
551931,00000124,false,Rx,0,8,00,00,0A,00,00,00,20,40,
554876,00000419,false,Rx,0,8,1E,40,73,D6,6D,86,90,00,
554917,00000036,false,Rx,0,8,9E,2A,85,51,00,00,25,01,
554935,00000037,false,Rx,0,8,3B,00,00,10,00,40,00,00,
554953,00000038,false,Rx,0,8,04,00,00,00,50,38,96,D4,
555785,00000039,false,Rx,0,8,00,00,00,00,00,00,00,00,
557329,00000061,false,Rx,0,8,B4,3A,8B,00,00,00,00,00,
557364,00000062,false,Rx,0,8,02,02,00,02,40,FF,00,FF,
557780,00000063,false,Rx,0,8,00,00,05,00,00,08,FD,00,
557804,00000064,false,Rx,0,8,00,00,00,04,FF,FA,00,00,
558582,000000A1,false,Rx,0,8,54,B5,8B,1A,00,00,00,00,
558611,000000A2,false,Rx,0,8,00,00,00,00,00,00,00,00,
558629,000000A3,false,Rx,0,8,00,40,01,00,00,00,00,00,
562821,000001F1,false,Rx,0,8,3B,29,4F,01,00,00,28,00,
562863,000001F2,false,Rx,0,8,00,00,00,00,00,00,00,00,
574565,0000010B,false,Rx,0,8,2C,5C,87,00,00,00,00,05,
574609,0000010C,false,Rx,0,8,FF,F9,E7,1F,46,45,46,46,
574628,0000010D,false,Rx,0,8,10,03,00,00,00,00,01,35,
574645,0000010E,false,Rx,0,8,00,00,1E,00,00,C0,AB,57,
575711,0000011B,false,Rx,0,8,2F,E5,78,05,80,08,A8,02,
575753,0000011C,false,Rx,0,8,00,05,20,00,22,00,01,01,
575771,0000012B,false,Rx,0,8,68,1F,78,06,00,00,08,00,
575789,000002C1,false,Rx,0,8,6E,30,21,21,00,41,00,AB,
576568,0000012C,false,Rx,0,8,00,00,01,00,00,64,00,00,
576589,000001FB,false,Rx,0,8,07,0A,3F,00,00,00,00,00,
576607,000002C2,false,Rx,0,8,2E,00,00,00,00,00,00,00,
577567,000001FC,false,Rx,0,8,00,00,00,00,00,00,00,00,
577588,000002C3,false,Rx,0,8,00,00,00,00,00,00,00,00,
577605,000001FD,false,Rx,0,8,00,1A,03,00,00,00,00,00,
577623,000002C4,false,Rx,0,8,00,00,00,00,00,00,00,00,
578607,000001FE,false,Rx,0,8,00,00,00,00,00,00,00,00,
579930,00000419,false,Rx,0,8,50,50,73,D6,71,86,90,00,
583590,000000C5,false,Rx,0,8,00,00,00,00,00,00,00,00,
583633,00000244,false,Rx,0,8,FF,FF,FF,FF,FF,FF,FF,FF,
583651,0000041F,false,Rx,0,8,00,0C,00,00,00,00,00,00,
583668,000004B4,false,Rx,0,8,00,00,00,00,00,00,00,00,
584601,000004B5,false,Rx,0,8,08,00,F0,07,00,00,00,00,
584632,000004B7,false,Rx,0,8,08,00,F0,07,00,00,00,00,
584650,000004CA,false,Rx,0,8,00,00,00,00,00,00,00,00,
585577,000004CC,false,Rx,0,8,08,00,00,06,00,00,03,00,
585601,000004CE,false,Rx,0,8,14,01,FF,FF,FF,FF,FF,FF,
585619,000004D7,false,Rx,0,8,23,01,00,00,00,00,00,00,
585637,000004D8,false,Rx,0,8,41,10,F0,F0,40,F2,1E,CC,
586624,000004DD,false,Rx,0,8,00,00,FE,00,04,00,00,00,
586657,000004DF,false,Rx,0,8,FF,03,0C,3F,00,00,00,00,
586675,000004E7,false,Rx,0,8,00,30,00,00,00,00,69,00,
586693,000004E8,false,Rx,0,8,FF,FF,FF,05,FF,FF,FF,00,
588721,000004E9,false,Rx,0,8,12,00,00,34,00,00,50,00,
588757,000004EA,false,Rx,0,8,67,00,00,89,00,00,00,00,
588775,000004EB,false,Rx,0,8,10,80,34,0F,80,00,00,00,
588792,000004EC,false,Rx,0,8,00,00,00,00,00,00,00,00,
588810,000004ED,false,Rx,0,8,00,00,00,00,00,FF,FF,1F,
589571,000004F1,false,Rx,0,8,00,C0,00,00,00,00,00,00,
589591,000004F2,false,Rx,0,8,02,FF,DD,FF,03,01,00,00,
589608,000004F3,false,Rx,0,8,00,00,00,00,F0,00,00,00,
591258,000004F9,false,Rx,0,8,E0,FF,FF,FF,FF,FF,FF,FF,
591292,000004FE,false,Rx,0,8,69,23,00,03,CF,00,48,A8,
591310,0000063D,false,Rx,0,8,00,80,00,00,00,00,00,00,
591348,0000063E,false,Rx,0,8,FF,FF,FF,FF,FF,FF,FF,FF,
591366,0000063F,false,Rx,0,8,00,10,00,C4,FF,00,00,00,
591383,00000640,false,Rx,0,8,FF,FF,FF,00,FF,FF,FF,00,
591784,0000019C,false,Rx,0,8,40,20,00,00,00,00,0B,09,
593285,00000641,false,Rx,0,8,FF,FF,FF,FF,0F,FF,FF,FF,
593320,0000019D,false,Rx,0,8,00,10,00,01,00,00,00,00,
593338,00000646,false,Rx,0,8,00,00,00,80,01,00,00,00,
593356,0000019E,false,Rx,0,8,15,00,00,00,00,32,00,00,
593374,000001AB,false,Rx,0,8,73,67,90,50,70,38,00,00,
593391,00000226,false,Rx,0,8,6F,3F,1D,FF,30,E1,05,42,
594293,00000227,false,Rx,0,8,02,70,E1,08,00,F2,17,04,
597240,0000033B,false,Rx,0,8,73,87,41,00,00,00,00,00,
597280,0000033C,false,Rx,0,8,00,00,00,00,F0,00,00,00,
597300,0000033D,false,Rx,0,8,00,00,00,00,00,00,00,00,
597318,0000033E,false,Rx,0,8,00,00,00,00,00,00,00,00,
597336,00000415,false,Rx,0,8,40,13,10,00,08,01,00,00,
600586,00000121,false,Rx,0,8,6D,4E,88,00,00,00,00,05,
600623,00000122,false,Rx,0,8,FF,D9,67,1F,46,46,46,46,
601568,00000123,false,Rx,0,8,11,03,00,00,00,00,01,35,
601590,00000124,false,Rx,0,8,00,00,0A,00,00,00,20,40,
602747,00000382,false,Rx,0,8,C5,F7,11,00,00,05,05,00,
604947,00000036,false,Rx,0,8,1F,5E,8A,51,00,00,25,01,
604982,00000037,false,Rx,0,8,3B,00,00,10,00,40,00,00,
606639,00000038,false,Rx,0,8,04,00,00,00,50,38,96,D4,
606659,00000039,false,Rx,0,8,00,00,00,00,00,00,00,00,
606677,00000091,false,Rx,0,8,92,DE,3F,09,00,00,00,00,
606694,00000092,false,Rx,0,8,2B,00,00,00,B0,02,00,00,
606712,00000093,false,Rx,0,8,00,00,00,00,00,00,00,00,
606730,00000094,false,Rx,0,8,00,00,00,00,00,00,00,00,
610349,000001E2,false,Rx,0,8,00,00,00,00,00,00,00,00,
610383,00000061,false,Rx,0,8,C9,FF,90,00,00,00,00,00,
610401,00000256,false,Rx,0,8,8A,0E,3E,15,40,00,40,01,
610554,00000062,false,Rx,0,8,02,02,00,02,40,FF,00,FF,
610573,00000257,false,Rx,0,8,00,93,42,20,86,07,00,94,
610591,000002E9,false,Rx,0,8,00,00,00,00,00,00,00,00,
614604,00000419,false,Rx,0,8,49,60,74,D6,71,86,90,00,
614644,00000516,false,Rx,0,8,61,02,00,00,00,00,FF,FF,
616593,00000146,false,Rx,0,8,95,88,3B,10,04,05,00,00,
616626,00000147,false,Rx,0,8,01,04,7D,00,40,98,08,00,
616644,00000148,false,Rx,0,8,00,00,42,00,1E,92,40,05,
616662,00000149,false,Rx,0,8,00,38,00,D4,00,00,00,00,
618041,00000161,false,Rx,0,8,0E,63,3E,03,00,00,00,02,
619235,00000162,false,Rx,0,8,FF,FC,01,00,00,00,00,00,
620699,000002BF,false,Rx,0,8,FF,FF,FF,00,00,00,00,00,
621126,0000047F,false,Rx,0,8,FF,FC,FF,FF,FF,3F,F3,FF,
621150,000001B1,false,Rx,0,8,1E,BC,3B,00,72,00,00,00,
621168,00000653,false,Rx,0,8,0A,19,03,01,02,2A,00,00,
621185,000001B2,false,Rx,0,8,23,00,04,EF,25,07,52,10,
621586,000003A1,false,Rx,0,8,A9,C9,31,00,FF,FF,FF,FF,
621606,000001B3,false,Rx,0,8,25,38,4B,00,83,91,90,8E,
622847,000003A2,false,Rx,0,8,00,00,00,00,00,00,00,00,
622881,000001B4,false,Rx,0,8,82,8D,10,00,00,41,01,00,
624487,0000010B,false,Rx,0,8,94,5D,8C,00,00,00,00,05,
624523,0000010C,false,Rx,0,8,FF,F9,E7,1F,46,45,46,46,
624773,0000010D,false,Rx,0,8,10,03,00,00,00,00,01,35,
624801,0000010E,false,Rx,0,8,00,00,1E,00,00,C0,AB,57,
625866,0000011B,false,Rx,0,8,D9,CD,7D,05,80,08,A8,02,
625901,0000011C,false,Rx,0,8,00,05,20,00,22,00,01,01,
625921,0000012B,false,Rx,0,8,9E,37,7D,06,00,00,08,00,
625938,0000012C,false,Rx,0,8,00,00,01,00,00,64,00,00,
628590,00000475,false,Rx,0,8,12,00,00,00,00,00,00,00,
628628,00000496,false,Rx,0,8,12,00,00,00,00,00,00,00,
632055,00000111,false,Rx,0,8,9A,EA,15,01,00,00,00,00,
632096,00000112,false,Rx,0,8,00,00,00,00,00,00,00,00,
632671,00000113,false,Rx,0,8,00,00,00,00,00,00,00,00,
632703,00000114,false,Rx,0,8,00,00,00,00,00,00,00,00,
636588,000000FF,false,Rx,0,8,CB,10,00,00,00,00,02,00,
638129,00000394,false,Rx,0,8,2A,22,1A,49,00,00,00,00,
638164,000003C3,false,Rx,0,8,45,10,31,30,36,00,00,00,
638183,000003E0,false,Rx,0,8,66,20,01,00,54,03,00,00,
638210,000003E5,false,Rx,0,8,37,80,01,00,00,00,00,00,
638228,000003E6,false,Rx,0,8,67,90,00,00,00,00,00,00,
640487,0000041A,false,Rx,0,8,8D,D0,12,00,00,00,00,00,
640727,0000041B,false,Rx,0,8,70,D0,00,00,00,00,00,00,
640747,0000041C,false,Rx,0,8,48,00,E0,00,00,00,00,00,
640765,00000422,false,Rx,0,8,9D,70,01,00,00,00,04,00,
640782,00000432,false,Rx,0,8,03,20,02,00,00,00,00,00,
642159,0000019B,false,Rx,0,8,B4,81,8A,00,00,E4,00,00,
642576,00000435,false,Rx,0,8,26,C0,00,40,00,00,00,00,
642610,0000019C,false,Rx,0,8,40,20,00,00,00,00,0B,09,
642631,00000442,false,Rx,0,8,CE,20,11,81,00,00,00,00,
642649,0000019D,false,Rx,0,8,00,10,00,01,00,00,00,00,
642666,00000444,false,Rx,0,8,D5,20,20,50,55,50,00,00,
642698,0000019E,false,Rx,0,8,15,00,00,00,00,32,00,00,
642715,00000445,false,Rx,0,8,C6,C0,00,00,00,00,00,18,
643846,00000464,false,Rx,0,8,D5,20,F0,FF,38,7F,05,00,
645615,0000030B,false,Rx,0,8,03,7E,41,00,04,00,00,00,
645654,0000030C,false,Rx,0,8,00,00,0E,00,2C,00,A0,0F,
646937,000001A1,false,Rx,0,8,0C,73,3F,FE,F7,7F,64,00,
646989,0000030D,false,Rx,0,8,00,00,00,00,48,00,00,00,
647008,000001A2,false,Rx,0,8,00,00,00,00,00,08,00,00,
647025,0000030E,false,Rx,0,8,00,00,38,05,21,00,00,02,
647043,000001A3,false,Rx,0,8,FF,F3,3F,00,00,00,00,00,
647061,000001A4,false,Rx,0,8,FE,07,00,00,00,00,00,00,
649355,0000036F,false,Rx,0,8,EE,E1,01,00,00,00,00,00,
649394,0000037F,false,Rx,0,8,EC,80,52,24,41,02,00,00,
650589,00000121,false,Rx,0,8,12,62,8D,00,00,00,00,05,
650618,00000122,false,Rx,0,8,FF,D9,67,1F,46,46,46,46,
652295,00000123,false,Rx,0,8,11,03,00,00,00,00,01,35,
653490,00000124,false,Rx,0,8,00,00,0A,00,00,00,20,40,
654818,00000419,false,Rx,0,8,49,60,74,D6,71,86,90,00,
654870,00000036,false,Rx,0,8,60,72,8F,51,00,00,25,01,
654888,00000037,false,Rx,0,8,3B,00,00,10,00,40,00,00,
654906,00000038,false,Rx,0,8,04,00,00,00,50,38,96,D4,
655665,00000039,false,Rx,0,8,00,00,00,00,00,00,00,00,
657347,00000061,false,Rx,0,8,B6,D3,95,00,00,00,00,00,
657382,00000062,false,Rx,0,8,02,02,00,02,40,FF,00,FF,
657793,00000063,false,Rx,0,8,00,00,05,00,00,08,FD,00,
657819,00000064,false,Rx,0,8,00,00,00,04,FF,FA,00,00,
659148,000000A1,false,Rx,0,8,34,EF,95,1A,00,00,00,00,
659173,000000A2,false,Rx,0,8,00,00,00,00,00,00,00,00,
659190,000000A3,false,Rx,0,8,00,40,01,00,00,00,00,00,
665590,00000151,false,Rx,0,8,73,46,41,A0,C8,00,28,19,
665630,00000152,false,Rx,0,8,16,18,18,00,0B,00,00,00,
665648,000001F6,false,Rx,0,8,40,65,41,00,00,00,00,0E,
666598,00000153,false,Rx,0,8,00,00,00,00,00,00,00,00,
666629,000001F7,false,Rx,0,8,0B,00,00,00,00,00,00,00,
666648,00000154,false,Rx,0,8,00,00,00,00,00,00,00,00,
666665,000001F8,false,Rx,0,8,00,00,00,00,00,00,00,00,
667567,000002FB,false,Rx,0,8,F7,EC,41,04,5F,1A,CC,CC,
667587,000001F9,false,Rx,0,8,00,00,A0,C8,14,00,00,00,
667605,000002FC,false,Rx,0,8,10,00,16,19,00,00,8E,BF,
667622,00000236,false,Rx,0,8,EA,E5,41,00,6E,3C,34,6C,
668587,000002FD,false,Rx,0,8,00,00,00,00,00,1C,0E,EA,
668615,00000237,false,Rx,0,8,00,15,BA,00,00,A7,1E,00,
668633,000002FE,false,Rx,0,8,00,00,72,01,00,28,00,00,
668651,000001E6,false,Rx,0,8,9B,95,7F,02,00,00,00,00,
668679,00000238,false,Rx,0,8,00,00,5F,00,00,00,00,00,
669568,000001E7,false,Rx,0,8,00,00,22,03,20,01,00,00,
669594,00000239,false,Rx,0,8,00,00,00,00,01,00,00,00,
669612,000001BB,false,Rx,0,8,44,6B,7F,02,00,00,00,0A,
671042,0000025B,false,Rx,0,8,3A,33,41,40,40,20,00,00,
671077,000001BC,false,Rx,0,8,32,00,00,00,02,00,00,00,
671117,0000025C,false,Rx,0,8,00,00,0B,00,34,89,19,00,
671497,000001BD,false,Rx,0,8,00,00,00,00,00,00,00,00,
671522,0000025D,false,Rx,0,8,00,C8,00,00,00,80,C0,70,
671649,0000025E,false,Rx,0,8,35,07,0E,05,00,00,00,00,
671682,00000327,false,Rx,0,8,00,00,00,00,05,00,00,00,
671703,00000380,false,Rx,0,8,73,DE,00,0C,0C,0C,0C,01,
672639,00000328,false,Rx,0,8,00,00,00,00,00,00,00,00,
672671,00000383,false,Rx,0,8,FC,DC,02,10,01,00,00,00,
672689,00000329,false,Rx,0,8,A0,00,00,00,00,00,00,00,
672706,00000405,false,Rx,0,8,BD,30,00,00,00,01,00,00,
674169,00000331,false,Rx,0,8,A9,74,41,F1,C8,A0,2C,97,
674597,00000410,false,Rx,0,8,4B,80,59,3C,16,6B,FF,FF,
674622,00000332,false,Rx,0,8,94,02,00,00,00,00,00,00,
674641,00000411,false,Rx,0,8,A8,01,50,50,00,00,44,04,
674660,0000010B,false,Rx,0,8,AA,8A,91,00,00,00,00,05,
674677,0000010C,false,Rx,0,8,FF,F9,E7,1F,46,44,46,46,
675710,0000010D,false,Rx,0,8,10,03,00,00,00,00,01,35,
675743,00000412,false,Rx,0,8,6D,60,00,00,00,00,00,00,
675761,0000010E,false,Rx,0,8,00,00,1E,00,00,C0,AB,57,
676180,000002AB,false,Rx,0,8,B8,17,42,0C,0C,00,00,00,
676213,0000011B,false,Rx,0,8,84,55,82,05,80,08,A8,02,
676233,0000012B,false,Rx,0,8,C3,AF,82,06,00,00,08,00,
676250,0000011C,false,Rx,0,8,00,05,20,00,22,00,01,01,
676591,0000012C,false,Rx,0,8,00,00,01,00,00,64,00,00,
679018,00000251,false,Rx,0,8,F7,30,41,00,00,00,00,00,
679054,000002AC,false,Rx,0,8,00,FF,FF,00,00,40,00,50,
679072,00000252,false,Rx,0,8,00,00,1B,1B,03,00,00,00,
679105,000002AD,false,Rx,0,8,00,01,00,40,FF,FF,FF,0F,
679122,00000253,false,Rx,0,8,00,00,00,56,55,00,80,44,
679140,00000398,false,Rx,0,8,00,00,00,00,00,00,00,00,
679698,000002B8,false,Rx,0,8,AA,11,11,00,00,00,00,00,
679726,00000413,false,Rx,0,8,6F,30,00,00,00,00,00,00,
680576,000002B9,false,Rx,0,8,0A,00,00,00,00,00,00,00,
680597,00000414,false,Rx,0,8,F0,10,00,00,28,00,00,00,
680615,000002E1,false,Rx,0,8,9B,32,42,00,00,00,00,40,
680633,00000416,false,Rx,0,8,55,00,00,00,00,00,00,00,
681569,000002E2,false,Rx,0,8,FD,00,00,00,00,14,00,04,
681589,00000417,false,Rx,0,8,5F,20,00,00,00,00,00,00,
681606,000002E3,false,Rx,0,8,00,00,00,00,00,00,72,01,
681624,00000418,false,Rx,0,8,19,70,00,00,12,0C,00,00,
682569,000002E4,false,Rx,0,8,02,00,00,00,00,00,00,00,
682590,00000419,false,Rx,0,8,BE,70,74,D6,75,86,90,00,
682608,00000487,false,Rx,0,8,00,00,00,00,00,00,00,00,
682625,0000048F,false,Rx,0,8,AD,10,41,00,05,00,00,00,
683569,00000642,false,Rx,0,8,FF,FF,FF,FF,FF,FF,00,00,
683590,00000645,false,Rx,0,8,C7,35,06,79,E0,32,56,00,
690565,00000401,false,Rx,0,8,A9,30,10,00,00,04,00,00,
691582,0000019B,false,Rx,0,8,CB,AD,8F,00,00,E4,00,00,
691607,0000019C,false,Rx,0,8,40,20,00,00,00,00,0B,09,
691625,0000019D,false,Rx,0,8,00,10,00,01,00,00,00,00,
692578,0000019E,false,Rx,0,8,15,00,00,00,00,32,00,00,
692608,000001AB,false,Rx,0,8,85,4F,95,50,70,38,00,00,
693577,000002D6,false,Rx,0,8,8B,F5,20,00,00,00,00,00,
693602,000001AC,false,Rx,0,8,00,28,00,00,00,00,00,00,
693621,000002D7,false,Rx,0,8,00,00,00,00,03,00,00,00,
693639,000002EB,false,Rx,0,8,36,32,20,08,08,01,00,02,
694575,000002D8,false,Rx,0,8,00,00,00,00,00,00,38,45,
694600,000002EC,false,Rx,0,8,02,00,00,00,00,00,00,00,
694618,000002D9,false,Rx,0,8,00,00,00,00,00,00,00,00,
694636,000002ED,false,Rx,0,8,00,00,00,00,00,00,00,00,
695569,00000472,false,Rx,0,8,5C,EC,00,40,08,41,00,45,
695590,000002EE,false,Rx,0,8,00,00,00,00,00,00,00,00,
695608,00000473,false,Rx,0,8,5F,24,00,25,00,00,00,78,
695625,000002FF,false,Rx,0,8,E2,01,00,F1,3F,00,00,00,
696569,00000474,false,Rx,0,8,93,44,00,00,00,00,00,14,
696590,00000316,false,Rx,0,8,58,81,0F,04,13,80,0A,00,
696608,00000317,false,Rx,0,8,00,00,05,00,00,00,00,00,
696626,00000356,false,Rx,0,8,01,E5,21,00,00,00,00,00,
697568,00000357,false,Rx,0,8,00,00,00,00,00,4B,4D,48,
697590,00000358,false,Rx,0,8,35,41,45,4D,52,37,33,4F,
697608,00000359,false,Rx,0,8,51,4F,34,52,4A,35,33,00,
700569,00000121,false,Rx,0,8,56,D2,92,00,00,00,00,05,
700590,00000122,false,Rx,0,8,FF,D9,67,1F,46,46,46,46,
701568,00000123,false,Rx,0,8,11,03,00,00,00,00,01,35,
701590,00000124,false,Rx,0,8,00,00,0A,00,00,00,20,40,
704566,00000036,false,Rx,0,8,1D,B7,94,51,00,00,25,01,
705569,00000037,false,Rx,0,8,3B,00,00,10,00,40,00,00,
705590,00000038,false,Rx,0,8,04,00,00,00,50,38,96,D4,
705607,00000039,false,Rx,0,8,00,00,00,00,00,00,00,00,
705625,00000091,false,Rx,0,8,B1,81,40,09,00,00,00,00,
706569,00000092,false,Rx,0,8,2E,00,00,00,E0,02,00,00,
706590,00000093,false,Rx,0,8,00,00,00,00,00,00,00,00,
706608,00000094,false,Rx,0,8,00,00,00,00,00,00,00,00,
707573,00000061,false,Rx,0,8,37,A7,9A,00,00,00,00,00,
707594,00000062,false,Rx,0,8,02,02,00,02,40,FF,00,FF,
707611,00000063,false,Rx,0,8,00,00,05,00,00,08,FD,00,
708575,00000064,false,Rx,0,8,00,00,00,04,FF,FA,00,00,
708597,000003B6,false,Rx,0,8,30,14,1F,00,00,00,00,46,
708614,000000A1,false,Rx,0,8,04,C2,9A,1A,00,00,00,00,
708632,000003B7,false,Rx,0,8,46,00,00,00,00,00,00,00,
709575,000000A2,false,Rx,0,8,00,00,00,00,00,00,00,00,
709597,000003B8,false,Rx,0,8,0C,03,00,00,00,00,69,0E,
709614,000000A3,false,Rx,0,8,00,40,01,00,00,00,00,00,
709631,000003B9,false,Rx,0,8,00,00,00,00,00,00,00,00,
712566,000001F1,false,Rx,0,8,42,33,52,01,00,00,28,00,
712586,000001F2,false,Rx,0,8,00,00,00,00,00,00,00,00,
713716,00000561,false,Rx,0,8,63,02,00,00,00,00,FF,FF,
715597,000004A3,false,Rx,0,8,80,00,48,0B,3E,00,00,00,
715631,000004A4,false,Rx,0,8,FF,FF,FF,00,00,00,00,00,
715650,00000146,false,Rx,0,8,34,F7,40,10,04,05,00,00,
716578,00000147,false,Rx,0,8,01,04,7D,00,40,98,08,00,
716600,00000148,false,Rx,0,8,00,00,42,00,1E,92,40,05,
716624,00000149,false,Rx,0,8,00,38,00,D4,00,00,00,00,
716641,00000161,false,Rx,0,8,4B,B3,43,03,00,00,00,02,
717565,00000162,false,Rx,0,8,FF,FC,01,00,00,00,00,00,
720565,000001B1,false,Rx,0,8,BF,C3,40,00,72,00,00,00,
721573,00000419,false,Rx,0,8,BE,70,74,D6,75,86,90,00,
721592,000001B2,false,Rx,0,8,23,00,04,EF,25,07,52,10,
721610,000001B3,false,Rx,0,8,25,38,4B,00,83,91,90,8E,
721628,000001B4,false,Rx,0,8,82,8D,10,00,00,41,01,00,
722569,00000495,false,Rx,0,8,49,00,00,00,00,00,00,00,
722590,000003AA,false,Rx,0,8,FF,00,B0,00,54,00,00,00,
723576,0000010B,false,Rx,0,8,59,14,96,00,00,00,00,05,
724566,0000010C,false,Rx,0,8,FF,F9,E7,1F,46,44,46,46,
724592,0000010D,false,Rx,0,8,10,03,00,00,00,00,01,35,
724609,0000010E,false,Rx,0,8,00,00,1E,00,00,C0,AB,57,
725570,0000011B,false,Rx,0,8,72,7D,87,05,80,08,A8,02,
725590,000004E8,false,Rx,0,8,FF,FF,FF,05,FF,FF,FF,00,
725608,0000011C,false,Rx,0,8,00,05,20,00,22,00,01,01,
726569,0000012B,false,Rx,0,8,35,87,87,06,00,00,08,00,
726590,0000012C,false,Rx,0,8,00,00,01,00,00,64,00,00,
732566,000003B0,false,Rx,0,8,72,37,FF,C7,00,00,03,C0,
733568,000003B1,false,Rx,0,8,9B,3C,FF,40,00,00,20,00,
735567,00000448,false,Rx,0,8,00,C0,00,00,00,00,00,00,
738566,00000384,false,Rx,0,8,C5,8D,05,01,00,FF,00,14,
739567,0000042A,false,Rx,0,8,9F,1D,02,02,00,10,00,00,
741569,0000019B,false,Rx,0,8,B6,68,94,00,00,E4,00,00,
741591,0000019C,false,Rx,0,8,40,20,00,00,00,00,0B,09,
741608,0000019D,false,Rx,0,8,00,10,00,01,00,00,00,00,
742567,0000019E,false,Rx,0,8,15,00,00,00,00,32,00,00,
742587,000003B2,false,Rx,0,8,36,15,FF,02,29,2F,34,00,
745574,000001A1,false,Rx,0,8,AD,0C,44,FE,F7,7F,64,00,
746567,000001A2,false,Rx,0,8,00,00,00,00,00,08,00,00,
746587,000001A3,false,Rx,0,8,FF,F3,3F,00,00,00,00,00,
746605,000001A4,false,Rx,0,8,FE,07,00,00,00,00,00,00,
748570,00000427,false,Rx,0,8,1D,86,FF,00,80,0A,00,00,
748592,0000036F,false,Rx,0,8,FE,01,01,00,00,00,00,00,
749567,0000037F,false,Rx,0,8,55,90,52,24,41,02,00,00,
750568,00000121,false,Rx,0,8,29,FE,97,00,00,00,00,05,
750590,00000122,false,Rx,0,8,FF,D9,67,1F,46,46,46,46,
751567,00000123,false,Rx,0,8,11,03,00,00,00,00,01,35,
751587,00000124,false,Rx,0,8,00,00,0A,00,00,00,20,40,
754565,00000036,false,Rx,0,8,10,71,99,51,00,00,25,01,
754593,00000037,false,Rx,0,8,3B,00,00,10,00,40,00,00,
755567,00000038,false,Rx,0,8,04,00,00,00,50,38,96,D4,
755587,00000039,false,Rx,0,8,00,00,00,00,00,00,00,00,
756569,000001E1,false,Rx,0,8,4F,01,82,02,00,00,00,00,
756590,000001E2,false,Rx,0,8,00,00,00,00,00,00,00,00,
758514,00000061,false,Rx,0,8,48,8B,9F,00,00,00,00,00,
758940,00000062,false,Rx,0,8,02,02,00,02,40,FF,00,FF,
758968,00000063,false,Rx,0,8,00,00,05,00,00,08,FD,00,
760223,00000064,false,Rx,0,8,00,00,00,04,FF,FA,00,00,
760264,000000A1,false,Rx,0,8,0B,29,9F,1A,00,00,00,00,
760282,000000A2,false,Rx,0,8,00,00,00,00,00,00,00,00,
765607,000004E8,false,Rx,0,8,FF,FF,FF,05,FF,FF,FF,00,
773588,0000010B,false,Rx,0,8,54,D2,9B,00,00,00,00,05,
774603,0000010C,false,Rx,0,8,FF,F9,E7,1F,46,44,46,46,
774634,0000010D,false,Rx,0,8,10,03,00,00,00,00,01,35,
774652,0000010E,false,Rx,0,8,00,00,1E,00,00,C0,AB,57,
775752,0000011B,false,Rx,0,8,BA,84,8C,05,80,08,A8,02,
775788,0000011C,false,Rx,0,8,00,05,20,00,22,00,01,01,
775807,0000012B,false,Rx,0,8,FD,7E,8C,06,00,00,08,00,
775824,000002C1,false,Rx,0,8,A4,DB,22,21,00,41,00,AB,
777378,0000012C,false,Rx,0,8,00,00,01,00,00,64,00,00,
777413,000001FB,false,Rx,0,8,D9,59,41,00,00,00,00,00,
777447,000002C2,false,Rx,0,8,2E,00,00,00,00,00,00,00,
777821,000001FC,false,Rx,0,8,00,00,00,00,00,00,00,00,
777861,000002C3,false,Rx,0,8,00,00,00,00,00,00,00,00,
777883,000002C4,false,Rx,0,8,00,00,00,00,00,00,00,00,
777901,000001FE,false,Rx,0,8,00,00,00,00,00,00,00,00,
784595,00000419,false,Rx,0,8,C5,80,74,D6,79,86,90,00,
785598,000000C5,false,Rx,0,8,00,00,00,00,00,00,00,00,
785645,00000244,false,Rx,0,8,FF,FF,FF,FF,FF,FF,FF,FF,
785663,000003E4,false,Rx,0,8,FE,00,00,00,00,00,00,00,
785997,000004B4,false,Rx,0,8,00,00,00,00,00,00,00,00,
786028,000004B5,false,Rx,0,8,08,00,F0,07,00,00,00,00,
786583,000004B7,false,Rx,0,8,08,00,F0,07,00,00,00,00,
786615,000004CA,false,Rx,0,8,00,00,00,00,00,00,00,00,
787623,000004CC,false,Rx,0,8,08,00,00,06,00,00,03,00,
787657,000004CE,false,Rx,0,8,14,01,FF,FF,FF,FF,FF,FF,
787676,000004D7,false,Rx,0,8,23,01,00,00,00,00,00,00,
787694,000004D8,false,Rx,0,8,41,10,F0,F0,40,F2,1E,CC,
789127,000004DD,false,Rx,0,8,00,00,FE,00,04,00,00,00,
789162,000004DF,false,Rx,0,8,FF,03,0C,3F,00,00,00,00,
789180,000004E7,false,Rx,0,8,00,30,00,00,00,00,69,00,
789198,000004E9,false,Rx,0,8,12,00,00,34,00,00,50,00,
789216,000004EA,false,Rx,0,8,67,00,00,89,00,00,00,00,
789666,000004EC,false,Rx,0,8,00,00,00,00,00,00,00,00,
789693,000004ED,false,Rx,0,8,00,00,00,00,00,FF,FF,1F,
790576,000004EE,false,Rx,0,8,FF,FF,00,00,00,00,00,00,
790602,000004EF,false,Rx,0,8,60,00,60,00,29,14,00,00,
790620,0000063D,false,Rx,0,8,00,80,00,00,00,00,00,00,
791569,0000063E,false,Rx,0,8,FF,FF,FF,FF,FF,FF,FF,FF,
791591,0000063F,false,Rx,0,8,00,10,00,C4,FF,00,00,00,
791608,0000019B,false,Rx,0,8,BB,AE,99,00,00,E4,00,00,
791626,00000640,false,Rx,0,8,FF,FF,FF,00,FF,FF,FF,00,
792883,0000019C,false,Rx,0,8,40,20,00,00,00,00,0B,09,
794275,00000641,false,Rx,0,8,FF,FF,FF,FF,0F,FF,FF,FF,
794356,0000019D,false,Rx,0,8,00,10,00,01,00,00,00,00,
794375,00000646,false,Rx,0,8,00,00,00,80,01,00,00,00,
794393,0000019E,false,Rx,0,8,15,00,00,00,00,32,00,00,
794411,000001AB,false,Rx,0,8,9F,36,9A,50,70,38,00,00,
794428,00000226,false,Rx,0,8,06,7F,1F,FF,30,E1,05,42,
796925,0000033B,false,Rx,0,8,FF,35,43,00,00,00,00,00,
796960,0000033C,false,Rx,0,8,00,00,00,00,F0,00,00,00,
796979,0000033D,false,Rx,0,8,00,00,00,00,00,00,00,00,
796996,0000033E,false,Rx,0,8,00,00,00,00,00,00,00,00,
800579,00000121,false,Rx,0,8,91,FF,9C,00,00,00,00,05,
800605,00000122,false,Rx,0,8,FF,D9,67,1F,46,46,46,46,
801566,00000123,false,Rx,0,8,11,03,00,00,00,00,01,35,
801588,00000124,false,Rx,0,8,00,00,0A,00,00,00,20,40,
802621,00000382,false,Rx,0,8,C5,F7,11,00,00,05,05,00,
804576,00000036,false,Rx,0,8,E3,EF,9E,51,00,00,25,01,
805837,00000037,false,Rx,0,8,3B,00,00,10,00,40,00,00,
805897,00000038,false,Rx,0,8,04,00,00,00,50,38,96,D4,
805916,00000039,false,Rx,0,8,00,00,00,00,00,00,00,00,
805934,000004E8,false,Rx,0,8,FF,FF,FF,05,FF,FF,FF,00,
805951,00000091,false,Rx,0,8,F7,D8,41,09,00,00,00,00,
805969,00000092,false,Rx,0,8,2E,00,00,00,E0,02,00,00,
808136,00000093,false,Rx,0,8,00,00,00,00,00,00,00,00,
809783,00000094,false,Rx,0,8,00,00,00,00,00,00,00,00,
809839,00000256,false,Rx,0,8,A7,30,40,15,40,00,00,01,
809856,000002E6,false,Rx,0,8,F1,80,40,01,00,00,00,15,
809874,00000061,false,Rx,0,8,9E,D7,A4,00,00,00,00,00,
809892,00000257,false,Rx,0,8,00,94,42,1B,86,07,00,94,
809909,000002E9,false,Rx,0,8,00,00,00,00,00,00,00,00,
810572,000000A3,false,Rx,0,8,00,40,01,00,00,00,00,00,
810591,00000563,false,Rx,0,8,65,02,00,00,00,00,FF,FF,
815622,00000146,false,Rx,0,8,BD,1D,45,10,04,05,00,00,
816623,00000147,false,Rx,0,8,01,04,7D,00,40,97,08,00,
816656,00000148,false,Rx,0,8,00,00,42,00,1E,92,40,05,
816674,00000149,false,Rx,0,8,00,38,00,D4,00,00,00,00,
816691,00000161,false,Rx,0,8,83,4A,48,03,00,00,00,02,
818160,00000162,false,Rx,0,8,FF,FC,01,00,00,00,00,00,
818214,000001E6,false,Rx,0,8,AF,4D,82,02,00,00,00,00,
818232,000001E7,false,Rx,0,8,00,00,22,03,20,01,00,00,
818280,000001BB,false,Rx,0,8,30,DB,82,02,00,00,00,0A,
819198,000001BC,false,Rx,0,8,32,00,00,00,02,00,00,00,
819232,000001BD,false,Rx,0,8,00,00,00,00,00,00,00,00,
820620,000002BF,false,Rx,0,8,FF,FF,FF,00,00,00,00,00,
820657,0000047F,false,Rx,0,8,FF,FC,FF,FF,FF,3F,F3,FF,
820995,000001B1,false,Rx,0,8,C0,EF,45,00,72,00,00,00,
821018,00000653,false,Rx,0,8,0A,19,03,01,02,2A,00,00,
822634,000001B2,false,Rx,0,8,23,00,04,EF,25,07,52,10,
822669,000003A1,false,Rx,0,8,E4,21,32,00,FF,FF,FF,FF,
822687,000001B3,false,Rx,0,8,25,38,4B,00,83,91,90,8E,
822705,000003A2,false,Rx,0,8,00,00,00,00,00,00,00,00,
822723,000001B4,false,Rx,0,8,82,8D,10,00,00,41,01,00,
824012,0000010B,false,Rx,0,8,74,5B,A0,00,00,00,00,05,
824050,0000010C,false,Rx,0,8,FF,F9,E7,1F,46,45,46,46,
824068,00000419,false,Rx,0,8,C5,80,74,D6,79,86,90,00,
825077,0000010D,false,Rx,0,8,10,03,00,00,00,00,01,35,
825111,0000010E,false,Rx,0,8,00,00,1E,00,00,C0,AB,57,
825129,0000011B,false,Rx,0,8,C3,9E,91,05,80,08,A8,02,
825626,0000011C,false,Rx,0,8,00,05,20,00,22,00,01,01,
825653,0000012B,false,Rx,0,8,84,64,91,06,00,00,08,00,
826620,0000012C,false,Rx,0,8,00,00,01,00,00,64,00,00,
828644,00000475,false,Rx,0,8,12,00,00,00,00,00,00,00,
828800,00000496,false,Rx,0,8,12,00,00,00,00,00,00,00,
832702,00000111,false,Rx,0,8,50,01,16,01,00,00,00,00,
832738,00000112,false,Rx,0,8,00,00,00,00,00,00,00,00,
832757,00000113,false,Rx,0,8,00,00,00,00,00,00,00,00,
832774,00000114,false,Rx,0,8,00,00,00,00,00,00,00,00,
836599,000000FF,false,Rx,0,8,CB,10,00,00,00,00,02,00,
836637,00000394,false,Rx,0,8,2A,22,1A,49,00,00,00,00,
837597,000003C3,false,Rx,0,8,45,10,31,30,36,00,00,00,
837630,000003E0,false,Rx,0,8,66,20,01,00,54,03,00,00,
839034,000003E5,false,Rx,0,8,37,80,01,00,00,00,00,00,
839098,000003E6,false,Rx,0,8,67,90,00,00,00,00,00,00,
839116,0000041A,false,Rx,0,8,8D,D0,12,00,00,00,00,00,
839134,0000041B,false,Rx,0,8,70,D0,00,00,00,00,00,00,
839152,0000041C,false,Rx,0,8,48,00,E0,00,00,00,00,00,
839169,00000422,false,Rx,0,8,9D,70,01,00,00,00,04,00,
840047,00000432,false,Rx,0,8,03,20,02,00,00,00,00,00,
841458,0000019B,false,Rx,0,8,48,30,9E,00,00,E4,00,00,
841888,00000435,false,Rx,0,8,26,C0,00,40,00,00,00,00,
843146,0000019C,false,Rx,0,8,40,20,00,00,00,00,0B,09,
844339,00000442,false,Rx,0,8,CE,20,11,81,00,00,00,00,
844412,0000019D,false,Rx,0,8,00,10,00,01,00,00,00,00,
844430,00000444,false,Rx,0,8,D5,20,20,50,55,50,00,00,
844448,0000019E,false,Rx,0,8,15,00,00,00,00,32,00,00,
844465,00000445,false,Rx,0,8,C6,C0,00,00,00,00,00,18,
845565,0000030B,false,Rx,0,8,2F,7E,43,00,04,00,00,00,
845587,0000030C,false,Rx,0,8,00,00,0E,00,2C,00,A0,0F,
845605,000001A1,false,Rx,0,8,A0,CA,49,FE,F7,7F,64,00,
846561,0000030D,false,Rx,0,8,00,00,00,00,48,00,00,00,
846590,000001A2,false,Rx,0,8,00,00,00,00,00,08,00,00,
846608,0000030E,false,Rx,0,8,00,00,38,05,21,00,00,04,
846625,000001A3,false,Rx,0,8,FF,F3,3F,00,00,00,00,00,
847564,000001A4,false,Rx,0,8,FE,07,00,00,00,00,00,00,
848686,0000036F,false,Rx,0,8,47,11,01,00,00,00,00,00,
849581,0000037F,false,Rx,0,8,83,A0,52,24,41,02,00,00,
851365,00000121,false,Rx,0,8,F2,64,A1,00,00,00,00,05,
851398,00000122,false,Rx,0,8,FF,D9,67,1F,46,46,46,46,
851416,00000123,false,Rx,0,8,11,03,00,00,00,00,01,35,
851433,00000124,false,Rx,0,8,00,00,0A,00,00,00,20,40,
854717,00000036,false,Rx,0,8,80,74,A3,51,00,00,25,01,
854755,00000037,false,Rx,0,8,3B,00,00,10,00,40,00,00,
855833,00000038,false,Rx,0,8,04,00,00,00,50,38,96,D4,
855869,00000039,false,Rx,0,8,00,00,00,00,00,00,00,00,
857462,00000061,false,Rx,0,8,93,11,A9,00,00,00,00,00,
857508,00000062,false,Rx,0,8,02,02,00,02,40,FF,00,FF,
857526,00000063,false,Rx,0,8,00,00,05,00,00,08,FD,00,
858667,00000064,false,Rx,0,8,00,00,00,04,FF,FA,00,00,
859072,000000A1,false,Rx,0,8,F4,5B,A9,1A,00,00,00,00,
859090,000000A2,false,Rx,0,8,00,00,00,00,00,00,00,00,
859108,000000A3,false,Rx,0,8,00,40,01,00,00,00,00,00,
862589,000001F1,false,Rx,0,8,DD,5B,55,01,00,00,28,00,
862628,000001F2,false,Rx,0,8,00,00,00,00,00,00,00,00,
864781,00000419,false,Rx,0,8,C5,80,74,D6,79,86,90,00,
865581,00000151,false,Rx,0,8,FF,F4,43,A0,C8,00,28,19,
865609,000001F6,false,Rx,0,8,CC,D7,43,00,00,00,00,0E,
865626,00000152,false,Rx,0,8,16,18,18,00,0B,00,00,00,
866794,000001F7,false,Rx,0,8,0B,00,00,00,00,00,00,00,
866829,00000153,false,Rx,0,8,00,00,00,00,00,00,00,00,
866848,000001F8,false,Rx,0,8,00,00,00,00,00,00,00,00,
866865,00000154,false,Rx,0,8,00,00,00,00,00,00,00,00,
866883,000001F9,false,Rx,0,8,00,00,A0,C8,14,00,00,00,
867278,000002FB,false,Rx,0,8,7B,5E,43,04,5F,1A,CC,CC,
867304,00000236,false,Rx,0,8,66,57,43,00,6E,3C,34,6C,
868249,000002FC,false,Rx,0,8,10,00,16,19,00,00,8E,BF,
868281,00000237,false,Rx,0,8,00,15,BA,00,00,A7,1E,00,
868299,000002FD,false,Rx,0,8,00,00,00,00,00,1C,0E,EA,
868316,00000238,false,Rx,0,8,00,00,5F,00,00,00,00,00,
868750,000002FE,false,Rx,0,8,00,00,72,01,00,28,00,00,
868776,00000239,false,Rx,0,8,00,00,00,00,01,00,00,00,
870081,00000326,false,Rx,0,8,36,89,43,00,00,00,00,00,
870133,0000025B,false,Rx,0,8,B6,81,43,40,40,20,00,00,
870150,00000327,false,Rx,0,8,00,00,00,00,05,00,00,00,
870168,0000025C,false,Rx,0,8,00,00,0B,00,34,89,19,00,
870186,00000328,false,Rx,0,8,00,00,00,00,00,00,00,00,
870204,0000025D,false,Rx,0,8,00,C8,00,00,00,80,C0,70,
871647,00000329,false,Rx,0,8,A0,00,00,00,00,00,00,00,
871683,0000025E,false,Rx,0,8,35,07,0E,05,00,00,00,00,
871701,00000331,false,Rx,0,8,25,C6,43,F1,C8,A0,2C,97,
871719,00000380,false,Rx,0,8,73,DE,00,0C,0C,0C,0C,01,
871737,00000332,false,Rx,0,8,94,02,00,00,00,00,00,00,
872568,00000333,false,Rx,0,8,00,00,00,1C,0C,40,20,A0,
872591,00000405,false,Rx,0,8,BD,30,00,00,00,01,00,00,
872609,00000334,false,Rx,0,8,C8,00,00,00,AC,70,1D,90,
872627,00000410,false,Rx,0,8,4B,80,59,3C,16,6B,FF,FF,
873601,00000413,false,Rx,0,8,6F,30,00,00,00,00,00,00,
873627,00000411,false,Rx,0,8,A8,01,50,50,00,00,44,04,
873645,00000414,false,Rx,0,8,F0,10,00,00,28,00,00,00,
873663,00000412,false,Rx,0,8,6D,60,00,00,00,00,00,00,
874806,0000010B,false,Rx,0,8,0B,77,A5,00,00,00,00,05,
875248,00000416,false,Rx,0,8,55,00,00,00,00,00,00,00,
875274,0000010C,false,Rx,0,8,FF,F9,E7,1F,46,45,46,46,
875292,00000417,false,Rx,0,8,5F,20,00,00,00,00,00,00,
875310,0000010D,false,Rx,0,8,10,03,00,00,00,00,01,35,
875328,00000418,false,Rx,0,8,19,70,00,00,12,0C,00,00,
876440,0000012B,false,Rx,0,8,1B,0C,96,06,00,00,08,00,
876474,0000011B,false,Rx,0,8,5C,F6,96,05,80,08,A8,02,
876871,0000012C,false,Rx,0,8,00,00,01,00,00,64,00,00,
878182,0000011C,false,Rx,0,8,00,05,20,00,22,00,01,01,
878202,00000251,false,Rx,0,8,11,90,43,00,00,00,00,00,
878220,000002AB,false,Rx,0,8,0D,D0,44,0C,0C,00,00,00,
878238,00000252,false,Rx,0,8,00,00,1B,1B,03,00,00,00,
878255,000002AC,false,Rx,0,8,00,FF,FF,00,00,40,00,50,
879286,00000396,false,Rx,0,8,D7,9A,21,0F,08,02,00,02,
879339,000002B6,false,Rx,0,8,77,E7,44,01,00,00,00,40,
879356,00000397,false,Rx,0,8,0C,00,00,00,00,00,00,00,
879374,000002B7,false,Rx,0,8,EA,01,F0,78,00,04,00,00,
879391,00000398,false,Rx,0,8,00,00,00,00,00,00,00,00,
879696,000002B8,false,Rx,0,8,AA,11,11,00,00,00,00,00,
881250,00000642,false,Rx,0,8,FF,FF,FF,FF,FF,FF,00,00,
881285,000002B9,false,Rx,0,8,0A,00,00,00,00,00,00,00,
881303,000002E1,false,Rx,0,8,2E,F5,44,00,00,00,00,40,
881320,000002E2,false,Rx,0,8,FD,00,00,00,00,14,00,04,
881338,000002E3,false,Rx,0,8,00,00,00,00,00,00,72,01,
885983,00000643,false,Rx,0,8,00,FC,FF,FF,FF,FF,03,00,
889592,00000419,false,Rx,0,8,32,90,74,D6,7D,86,90,00,
891704,00000401,false,Rx,0,8,A9,30,10,00,00,04,00,00,
891743,0000019B,false,Rx,0,8,2B,AB,A3,00,00,E4,00,00,
891762,0000019C,false,Rx,0,8,40,20,00,00,00,00,0B,09,
891780,0000019D,false,Rx,0,8,00,10,00,01,00,00,00,00,
891813,0000019E,false,Rx,0,8,15,00,00,00,00,32,00,00,
892699,000001AB,false,Rx,0,8,69,1E,9F,50,70,38,00,00,
892730,000002D6,false,Rx,0,8,CD,AC,21,00,00,00,00,00,
894097,000001AC,false,Rx,0,8,00,28,00,00,00,00,00,00,
894149,000002D7,false,Rx,0,8,00,00,00,00,03,00,00,00,
894168,000002EB,false,Rx,0,8,59,E5,21,09,08,01,00,02,
895944,000002D8,false,Rx,0,8,00,00,00,00,00,00,38,45,
896009,000002EC,false,Rx,0,8,02,00,00,00,00,00,00,00,
896027,000002D9,false,Rx,0,8,00,00,00,00,00,00,00,00,
896045,000002ED,false,Rx,0,8,00,00,00,00,00,00,00,00,
896080,00000472,false,Rx,0,8,5C,EC,00,40,08,41,00,45,
896098,000002EE,false,Rx,0,8,00,00,00,00,00,00,00,00,
896115,00000317,false,Rx,0,8,00,00,05,00,00,00,00,00,
896734,00000356,false,Rx,0,8,CB,0E,22,00,00,00,00,00,
898498,00000357,false,Rx,0,8,00,00,00,00,00,4B,4D,48,
898535,00000358,false,Rx,0,8,35,41,45,4D,52,37,33,4F,
898780,00000359,false,Rx,0,8,51,4F,34,52,4A,35,33,00,
900451,00000121,false,Rx,0,8,01,FA,A6,00,00,00,00,05,
900494,00000122,false,Rx,0,8,FF,D9,67,1F,46,46,46,46,
902970,00000123,false,Rx,0,8,11,03,00,00,00,00,01,35,
903052,00000124,false,Rx,0,8,00,00,0A,00,00,00,20,40,
904594,00000036,false,Rx,0,8,38,75,A8,51,00,00,25,01,
904629,00000037,false,Rx,0,8,3B,00,00,10,00,40,00,00,
905928,00000038,false,Rx,0,8,04,00,00,00,50,38,96,D4,
905963,00000039,false,Rx,0,8,00,00,00,00,00,00,00,00,
905981,00000565,false,Rx,0,8,66,02,00,00,00,00,FF,FF,
906408,00000091,false,Rx,0,8,86,66,42,09,00,00,00,00,
906429,00000092,false,Rx,0,8,2B,00,00,00,B0,02,00,00,
906447,000001E1,false,Rx,0,8,D0,69,85,02,00,00,00,00,
906464,00000093,false,Rx,0,8,00,00,00,00,00,00,00,00,
906701,000001E2,false,Rx,0,8,00,00,00,00,00,00,00,00,
908334,00000094,false,Rx,0,8,00,00,00,00,00,00,00,00,
908369,00000061,false,Rx,0,8,60,8F,AE,00,00,00,00,00,
908387,00000062,false,Rx,0,8,02,02,00,02,40,FF,00,FF,
909755,00000063,false,Rx,0,8,00,00,05,00,00,08,FD,00,
909783,000003B6,false,Rx,0,8,DF,3D,20,00,00,00,00,46,
909801,000003B7,false,Rx,0,8,46,00,00,00,00,00,00,00,
909818,000000A1,false,Rx,0,8,FD,DE,AE,1A,00,00,00,00,
909836,000003B8,false,Rx,0,8,0C,03,00,00,00,00,69,0E,
915595,000004A3,false,Rx,0,8,80,00,48,0B,3E,00,00,00,
915635,000004A4,false,Rx,0,8,FF,FF,FF,00,00,00,00,00,
915653,00000146,false,Rx,0,8,CA,AF,4A,10,04,05,00,00,
916611,00000147,false,Rx,0,8,01,04,7D,00,40,98,08,00,
916645,00000148,false,Rx,0,8,00,00,42,00,1E,92,40,05,
916663,00000149,false,Rx,0,8,00,38,00,D4,00,00,00,00,
916684,00000161,false,Rx,0,8,75,62,4D,03,00,00,00,02,
918391,00000162,false,Rx,0,8,FF,FC,01,00,00,00,00,00,
920607,000001B1,false,Rx,0,8,41,9B,4A,00,72,00,00,00,
921597,000001B2,false,Rx,0,8,23,00,04,EF,25,07,52,10,
921630,000001B3,false,Rx,0,8,25,38,4B,00,83,91,90,8E,
921649,000001B4,false,Rx,0,8,82,8D,10,00,00,41,01,00,
922735,00000495,false,Rx,0,8,49,00,00,00,00,00,00,00,
924037,000003AA,false,Rx,0,8,FF,00,B0,00,54,00,00,00,
924072,0000010B,false,Rx,0,8,7C,D6,AA,00,00,00,00,05,
925323,0000010C,false,Rx,0,8,FF,F9,E7,1F,46,44,46,46,
925360,0000010D,false,Rx,0,8,10,03,00,00,00,00,01,35,
925378,0000010E,false,Rx,0,8,00,00,1E,00,00,C0,AB,57,
925395,0000011B,false,Rx,0,8,2F,CF,9B,05,80,08,A8,02,
925413,0000011C,false,Rx,0,8,00,05,20,00,22,00,01,01,
926315,0000012B,false,Rx,0,8,68,35,9B,06,00,00,08,00,
926349,0000012C,false,Rx,0,8,00,00,01,00,00,64,00,00,
929579,00000419,false,Rx,0,8,32,90,74,D6,7D,86,90,00,
931565,000003B0,false,Rx,0,8,72,37,FF,C7,00,00,03,C0,
933566,000003B1,false,Rx,0,8,9B,3C,FF,40,00,00,20,00,
935566,00000448,false,Rx,0,8,00,C0,00,00,00,00,00,00,
938566,00000384,false,Rx,0,8,C5,8D,05,01,00,FF,00,14,
939561,0000042A,false,Rx,0,8,9F,1D,02,02,00,10,00,00,
941565,0000019B,false,Rx,0,8,93,AA,A8,00,00,E4,00,00,
941586,0000019C,false,Rx,0,8,40,20,00,00,00,00,0B,09,
941604,0000019D,false,Rx,0,8,00,10,00,01,00,00,00,00,
942564,0000019E,false,Rx,0,8,15,00,00,00,00,32,00,00,
942589,000003B2,false,Rx,0,8,36,15,FF,02,29,2F,34,00,
945573,000001A1,false,Rx,0,8,53,54,4E,FE,F7,7F,64,00,
946562,000001A2,false,Rx,0,8,00,00,00,00,00,08,00,00,
946586,000001A3,false,Rx,0,8,FF,F3,3F,00,00,00,00,00,
946604,000001A4,false,Rx,0,8,FE,07,00,00,00,00,00,00,
948566,00000427,false,Rx,0,8,1D,86,FF,00,80,0A,00,00,
948586,0000036F,false,Rx,0,8,91,21,01,00,00,00,00,00,
949564,0000037F,false,Rx,0,8,3A,B0,52,24,41,02,00,00,
950568,00000121,false,Rx,0,8,0C,3C,AB,00,00,00,00,05,
950588,00000122,false,Rx,0,8,FF,D9,67,1F,46,46,46,46,
951563,00000123,false,Rx,0,8,11,03,00,00,00,00,01,35,
951586,00000124,false,Rx,0,8,00,00,0A,00,00,00,20,40,
954566,00000036,false,Rx,0,8,47,59,AD,51,00,00,25,01,
954595,00000037,false,Rx,0,8,3B,00,00,10,00,40,00,00,
955563,00000038,false,Rx,0,8,04,00,00,00,50,38,96,D4,
955586,00000039,false,Rx,0,8,00,00,00,00,00,00,00,00,
957566,00000061,false,Rx,0,8,A8,8D,B3,00,00,00,00,00,
957588,00000062,false,Rx,0,8,02,02,00,02,40,FF,00,FF,
957606,00000063,false,Rx,0,8,00,00,05,00,00,08,FD,00,
958564,00000064,false,Rx,0,8,00,00,00,04,FF,FA,00,00,
958589,000000A1,false,Rx,0,8,98,DD,B3,1A,00,00,00,00,
958607,000000A2,false,Rx,0,8,00,00,00,00,00,00,00,00,
958625,000000A3,false,Rx,0,8,00,40,01,00,00,00,00,00,
968574,000001E6,false,Rx,0,8,30,25,85,02,00,00,00,00,
968595,000001E7,false,Rx,0,8,00,00,22,03,20,01,00,00,
970413,000001BB,false,Rx,0,8,39,5E,85,02,00,00,00,0A,
970448,000001BC,false,Rx,0,8,32,00,00,00,02,00,00,00,
970466,00000419,false,Rx,0,8,32,90,74,D6,7D,86,90,00,
970484,000001BD,false,Rx,0,8,00,00,00,00,00,00,00,00,
973584,0000010B,false,Rx,0,8,F5,2F,AF,00,00,00,00,05,
974561,0000010C,false,Rx,0,8,FF,F9,E7,1F,46,45,46,46,
974584,0000010D,false,Rx,0,8,10,03,00,00,00,00,01,35,
974601,0000010E,false,Rx,0,8,00,00,1E,00,00,C0,AB,57,
976370,0000011B,false,Rx,0,8,F9,53,A0,05,80,08,A8,02,
976405,0000011C,false,Rx,0,8,00,05,20,00,22,00,01,01,
976436,0000012B,false,Rx,0,8,BE,A9,A0,06,00,00,08,00,
976454,000002C1,false,Rx,0,8,E2,82,23,21,00,41,00,AB,
976471,0000012C,false,Rx,0,8,00,00,01,00,00,64,00,00,
976489,000002C2,false,Rx,0,8,2E,00,00,00,00,00,00,00,
977937,000001FC,false,Rx,0,8,00,00,00,00,00,00,00,00,
977976,000002C3,false,Rx,0,8,00,00,00,00,00,00,00,00,
977994,000001FD,false,Rx,0,8,00,1A,03,00,00,00,00,00,
978012,000002C4,false,Rx,0,8,00,00,00,00,00,00,00,00,
978029,000001FE,false,Rx,0,8,00,00,00,00,00,00,00,00,
985604,000000C5,false,Rx,0,8,00,00,00,00,00,00,00,00,
985655,00000244,false,Rx,0,8,FF,FF,FF,FF,FF,FF,FF,FF,
985675,000004B4,false,Rx,0,8,00,00,00,00,00,00,00,00,
985692,000004B5,false,Rx,0,8,08,00,F0,07,00,00,00,00,
986668,000004B7,false,Rx,0,8,08,00,F0,07,00,00,00,00,
986714,000004CA,false,Rx,0,8,00,00,00,00,00,00,00,00,
986732,000004CC,false,Rx,0,8,08,00,00,06,00,00,03,00,
986750,000004CE,false,Rx,0,8,14,01,FF,FF,FF,FF,FF,FF,
987887,000004D7,false,Rx,0,8,23,01,00,00,00,00,00,00,
987923,000004D8,false,Rx,0,8,41,10,F0,F0,40,F2,1E,CC,
987941,000004DD,false,Rx,0,8,00,00,FE,00,04,00,00,00,
987958,000004DF,false,Rx,0,8,FF,03,0C,3F,00,00,00,00,
988600,000004E7,false,Rx,0,8,00,30,00,00,00,00,69,00,
988627,000004E8,false,Rx,0,8,FF,FF,FF,05,FF,FF,FF,00,
988645,000004E9,false,Rx,0,8,12,00,00,34,00,00,50,00,
989633,000004EA,false,Rx,0,8,67,00,00,89,00,00,00,00,
989667,000004EB,false,Rx,0,8,10,80,34,0F,80,00,00,00,
989685,000004EC,false,Rx,0,8,00,00,00,00,00,00,00,00,
989702,000004ED,false,Rx,0,8,00,00,00,00,00,FF,FF,1F,
990592,000004EE,false,Rx,0,8,FF,FF,00,00,00,00,00,00,
990620,000004EF,false,Rx,0,8,60,00,60,00,29,14,00,00,
990637,0000063D,false,Rx,0,8,00,80,00,00,00,00,00,00,
991572,0000063E,false,Rx,0,8,FF,FF,FF,FF,FF,FF,FF,FF,
991593,0000063F,false,Rx,0,8,00,10,00,C4,FF,00,00,00,
991610,0000019B,false,Rx,0,8,EC,86,AD,00,00,E4,00,00,
991628,00000640,false,Rx,0,8,FF,FF,FF,00,FF,FF,FF,00,
993061,0000019C,false,Rx,0,8,40,20,00,00,00,00,0B,09,
993239,00000641,false,Rx,0,8,FF,FF,FF,FF,0F,FF,FF,FF,
993259,0000019D,false,Rx,0,8,00,10,00,01,00,00,00,00,
993277,000001AB,false,Rx,0,8,BF,82,A4,50,70,38,00,00,
993295,0000019E,false,Rx,0,8,15,00,00,00,00,32,00,00,
993312,00000226,false,Rx,0,8,26,CB,21,FF,30,E1,05,42,
994388,00000646,false,Rx,0,8,00,00,00,80,01,00,00,00,
994423,00000227,false,Rx,0,8,02,70,E1,08,00,F2,17,04,
996417,0000033B,false,Rx,0,8,4A,F2,45,00,00,00,00,00,
996840,0000033C,false,Rx,0,8,00,00,00,00,F0,00,00,00,
996865,0000033D,false,Rx,0,8,00,00,00,00,00,00,00,00,
996884,0000033E,false,Rx,0,8,00,00,00,00,00,00,00,00,
1001131,00000121,false,Rx,0,8,71,F9,B0,00,00,00,00,05,
1001192,00000122,false,Rx,0,8,FF,D9,67,1F,46,46,46,46,
1001212,00000123,false,Rx,0,8,11,03,00,00,00,00,01,35,
1001230,00000124,false,Rx,0,8,00,00,0A,00,00,00,20,40,
1002600,00000382,false,Rx,0,8,C5,F7,11,00,00,05,05,00,
1004595,00000036,false,Rx,0,8,03,E9,B2,51,00,00,25,01,
1004631,00000037,false,Rx,0,8,3B,00,00,10,00,40,00,00,
1005580,00000038,false,Rx,0,8,04,00,00,00,50,38,96,D4,
1005611,00000566,false,Rx,0,8,16,02,00,00,00,00,FF,FF,
1005628,00000039,false,Rx,0,8,00,00,00,00,00,00,00,00,
1005646,00000091,false,Rx,0,8,7B,6A,43,09,00,00,00,00,
1006569,00000092,false,Rx,0,8,2E,00,00,00,E0,02,00,00,
1006589,00000093,false,Rx,0,8,00,00,00,00,00,00,00,00,
1006606,000002E6,false,Rx,0,8,7D,32,42,01,00,00,00,15,
1007848,00000094,false,Rx,0,8,00,00,00,00,00,00,00,00,
1007887,00000256,false,Rx,0,8,8E,94,42,15,40,00,10,01,
1007906,00000061,false,Rx,0,8,10,8C,B8,00,00,00,00,00,
1007924,00000257,false,Rx,0,8,00,94,42,1B,86,07,00,94,
1007941,00000062,false,Rx,0,8,02,02,00,02,40,FF,00,FF,
1007958,00000258,false,Rx,0,8,0B,6F,1E,00,10,15,00,28,
1009455,00000063,false,Rx,0,8,00,00,05,00,00,08,FD,00,
1009870,00000259,false,Rx,0,8,61,05,8C,3C,4C,02,00,00,
1009901,00000064,false,Rx,0,8,00,00,00,04,FF,FA,00,00,
1009918,000002E7,false,Rx,0,8,0A,00,00,00,00,00,00,00,
1009936,000000A1,false,Rx,0,8,A4,2C,B8,1A,00,00,00,00,
1009953,000000A2,false,Rx,0,8,00,00,00,00,00,00,00,00,
1010583,000000A3,false,Rx,0,8,00,40,01,00,00,00,00,00,
1010607,0000048B,false,Rx,0,8,90,1C,07,1E,01,00,00,00,
1010625,0000048C,false,Rx,0,8,00,00,00,00,00,00,00,00,
1012572,000001F1,false,Rx,0,8,AE,62,58,01,00,00,28,00,
1012594,000001F2,false,Rx,0,8,00,00,00,00,00,00,00,00,
1014238,00000419,false,Rx,0,8,2B,A0,73,D6,7D,86,90,00,
1016591,00000146,false,Rx,0,8,B5,83,4F,10,04,05,00,00,
1016627,00000147,false,Rx,0,8,01,04,7D,00,40,98,08,00,
1016645,00000148,false,Rx,0,8,00,00,42,00,1E,92,40,05,
1016662,00000149,false,Rx,0,8,00,38,00,D4,00,00,00,00,
1017742,00000161,false,Rx,0,8,65,38,52,03,00,00,00,02,
1018155,00000162,false,Rx,0,8,FF,FC,01,00,00,00,00,00,
1020609,000002BF,false,Rx,0,8,FF,FF,FF,00,00,00,00,00,
1020647,0000047F,false,Rx,0,8,FF,FC,FF,FF,FF,3F,F3,FF,
1020665,000001B1,false,Rx,0,8,3E,B7,4F,00,72,00,00,00,
1021630,00000653,false,Rx,0,8,0A,19,03,01,02,2A,00,00,
1021663,000001B2,false,Rx,0,8,23,00,04,EF,25,07,52,10,
1021681,000003A1,false,Rx,0,8,C0,89,33,00,FF,FF,FF,FF,
1021699,000001B3,false,Rx,0,8,25,38,4B,00,83,91,90,8E,
1023012,000003A2,false,Rx,0,8,00,00,00,00,00,00,00,00,
1023049,000001B4,false,Rx,0,8,82,8D,10,00,00,41,01,00,
1023798,0000010B,false,Rx,0,8,7E,3F,B4,00,00,00,00,05,
1023818,0000010C,false,Rx,0,8,FF,F9,E7,1F,46,44,46,46,
1024572,0000010D,false,Rx,0,8,10,03,00,00,00,00,01,35,
1024595,0000010E,false,Rx,0,8,00,00,1E,00,00,C0,AB,57,
1025806,0000011B,false,Rx,0,8,0F,7B,A5,05,80,08,A8,02,
1025840,0000011C,false,Rx,0,8,00,05,20,00,22,00,01,01,
1025857,0000012B,false,Rx,0,8,48,81,A5,06,00,00,08,00,
1025875,0000012C,false,Rx,0,8,00,00,01,00,00,64,00,00,
1028721,00000475,false,Rx,0,8,12,00,00,00,00,00,00,00,
1028757,00000496,false,Rx,0,8,12,00,00,00,00,00,00,00,
1032603,00000111,false,Rx,0,8,16,58,17,01,00,00,00,00,
1032642,00000112,false,Rx,0,8,00,00,00,00,00,00,00,00,
1032661,00000113,false,Rx,0,8,00,00,00,00,00,00,00,00,
1032679,00000114,false,Rx,0,8,00,00,00,00,00,00,00,00,
1036589,000000FF,false,Rx,0,8,CB,10,00,00,00,00,02,00,
1036632,00000394,false,Rx,0,8,2A,22,1A,49,00,00,00,00,
1036650,000003C3,false,Rx,0,8,45,10,31,30,36,00,00,00,
1038227,000003E0,false,Rx,0,8,66,20,01,00,54,03,00,00,
1038650,000003E5,false,Rx,0,8,37,80,01,00,00,00,00,00,
1038676,000003E6,false,Rx,0,8,67,90,00,00,00,00,00,00,
1038694,0000041A,false,Rx,0,8,8D,D0,12,00,00,00,00,00,
1038712,0000041B,false,Rx,0,8,70,D0,00,00,00,00,00,00,
1038729,0000041C,false,Rx,0,8,48,00,E0,00,00,00,00,00,
1039587,00000422,false,Rx,0,8,9D,70,01,00,00,00,04,00,
1039611,00000432,false,Rx,0,8,03,20,02,00,00,00,00,00,
1041079,00000435,false,Rx,0,8,26,C0,00,40,00,00,00,00,
1041129,0000019B,false,Rx,0,8,A8,36,B2,00,00,E4,00,00,
1042656,00000442,false,Rx,0,8,CE,20,11,81,00,00,00,00,
1042694,0000019C,false,Rx,0,8,40,20,00,00,00,00,0B,09,
1042713,00000444,false,Rx,0,8,D5,20,20,50,55,50,00,00,
1042731,0000019D,false,Rx,0,8,00,10,00,01,00,00,00,00,
1042748,00000445,false,Rx,0,8,C6,C0,00,00,00,00,00,18,
1042765,0000019E,false,Rx,0,8,15,00,00,00,00,32,00,00,
1043816,00000464,false,Rx,0,8,D5,20,F0,FF,38,7F,05,00,
1045680,0000030B,false,Rx,0,8,9B,A2,45,00,04,00,00,00,
1045718,0000030C,false,Rx,0,8,00,00,0E,00,2C,00,A0,0F,
1045736,0000030D,false,Rx,0,8,00,00,00,00,48,00,00,00,
1046877,000001A1,false,Rx,0,8,9B,56,53,FE,F7,7F,64,00,
1046912,0000030E,false,Rx,0,8,00,00,38,05,21,00,00,0A,
1046930,000001A2,false,Rx,0,8,00,00,00,00,00,08,00,00,
1047324,000001A3,false,Rx,0,8,FF,F3,3F,00,00,00,00,00,
1047347,000001A4,false,Rx,0,8,FE,07,00,00,00,00,00,00,
1048742,0000036F,false,Rx,0,8,28,31,01,00,00,00,00,00,
1049568,0000037F,false,Rx,0,8,32,C0,52,24,41,02,00,00,
1050608,00000121,false,Rx,0,8,0E,D5,B5,00,00,00,00,05,
1050775,00000122,false,Rx,0,8,FF,D9,67,1F,46,46,46,46,
1050793,00000123,false,Rx,0,8,11,03,00,00,00,00,01,35,
1051890,00000124,false,Rx,0,8,00,00,0A,00,00,00,20,40,
1054590,00000419,false,Rx,0,8,2B,A0,73,D6,7D,86,90,00,
1054633,00000036,false,Rx,0,8,7C,C5,B7,51,00,00,25,01,
1054651,00000037,false,Rx,0,8,3B,00,00,10,00,40,00,00,
1056193,00000038,false,Rx,0,8,04,00,00,00,50,38,96,D4,
1056228,00000039,false,Rx,0,8,00,00,00,00,00,00,00,00,
1056246,000001E1,false,Rx,0,8,A3,50,88,02,00,00,00,00,
1058723,000001E2,false,Rx,0,8,00,00,00,00,00,00,00,00,
1058783,00000061,false,Rx,0,8,6F,A0,BD,00,00,00,00,00,
1058801,00000062,false,Rx,0,8,02,02,00,02,40,FF,00,FF,
1058819,00000063,false,Rx,0,8,00,00,05,00,00,08,FD,00,
1058837,00000064,false,Rx,0,8,00,00,00,04,FF,FA,00,00,
1058854,000000A1,false,Rx,0,8,AB,C7,BD,1A,00,00,00,00,
1065592,00000151,false,Rx,0,8,4A,33,45,A0,C8,00,28,19,
1065631,000001F6,false,Rx,0,8,79,10,45,00,00,00,00,0E,
1065650,00000152,false,Rx,0,8,16,18,18,00,0B,00,00,00,
1066615,000001F7,false,Rx,0,8,0B,00,00,00,00,00,00,00,
1066648,00000153,false,Rx,0,8,00,00,00,00,00,00,00,00,
1066666,000001F8,false,Rx,0,8,00,00,00,00,00,00,00,00,
1066683,00000154,false,Rx,0,8,00,00,00,00,00,00,00,00,
1068064,000001F9,false,Rx,0,8,00,00,A0,C8,14,00,00,00,
1068099,000002FB,false,Rx,0,8,CE,99,45,04,5F,1A,CC,CC,
1068117,00000236,false,Rx,0,8,D3,90,45,00,6E,3C,34,6C,
1068506,000002FC,false,Rx,0,8,10,00,16,19,00,00,8E,BF,
1068532,00000237,false,Rx,0,8,00,15,BA,00,00,A7,1E,00,
1068674,00000238,false,Rx,0,8,00,00,5F,00,00,00,00,00,
1068701,000002FE,false,Rx,0,8,00,00,72,01,00,28,00,00,
1068719,00000239,false,Rx,0,8,00,00,00,00,01,00,00,00,
1070148,00000326,false,Rx,0,8,83,4E,45,00,00,00,00,00,
1070183,0000025B,false,Rx,0,8,03,46,45,40,40,20,00,00,
1070200,00000327,false,Rx,0,8,00,00,00,00,05,00,00,00,
1070218,0000025C,false,Rx,0,8,00,00,0B,00,34,89,19,00,
1070236,00000328,false,Rx,0,8,00,00,00,00,00,00,00,00,
1070254,0000025D,false,Rx,0,8,00,C8,00,00,00,80,C0,70,
1070658,00000329,false,Rx,0,8,A0,00,00,00,00,00,00,00,
1071626,0000025E,false,Rx,0,8,35,07,0E,05,00,00,00,00,
1071650,00000331,false,Rx,0,8,90,01,45,F1,C8,A0,2C,97,
1071668,00000380,false,Rx,0,8,73,DE,00,0C,0C,0C,0C,01,
1072019,00000332,false,Rx,0,8,94,02,00,00,00,00,00,00,
1072072,00000383,false,Rx,0,8,FC,DC,02,10,01,00,00,00,
1072089,00000333,false,Rx,0,8,00,00,00,1C,0C,40,20,A0,
1072107,00000405,false,Rx,0,8,BD,30,00,00,00,01,00,00,
1073139,00000334,false,Rx,0,8,C8,00,00,00,AC,70,1D,90,
1073174,00000410,false,Rx,0,8,4B,80,59,3C,16,6B,FF,FF,
1073193,00000413,false,Rx,0,8,6F,30,00,00,00,00,00,00,
1073211,00000411,false,Rx,0,8,A8,01,50,50,00,00,44,04,
1073645,00000414,false,Rx,0,8,F0,10,00,00,28,00,00,00,
1073671,00000412,false,Rx,0,8,6D,60,00,00,00,00,00,00,
1074818,0000010B,false,Rx,0,8,73,F9,B9,00,00,00,00,05,
1075235,00000416,false,Rx,0,8,55,00,00,00,00,00,00,00,
1075256,0000010C,false,Rx,0,8,FF,F9,E7,1F,46,44,46,46,
1075274,00000417,false,Rx,0,8,5F,20,00,00,00,00,00,00,
1075292,0000010D,false,Rx,0,8,10,03,00,00,00,00,01,35,
1075310,00000418,false,Rx,0,8,19,70,00,00,12,0C,00,00,
1076593,00000251,false,Rx,0,8,1B,22,45,00,00,00,00,00,
1077568,000002AB,false,Rx,0,8,81,62,46,0C,0C,00,00,00,
1077590,00000252,false,Rx,0,8,00,00,1B,1B,03,00,00,00,
1077608,000002AC,false,Rx,0,8,00,FF,FF,00,00,40,00,50,
1077634,00000253,false,Rx,0,8,00,00,00,56,56,00,80,44,
1077652,000002AD,false,Rx,0,8,00,01,00,40,FF,FF,FF,0F,
1078602,00000396,false,Rx,0,8,E5,30,22,0F,08,02,00,02,
1078628,000002AE,false,Rx,0,8,01,00,FF,3F,01,01,00,00,
1078646,00000397,false,Rx,0,8,10,00,00,00,00,00,00,00,
1078664,000002B6,false,Rx,0,8,FB,55,46,01,00,00,00,40,
1079715,00000398,false,Rx,0,8,00,00,00,00,00,00,00,00,
1079750,000002B7,false,Rx,0,8,EA,01,F0,78,00,04,00,00,
1079768,00000419,false,Rx,0,8,8E,B0,73,D6,81,86,90,00,
1081203,000002B8,false,Rx,0,8,AA,11,11,00,00,00,00,00,
1081241,00000485,false,Rx,0,8,00,40,11,02,00,00,00,00,
1081259,000002B9,false,Rx,0,8,0A,00,00,00,00,00,00,00,
1081276,00000487,false,Rx,0,8,00,00,00,00,00,00,00,00,
1081294,000002E1,false,Rx,0,8,A2,47,46,00,00,00,00,40,
1081321,000002E3,false,Rx,0,8,00,00,00,00,00,00,72,01,
1082761,000002E4,false,Rx,0,8,02,00,00,00,00,00,00,00,
1091596,00000401,false,Rx,0,8,A9,30,10,00,00,04,00,00,
1091635,0000019B,false,Rx,0,8,D7,1A,B7,00,00,E4,00,00,
1091653,0000019C,false,Rx,0,8,40,20,00,00,00,00,0B,09,
1091671,0000019D,false,Rx,0,8,00,10,00,01,00,00,00,00,
1092616,0000019E,false,Rx,0,8,15,00,00,00,00,32,00,00,
1092649,000001AB,false,Rx,0,8,CC,BB,A9,50,70,38,00,00,
1092667,000001AC,false,Rx,0,8,00,28,00,00,00,00,00,00,
1094342,000002D6,false,Rx,0,8,07,47,22,00,00,00,00,00,
1094378,000002FF,false,Rx,0,8,E2,01,00,F1,3F,00,00,00,
1094397,000002D7,false,Rx,0,8,00,00,00,00,03,00,00,00,
1094414,000002EB,false,Rx,0,8,3E,3D,22,09,08,01,00,02,
1094807,000002D8,false,Rx,0,8,00,00,00,00,00,00,38,45,
1094837,000002ED,false,Rx,0,8,00,00,00,00,00,00,00,00,
1094861,00000472,false,Rx,0,8,5C,EC,00,40,08,41,00,45,
1095590,000002EE,false,Rx,0,8,00,00,00,00,00,00,00,00,
1095617,00000473,false,Rx,0,8,5F,24,00,25,00,00,00,78,
1095643,00000316,false,Rx,0,8,6C,73,11,04,13,80,0A,00,
1095660,00000474,false,Rx,0,8,93,44,00,00,00,00,00,14,
1097693,00000317,false,Rx,0,8,00,00,05,00,00,00,00,00,
1099670,00000356,false,Rx,0,8,8D,57,23,00,00,00,00,00,
1099701,00000357,false,Rx,0,8,00,00,00,00,00,4B,4D,48,
1100052,00000358,false,Rx,0,8,35,41,45,4D,52,37,33,4F,
1100072,00000359,false,Rx,0,8,51,4F,34,52,4A,35,33,00,
1101389,00000121,false,Rx,0,8,8F,A1,BA,00,00,00,00,05,
1101424,00000122,false,Rx,0,8,FF,D9,67,1F,46,46,46,46,
1101442,00000123,false,Rx,0,8,11,03,00,00,00,00,01,35,
1101460,00000124,false,Rx,0,8,00,00,0A,00,00,00,20,40,
1105191,00000516,false,Rx,0,8,61,02,00,00,00,00,FF,FF,
1105335,00000036,false,Rx,0,8,C4,C4,BC,51,00,00,25,01,
1105354,00000037,false,Rx,0,8,3B,00,00,10,00,40,00,00,
1105372,00000038,false,Rx,0,8,04,00,00,00,50,38,96,D4,
