Time Stamp,ID,Extended,Dir,Bus,LEN,D1,D2,D3,D4,D5,D6,D7,D8
665112,00000475,false,Rx,0,8,12,00,00,00,00,00,00,00,
665147,00000496,false,Rx,0,8,12,00,00,00,00,00,00,00,
665165,000001AB,false,Rx,0,8,36,9D,0E,50,70,38,00,00,
665183,00000226,false,Rx,0,8,5B,CD,03,FF,30,E1,05,42,
665201,000001AC,false,Rx,0,8,00,28,00,00,00,00,00,00,
667591,00000111,false,Rx,0,8,BC,AE,88,01,00,00,00,00,
667623,00000112,false,Rx,0,8,00,00,00,00,00,00,00,00,
667641,00000113,false,Rx,0,8,00,00,00,00,00,00,00,00,
668566,00000114,false,Rx,0,8,00,00,00,00,00,00,00,00,
669561,000004F0,false,Rx,0,8,4A,10,33,2F,58,1A,18,02,
675572,000001A1,false,Rx,0,8,6E,87,BD,FE,F7,7F,64,00,
676563,0000019B,false,Rx,0,8,FF,1E,86,00,00,E4,00,00,
676583,000001A2,false,Rx,0,8,00,00,00,00,00,08,00,00,
676601,0000019C,false,Rx,0,8,40,20,00,00,00,00,0B,09,
676619,000001A3,false,Rx,0,8,FF,F3,3F,00,00,00,00,00,
677565,0000019D,false,Rx,0,8,00,10,00,01,00,00,00,00,
677586,000001A4,false,Rx,0,8,FE,07,00,00,00,00,00,00,
677604,0000019E,false,Rx,0,8,15,00,00,00,00,32,00,00,
678567,0000036F,false,Rx,0,8,91,21,01,00,00,00,00,00,
678587,0000037F,false,Rx,0,8,3A,B0,52,24,41,02,00,00,
680564,0000030B,false,Rx,0,8,A8,E9,27,00,04,00,00,00,
680585,0000030C,false,Rx,0,8,00,00,0E,00,2C,00,A0,0F,
681567,0000030D,false,Rx,0,8,00,00,00,00,48,00,00,00,
681587,000003A1,false,Rx,0,8,24,CA,A4,00,FF,FF,FF,FF,
681605,0000030E,false,Rx,0,8,00,00,38,05,21,00,00,1A,
681622,000003A2,false,Rx,0,8,00,00,00,00,00,00,00,00,
685564,00000121,false,Rx,0,8,2B,17,89,00,00,00,00,05,
685585,00000122,false,Rx,0,8,FF,D9,67,1F,46,46,46,46,
685602,00000123,false,Rx,0,8,11,03,00,00,00,00,01,35,
685620,00000124,false,Rx,0,8,00,00,0A,00,00,00,20,40,
689565,00000036,false,Rx,0,8,38,AB,8B,51,00,00,25,01,
689588,000000C5,false,Rx,0,8,00,00,00,00,00,00,00,00,
690566,00000037,false,Rx,0,8,3A,00,00,10,00,40,00,00,
690585,00000244,false,Rx,0,8,FF,FF,FF,FF,FF,FF,FF,FF,
690611,00000038,false,Rx,0,8,04,00,00,00,50,38,96,D4,
690630,000003E4,false,Rx,0,8,FE,00,00,00,00,00,00,00,
690648,00000039,false,Rx,0,8,00,00,00,00,00,00,00,00,
691567,000004B4,false,Rx,0,8,00,00,00,00,00,00,00,00,
691587,000004B5,false,Rx,0,8,08,00,F0,07,00,00,00,00,
691605,000004B7,false,Rx,0,8,08,00,F0,07,00,00,00,00,
692565,000004CA,false,Rx,0,8,00,00,00,00,00,00,00,00,
692586,000004CC,false,Rx,0,8,08,00,00,06,00,00,03,00,
692604,00000061,false,Rx,0,8,8F,A6,91,00,00,00,00,00,
692621,00000401,false,Rx,0,8,A9,30,10,00,00,04,00,00,
693567,00000062,false,Rx,0,8,02,02,00,02,40,FF,00,FF,
693588,000004CE,false,Rx,0,8,14,01,FF,FF,FF,FF,FF,FF,
693605,00000063,false,Rx,0,8,00,00,05,00,00,08,FD,00,
693623,000004D7,false,Rx,0,8,23,01,00,00,00,00,00,00,
694565,00000064,false,Rx,0,8,00,00,00,04,FF,FA,00,00,
694586,000004D8,false,Rx,0,8,41,10,F0,F0,40,F2,1E,CC,
694604,000000A1,false,Rx,0,8,38,33,91,1A,00,00,00,00,
694628,000004DD,false,Rx,0,8,00,00,FE,00,04,00,00,00,
694645,000000A2,false,Rx,0,8,00,00,00,00,00,00,00,00,
695570,000004DF,false,Rx,0,8,FF,03,0C,3F,00,00,00,00,
695590,000000A3,false,Rx,0,8,00,40,01,00,00,00,00,00,
695608,000004E7,false,Rx,0,8,00,30,00,00,00,00,69,00,
696567,000004E9,false,Rx,0,8,12,00,00,34,00,00,50,00,
696590,000004EA,false,Rx,0,8,67,00,00,89,00,00,00,00,
696607,000000FF,false,Rx,0,8,CB,10,00,00,00,00,02,00,
696625,000004EB,false,Rx,0,8,10,80,33,2E,80,00,00,00,
697568,000004EC,false,Rx,0,8,00,00,00,00,00,00,00,00,
697588,000004ED,false,Rx,0,8,00,00,00,00,00,FF,FF,1F,
697606,000004EE,false,Rx,0,8,FF,FF,00,00,00,00,00,00,
697623,00000394,false,Rx,0,8,2A,22,1A,49,00,00,00,00,
698567,000004EF,false,Rx,0,8,60,00,60,00,29,14,00,00,
698589,000003C3,false,Rx,0,8,45,10,31,30,36,00,00,00,
698607,00000413,false,Rx,0,8,6F,30,00,00,00,00,00,00,
698624,00000405,false,Rx,0,8,BD,30,00,00,00,01,00,00,
699567,00000414,false,Rx,0,8,F0,10,00,00,28,00,00,00,
699588,00000236,false,Rx,0,8,75,5E,27,00,6E,3C,34,6C,
699615,000003E0,false,Rx,0,8,66,20,01,00,54,03,00,00,
699633,00000237,false,Rx,0,8,00,15,BA,00,00,A8,1E,00,
699650,000002FB,false,Rx,0,8,9E,91,27,04,5F,1A,CC,CC,
700615,00000238,false,Rx,0,8,00,00,5F,00,00,00,00,00,
700647,000002FC,false,Rx,0,8,10,00,16,19,00,00,8E,BF,
700665,00000151,false,Rx,0,8,1A,3B,27,A0,C8,00,28,19,
700683,00000239,false,Rx,0,8,00,00,00,00,01,00,00,00,
701995,00000152,false,Rx,0,8,16,18,18,00,0B,00,00,00,
702029,000001F6,false,Rx,0,8,29,18,27,00,00,00,00,0E,
702064,00000153,false,Rx,0,8,00,00,00,00,00,00,00,00,
702452,000001F7,false,Rx,0,8,0B,00,00,00,00,00,00,00,
702491,00000154,false,Rx,0,8,00,00,00,00,00,00,00,00,
702513,000001E6,false,Rx,0,8,57,70,4B,02,00,00,00,00,
702634,000001F8,false,Rx,0,8,00,00,00,00,00,00,00,00,
702664,000001BB,false,Rx,0,8,BD,77,4B,02,00,00,00,0A,
703569,000001F9,false,Rx,0,8,00,00,A0,C8,14,00,00,00,
703596,000001BC,false,Rx,0,8,32,00,00,00,02,00,00,00,
703613,0000025B,false,Rx,0,8,53,4E,27,40,40,20,00,00,
703630,000001BD,false,Rx,0,8,00,00,00,00,00,00,00,00,
704563,0000025C,false,Rx,0,8,00,00,0B,00,34,89,19,00,
704590,000001E7,false,Rx,0,8,00,00,22,03,20,01,00,00,
704608,0000025D,false,Rx,0,8,00,C8,00,00,00,80,C0,70,
704625,000002FD,false,Rx,0,8,00,00,00,00,00,1C,0E,EA,
705563,0000025E,false,Rx,0,8,35,07,0E,05,00,00,00,00,
705590,000002FE,false,Rx,0,8,00,00,72,01,00,28,00,00,
705607,00000380,false,Rx,0,8,73,DE,00,0C,0C,0C,0C,01,
705625,00000326,false,Rx,0,8,D3,46,27,00,00,00,00,00,
706563,0000011B,false,Rx,0,8,94,25,7E,05,80,08,A8,02,
706586,0000012B,false,Rx,0,8,D3,DF,7E,06,00,00,08,00,
706604,0000011C,false,Rx,0,8,00,05,20,00,22,00,01,01,
706622,0000012C,false,Rx,0,8,00,00,01,00,00,64,00,00,
707563,00000327,false,Rx,0,8,00,00,00,00,05,00,00,00,
707590,00000383,false,Rx,0,8,FC,DC,02,10,01,00,00,00,
707607,00000328,false,Rx,0,8,00,00,00,00,00,00,00,00,
707625,000003E5,false,Rx,0,8,37,80,01,00,00,00,00,00,
708563,00000329,false,Rx,0,8,A0,00,00,00,00,00,00,00,
708587,000003E6,false,Rx,0,8,67,90,00,00,00,00,00,00,
708605,00000331,false,Rx,0,8,C0,09,27,F1,C8,A0,2C,97,
708630,00000410,false,Rx,0,8,4B,80,59,3C,16,6B,FF,FF,
708648,0000010B,false,Rx,0,8,D2,04,8D,00,00,00,00,05,
709563,00000332,false,Rx,0,8,94,02,00,00,00,00,00,00,
709596,0000010C,false,Rx,0,8,FF,F9,E7,1F,46,45,46,46,
709614,00000333,false,Rx,0,8,00,00,00,1C,0C,40,20,A0,
709631,0000010D,false,Rx,0,8,10,03,00,00,00,00,01,35,
710561,00000334,false,Rx,0,8,C8,00,00,00,AC,70,1D,90,
710587,0000010E,false,Rx,0,8,00,00,1E,00,00,C0,AB,57,
710605,000002AB,false,Rx,0,8,9A,F5,28,0C,0C,00,00,00,
710622,00000411,false,Rx,0,8,A8,01,50,50,00,00,44,04,
711563,000002AC,false,Rx,0,8,00,FF,FF,00,00,40,00,50,
711590,00000251,false,Rx,0,8,36,13,27,00,00,00,00,00,
711607,000002AD,false,Rx,0,8,00,01,00,40,FF,FF,FF,0F,
711625,00000252,false,Rx,0,8,00,00,1B,1B,03,00,00,00,
712566,000002AE,false,Rx,0,8,01,00,FF,3F,01,01,00,00,
712592,00000253,false,Rx,0,8,00,00,00,56,55,00,80,44,
712610,000002B6,false,Rx,0,8,E0,C2,28,01,00,00,00,40,
712628,00000396,false,Rx,0,8,AA,89,93,0F,08,01,00,02,
713563,000002B7,false,Rx,0,8,EA,01,F0,78,00,04,00,00,
713587,00000397,false,Rx,0,8,04,00,00,00,00,00,00,00,
713604,000002B8,false,Rx,0,8,AA,11,11,00,00,00,00,00,
713622,00000398,false,Rx,0,8,00,00,00,00,00,00,00,00,
714563,000002B9,false,Rx,0,8,0A,00,00,00,00,00,00,00,
714590,00000412,false,Rx,0,8,6D,60,00,00,00,00,00,00,
714607,000002E1,false,Rx,0,8,B9,D0,28,00,00,00,00,40,
714625,00000416,false,Rx,0,8,55,00,00,00,00,00,00,00,
715563,000002E2,false,Rx,0,8,FD,00,00,00,00,14,00,04,
715587,00000417,false,Rx,0,8,5F,20,00,00,00,00,00,00,
715605,000002E3,false,Rx,0,8,00,00,00,00,00,00,72,01,
715622,00000418,false,Rx,0,8,19,70,00,00,12,0C,00,00,
716568,000002E4,false,Rx,0,8,02,00,00,00,00,00,00,00,
716595,00000419,false,Rx,0,8,B1,A0,7A,D6,55,86,90,00,
716613,0000063D,false,Rx,0,8,00,80,00,00,00,00,00,00,
716638,0000041A,false,Rx,0,8,8D,D0,12,00,00,00,00,00,
716655,000004E8,false,Rx,0,8,FF,FF,FF,05,FF,FF,FF,00,
717564,0000041B,false,Rx,0,8,70,D0,00,00,00,00,00,00,
717591,000004F0,false,Rx,0,8,4A,10,33,2F,58,1A,18,02,
717618,0000041C,false,Rx,0,8,48,00,E0,00,00,00,00,00,
717635,0000063E,false,Rx,0,8,FF,FF,FF,FF,FF,FF,FF,FF,
718563,00000422,false,Rx,0,8,9D,70,01,00,00,00,04,00,
718594,0000063F,false,Rx,0,8,00,10,00,C4,FF,00,00,00,
718612,00000432,false,Rx,0,8,03,20,02,00,00,00,00,00,
718630,00000640,false,Rx,0,8,FF,FF,FF,00,FF,FF,FF,00,
719696,00000435,false,Rx,0,8,26,C0,00,40,00,00,00,00,
719729,00000641,false,Rx,0,8,FF,FF,FF,FF,0F,FF,FF,FF,
719747,00000442,false,Rx,0,8,CE,20,11,81,00,00,00,00,
719765,00000646,false,Rx,0,8,00,00,00,80,01,00,00,00,
720791,00000444,false,Rx,0,8,D5,20,20,50,55,50,00,00,
721200,00000445,false,Rx,0,8,C6,C0,00,00,00,00,00,18,
721218,00000464,false,Rx,0,8,D5,20,F0,FF,38,7F,05,00,
726572,0000019B,false,Rx,0,8,F2,D8,8B,00,00,E4,00,00,
726594,0000019C,false,Rx,0,8,40,20,00,00,00,00,0B,09,
726612,0000019D,false,Rx,0,8,00,10,00,01,00,00,00,00,
726630,0000019E,false,Rx,0,8,15,00,00,00,00,32,00,00,
727562,000002D6,false,Rx,0,8,C1,05,93,00,00,00,00,00,
727595,000002EB,false,Rx,0,8,55,4C,93,09,08,01,00,02,
727614,000002D7,false,Rx,0,8,00,00,00,00,03,00,00,00,
728562,000002EC,false,Rx,0,8,02,00,00,00,00,00,00,00,
728590,000002D8,false,Rx,0,8,00,00,00,00,00,00,38,45,
728607,000002ED,false,Rx,0,8,00,00,00,00,00,00,00,00,
728625,000002D9,false,Rx,0,8,00,00,00,00,00,00,00,00,
729562,000002EE,false,Rx,0,8,00,00,00,00,00,00,00,00,
731563,00000356,false,Rx,0,8,FE,D2,94,00,00,00,00,00,
731582,00000357,false,Rx,0,8,00,00,00,00,00,4B,4D,48,
731599,00000358,false,Rx,0,8,35,41,45,4D,52,37,33,4F,
731617,00000359,false,Rx,0,8,51,4F,34,52,4A,35,33,00,
732562,00000415,false,Rx,0,8,40,13,10,00,08,01,00,00,
735741,00000121,false,Rx,0,8,D8,89,8E,00,00,00,00,05,
735774,00000122,false,Rx,0,8,FF,D9,67,1F,46,46,46,46,
735791,00000123,false,Rx,0,8,11,03,00,00,00,00,01,35,
735809,00000124,false,Rx,0,8,00,00,0A,00,00,00,20,40,
739573,00000036,false,Rx,0,8,45,6E,90,51,00,00,25,01,
739598,00000037,false,Rx,0,8,3A,00,00,10,00,40,00,00,
740569,00000038,false,Rx,0,8,04,00,00,00,50,38,96,D4,
740588,00000039,false,Rx,0,8,00,00,00,00,00,00,00,00,
740606,000004E8,false,Rx,0,8,FF,FF,FF,05,FF,FF,FF,00,
742671,000003B6,false,Rx,0,8,D3,94,92,00,00,00,00,46,
742716,00000061,false,Rx,0,8,7C,38,96,00,00,00,00,00,
742734,000003B7,false,Rx,0,8,46,00,00,00,00,00,00,00,
742752,00000062,false,Rx,0,8,02,02,00,02,40,FF,00,FF,
742769,000003B8,false,Rx,0,8,0C,03,00,00,00,00,69,0E,
743569,00000063,false,Rx,0,8,00,00,05,00,00,08,FD,00,
743593,000003B9,false,Rx,0,8,00,00,00,00,00,00,00,00,
743885,00000064,false,Rx,0,8,00,00,00,04,FF,FA,00,00,
743933,00000091,false,Rx,0,8,F5,1A,26,02,00,00,00,00,
743969,00000092,false,Rx,0,8,2B,00,00,00,B0,02,00,00,
744563,00000093,false,Rx,0,8,00,00,00,00,00,00,00,00,
744591,00000094,false,Rx,0,8,00,00,00,00,00,00,00,00,
745558,000000A1,false,Rx,0,8,31,B6,96,1A,00,00,00,00,
745579,000000A2,false,Rx,0,8,00,00,00,00,00,00,00,00,
745597,000000A3,false,Rx,0,8,00,40,01,00,00,00,00,00,
745614,00000161,false,Rx,0,8,53,FB,C1,03,00,00,00,02,
746560,00000162,false,Rx,0,8,FF,FC,01,00,00,00,00,00,
747562,000001F1,false,Rx,0,8,3D,2E,1E,01,00,00,28,00,
747581,000001F2,false,Rx,0,8,00,00,00,00,00,00,00,00,
749558,00000566,false,Rx,0,8,16,02,00,00,00,00,FF,FF,
752561,00000146,false,Rx,0,8,57,EB,BE,10,04,05,00,00,
752580,00000147,false,Rx,0,8,01,04,7D,00,40,97,08,00,
752598,00000148,false,Rx,0,8,00,00,42,00,1E,91,40,05,
753563,00000149,false,Rx,0,8,00,38,00,D4,00,00,00,00,
756561,0000011B,false,Rx,0,8,A0,FD,83,05,80,08,A8,02,
756581,0000012B,false,Rx,0,8,E7,07,83,06,00,00,08,00,
756599,0000011C,false,Rx,0,8,00,05,20,00,22,00,01,01,
756617,0000012C,false,Rx,0,8,00,00,01,00,00,64,00,00,
757560,00000495,false,Rx,0,8,49,00,00,00,00,00,00,00,
757587,000001B1,false,Rx,0,8,F1,25,BE,00,72,00,00,00,
757607,000003AA,false,Rx,0,8,FF,00,B0,00,54,00,00,00,
757624,000001B2,false,Rx,0,8,23,00,04,EF,25,08,52,10,
757651,000001B3,false,Rx,0,8,25,37,4B,00,85,91,95,90,
758574,000001B4,false,Rx,0,8,91,91,10,00,00,41,01,00,
758597,0000010B,false,Rx,0,8,96,B4,92,00,00,00,00,05,
759564,0000010C,false,Rx,0,8,FF,F9,E7,1F,46,45,46,46,
759584,0000010D,false,Rx,0,8,10,03,00,00,00,00,01,35,
759602,0000010E,false,Rx,0,8,00,00,1E,00,00,C0,AB,57,
762563,000001AB,false,Rx,0,8,4F,87,13,50,70,38,00,00,
762588,000001AC,false,Rx,0,8,00,28,00,00,00,00,00,00,
763646,00000316,false,Rx,0,8,5A,B0,82,04,13,80,0A,00,
764780,00000317,false,Rx,0,8,00,00,05,00,00,00,00,00,
764830,000003CB,false,Rx,0,8,36,14,00,F4,00,00,00,00,
765230,00000472,false,Rx,0,8,5C,EC,00,40,08,41,00,45,
765254,000003CC,false,Rx,0,8,36,31,34,30,33,34,31,00,
765272,00000473,false,Rx,0,8,5F,24,00,25,00,00,00,78,
765289,00000474,false,Rx,0,8,93,44,00,00,00,00,00,14,
766613,000002FF,false,Rx,0,8,E2,01,00,F1,3F,00,00,00,
768580,000003B0,false,Rx,0,8,72,37,FF,C7,00,00,03,C0,
771209,000003B1,false,Rx,0,8,9B,3C,FF,40,00,00,20,00,
771297,00000448,false,Rx,0,8,00,C0,00,00,00,00,00,00,
775595,00000384,false,Rx,0,8,C5,8D,05,01,00,FF,00,14,
775631,000001A1,false,Rx,0,8,F6,8D,C2,FE,F7,7F,64,00,
776566,0000019B,false,Rx,0,8,8F,1D,90,00,00,E4,00,00,
776587,000001A2,false,Rx,0,8,00,00,00,00,00,08,00,00,
776605,0000019C,false,Rx,0,8,40,20,00,00,00,00,0B,09,
776623,000001A3,false,Rx,0,8,FF,F3,3F,00,00,00,00,00,
777566,0000019D,false,Rx,0,8,00,10,00,01,00,00,00,00,
777588,000001A4,false,Rx,0,8,FE,07,00,00,00,00,00,00,
777606,0000019E,false,Rx,0,8,15,00,00,00,00,32,00,00,
777624,0000042A,false,Rx,0,8,9F,1D,02,02,00,10,00,00,
778566,0000036F,false,Rx,0,8,28,31,01,00,00,00,00,00,
778587,0000037F,false,Rx,0,8,32,C0,52,24,41,02,00,00,
779566,000003B2,false,Rx,0,8,36,15,FF,02,29,2F,34,00,
780573,00000487,false,Rx,0,8,00,00,00,00,00,00,00,00,
781568,00000642,false,Rx,0,8,FF,FF,FF,FF,FF,FF,00,00,
783950,00000427,false,Rx,0,8,1D,86,FF,00,80,0A,00,00,
785443,00000121,false,Rx,0,8,10,8B,93,00,00,00,00,05,
785477,00000122,false,Rx,0,8,FF,D9,67,1F,46,46,46,46,
785507,00000123,false,Rx,0,8,11,03,00,00,00,00,01,35,
785524,00000124,false,Rx,0,8,00,00,0A,00,00,00,20,40,
786568,000001E1,false,Rx,0,8,41,14,4E,02,00,00,00,00,
786590,000001E2,false,Rx,0,8,00,00,00,00,00,00,00,00,
790398,00000036,false,Rx,0,8,3A,42,95,51,00,00,25,01,
790650,00000037,false,Rx,0,8,3A,00,00,10,00,40,00,00,
790670,00000038,false,Rx,0,8,04,00,00,00,50,38,96,D4,
790722,00000039,false,Rx,0,8,00,00,00,00,00,00,00,00,
790741,00000643,false,Rx,0,8,00,FC,FF,FF,FF,FF,03,00,
792590,00000061,false,Rx,0,8,71,FE,9B,00,00,00,00,00,
792626,00000062,false,Rx,0,8,02,02,00,02,40,FF,00,FF,
792644,00000063,false,Rx,0,8,00,00,05,00,00,08,FD,00,
793567,00000064,false,Rx,0,8,00,00,00,04,FF,FA,00,00,
793595,000000A1,false,Rx,0,8,07,F5,9B,1A,00,00,00,00,
793613,000000A2,false,Rx,0,8,00,00,00,00,00,00,00,00,
793630,000000A3,false,Rx,0,8,00,40,01,00,00,00,00,00,
806590,0000011B,false,Rx,0,8,68,04,88,05,80,08,A8,02,
806625,0000012B,false,Rx,0,8,2F,FE,88,06,00,00,08,00,
806643,0000011C,false,Rx,0,8,00,05,20,00,22,00,01,01,
806660,0000012C,false,Rx,0,8,00,00,01,00,00,64,00,00,
806678,000001FB,false,Rx,0,8,B0,24,27,00,00,00,00,00,
807570,000001FC,false,Rx,0,8,00,00,00,00,00,00,00,00,
807592,000001FD,false,Rx,0,8,00,1A,03,00,00,00,00,00,
807610,000001FE,false,Rx,0,8,00,00,00,00,00,00,00,00,
809100,0000010B,false,Rx,0,8,E9,98,97,00,00,00,00,05,
809134,0000010C,false,Rx,0,8,FF,F9,E7,1F,46,45,46,46,
809153,0000010D,false,Rx,0,8,10,03,00,00,00,00,01,35,
809576,0000010E,false,Rx,0,8,00,00,1E,00,00,C0,AB,57,
811426,000002C1,false,Rx,0,8,52,55,95,21,00,41,00,AB,
811462,000002C2,false,Rx,0,8,12,00,00,00,00,00,00,00,
811480,000002C3,false,Rx,0,8,00,00,00,00,00,00,00,00,
811498,000002C4,false,Rx,0,8,00,00,00,00,00,00,00,00,
820596,000004A3,false,Rx,0,8,80,00,48,0B,3E,00,00,00,
820634,000004A4,false,Rx,0,8,FF,FF,FF,00,00,00,00,00,
826594,0000019B,false,Rx,0,8,F0,31,95,00,00,E4,00,00,
826633,0000019C,false,Rx,0,8,40,20,00,00,00,00,0B,09,
826652,0000019D,false,Rx,0,8,00,10,00,01,00,00,00,00,
826670,0000019E,false,Rx,0,8,15,00,00,00,00,32,00,00,
830594,0000033B,false,Rx,0,8,DD,D7,29,00,00,00,00,00,
830631,0000033C,false,Rx,0,8,00,00,00,00,F0,00,00,00,
831572,0000033D,false,Rx,0,8,00,00,00,00,00,00,00,00,
831596,0000033E,false,Rx,0,8,00,00,00,00,00,00,00,00,
836345,00000121,false,Rx,0,8,A8,8A,98,00,00,00,00,05,
836381,00000122,false,Rx,0,8,FF,D9,67,1F,46,46,46,46,
836399,00000123,false,Rx,0,8,11,03,00,00,00,00,01,35,
836417,00000124,false,Rx,0,8,00,00,0A,00,00,00,20,40,
838583,00000382,false,Rx,0,8,C5,F7,11,00,00,05,05,00,
839563,00000036,false,Rx,0,8,BB,36,9A,51,00,00,25,01,
839585,00000037,false,Rx,0,8,3A,00,00,10,00,40,00,00,
840634,00000038,false,Rx,0,8,04,00,00,00,50,38,96,D4,
840667,00000039,false,Rx,0,8,00,00,00,00,00,00,00,00,
841589,000002E6,false,Rx,0,8,98,FD,26,01,00,00,00,15,
841617,00000256,false,Rx,0,8,1F,60,26,15,40,00,00,01,
842865,000002E7,false,Rx,0,8,0A,00,00,00,00,00,00,00,
842898,00000257,false,Rx,0,8,00,93,41,1B,86,07,00,94,
844178,00000061,false,Rx,0,8,A7,A2,A0,00,00,00,00,00,
844204,00000258,false,Rx,0,8,0B,6E,1E,00,10,15,00,28,
844222,00000062,false,Rx,0,8,02,02,00,02,40,FF,00,FF,
844240,00000259,false,Rx,0,8,5F,05,8D,3C,4C,02,00,00,
844258,00000063,false,Rx,0,8,00,00,05,00,00,08,FD,00,
844275,00000091,false,Rx,0,8,61,25,27,02,00,00,00,00,
844571,00000516,false,Rx,0,8,61,02,00,00,00,00,FF,FF,
845562,00000092,false,Rx,0,8,2D,00,00,00,D0,02,00,00,
845583,00000093,false,Rx,0,8,00,00,00,00,00,00,00,00,
845601,00000094,false,Rx,0,8,00,00,00,00,00,00,00,00,
845618,000000A1,false,Rx,0,8,CE,C4,A0,1A,00,00,00,00,
846586,00000161,false,Rx,0,8,CC,93,C6,03,00,00,00,02,
846611,000000A2,false,Rx,0,8,00,00,00,00,00,00,00,00,
846629,00000162,false,Rx,0,8,FF,FC,01,00,00,00,00,00,
846646,000000A3,false,Rx,0,8,00,40,01,00,00,00,00,00,
851587,000001E6,false,Rx,0,8,A1,58,4E,02,00,00,00,00,
852603,000001BB,false,Rx,0,8,B2,9C,4E,02,00,00,00,0A,
852635,00000146,false,Rx,0,8,43,53,C3,10,04,05,00,00,
852663,000001BC,false,Rx,0,8,32,00,00,00,02,00,00,00,
852681,00000147,false,Rx,0,8,01,04,7D,00,40,97,08,00,
852698,000001BD,false,Rx,0,8,00,00,00,00,00,00,00,00,
854743,00000148,false,Rx,0,8,00,00,42,00,1E,91,40,05,
855113,000001E7,false,Rx,0,8,00,00,22,03,20,01,00,00,
856374,00000149,false,Rx,0,8,00,38,00,D4,00,00,00,00,
856400,000002BF,false,Rx,0,8,FF,FF,FF,00,00,00,00,00,
856440,0000047F,false,Rx,0,8,FF,FC,FF,FF,FF,3F,F3,FF,
856458,0000011B,false,Rx,0,8,9E,2C,8D,05,80,08,A8,02,
856476,0000012B,false,Rx,0,8,D9,D6,8D,06,00,00,08,00,
856494,0000012C,false,Rx,0,8,00,00,01,00,00,64,00,00,
857568,000001B1,false,Rx,0,8,E5,9D,C3,00,72,00,00,00,
857591,000001B2,false,Rx,0,8,23,00,04,EF,25,08,52,10,
857609,000001B3,false,Rx,0,8,25,37,4B,00,85,91,95,90,
857626,000001B4,false,Rx,0,8,91,91,10,00,00,41,01,00,
858990,0000010B,false,Rx,0,8,A7,4C,9C,00,00,00,00,05,
859037,0000010C,false,Rx,0,8,FF,F9,E7,1F,46,44,46,46,
859055,0000010D,false,Rx,0,8,10,03,00,00,00,00,01,35,
860287,0000010E,false,Rx,0,8,00,00,1E,00,00,C0,AB,57,
862763,000001AB,false,Rx,0,8,87,7E,18,50,70,38,00,00,
862799,000001AC,false,Rx,0,8,00,28,00,00,00,00,00,00,
864420,00000475,false,Rx,0,8,12,00,00,00,00,00,00,00,
865593,00000496,false,Rx,0,8,12,00,00,00,00,00,00,00,
865637,00000226,false,Rx,0,8,E0,0D,05,FF,30,E1,05,42,
865655,00000227,false,Rx,0,8,02,70,E1,08,00,F2,17,04,
868518,00000111,false,Rx,0,8,FA,F7,89,01,00,00,00,00,
868803,00000112,false,Rx,0,8,00,00,00,00,00,00,00,00,
868821,00000113,false,Rx,0,8,00,00,00,00,00,00,00,00,
868839,00000114,false,Rx,0,8,00,00,00,00,00,00,00,00,
875627,000001A1,false,Rx,0,8,89,A1,C7,FE,F7,7F,64,00,
876601,0000019B,false,Rx,0,8,71,45,9A,00,00,E4,00,00,
876633,000001A2,false,Rx,0,8,00,00,00,00,00,08,00,00,
876650,0000019C,false,Rx,0,8,40,20,00,00,00,00,0B,09,
876668,000001A3,false,Rx,0,8,FF,F3,3F,00,00,00,00,00,
877575,0000019D,false,Rx,0,8,00,10,00,01,00,00,00,00,
877601,000001A4,false,Rx,0,8,FE,07,00,00,00,00,00,00,
877619,0000019E,false,Rx,0,8,15,00,00,00,00,32,00,00,
877644,0000036F,false,Rx,0,8,20,41,01,00,00,00,00,00,
878566,0000037F,false,Rx,0,8,8B,D0,52,24,41,02,00,00,
880610,0000030B,false,Rx,0,8,6F,C4,29,00,04,00,00,00,
881030,0000030C,false,Rx,0,8,00,00,0E,00,2C,00,A0,0F,
881053,0000030D,false,Rx,0,8,00,00,00,00,48,00,00,00,
881071,000003A1,false,Rx,0,8,00,62,A5,00,FF,FF,FF,FF,
881089,0000030E,false,Rx,0,8,00,00,38,05,21,00,00,1A,
881588,000003A2,false,Rx,0,8,00,00,00,00,00,00,00,00,
885587,00000121,false,Rx,0,8,D7,A6,9D,00,00,00,00,05,
885622,00000122,false,Rx,0,8,FF,D9,67,1F,46,46,46,46,
885640,00000123,false,Rx,0,8,11,03,00,00,00,00,01,35,
885658,00000124,false,Rx,0,8,00,00,0A,00,00,00,20,40,
890079,00000036,false,Rx,0,8,C4,1A,9F,51,00,00,25,01,
890114,00000037,false,Rx,0,8,3A,00,00,10,00,40,00,00,
890132,00000038,false,Rx,0,8,04,00,00,00,50,38,96,D4,
890150,00000039,false,Rx,0,8,00,00,00,00,00,00,00,00,
890758,000000C5,false,Rx,0,8,00,00,00,00,00,00,00,00,
890789,00000244,false,Rx,0,8,FF,FF,FF,FF,FF,FF,FF,FF,
892580,0000041F,false,Rx,0,8,00,0C,00,00,00,00,00,00,
892615,000004B4,false,Rx,0,8,00,00,00,00,00,00,00,00,
892633,000004B5,false,Rx,0,8,08,00,F0,07,00,00,00,00,
892661,000004B7,false,Rx,0,8,08,00,F0,07,00,00,00,00,
892678,000004CA,false,Rx,0,8,00,00,00,00,00,00,00,00,
892696,00000062,false,Rx,0,8,02,02,00,02,40,FF,00,FF,
894823,000004CC,false,Rx,0,8,08,00,00,06,00,00,03,00,
894870,00000063,false,Rx,0,8,00,00,05,00,00,08,FD,00,
895209,000004CE,false,Rx,0,8,14,01,FF,FF,FF,FF,FF,FF,
895231,00000064,false,Rx,0,8,00,00,00,04,FF,FA,00,00,
895249,000004D7,false,Rx,0,8,23,01,00,00,00,00,00,00,
895267,000004DD,false,Rx,0,8,00,00,FE,00,04,00,00,00,
895284,000000A3,false,Rx,0,8,00,40,01,00,00,00,00,00,
896324,000004DF,false,Rx,0,8,FF,03,0C,3F,00,00,00,00,
896371,000004E7,false,Rx,0,8,00,30,00,00,00,00,69,00,
896390,000004E8,false,Rx,0,8,FF,FF,FF,05,FF,FF,FF,00,
896549,000000FF,false,Rx,0,8,CB,10,00,00,00,00,02,00,
896566,000004E9,false,Rx,0,8,12,00,00,34,00,00,50,00,
898709,000004EA,false,Rx,0,8,67,00,00,89,00,00,00,00,
899012,000004EB,false,Rx,0,8,10,80,33,2F,80,00,00,00,
899031,000001F1,false,Rx,0,8,39,32,21,01,00,00,28,00,
900332,000004EC,false,Rx,0,8,00,00,00,00,00,00,00,00,
900356,000001F2,false,Rx,0,8,00,00,00,00,00,00,00,00,
900374,00000236,false,Rx,0,8,B2,73,29,00,6E,3C,34,6C,
900392,00000411,false,Rx,0,8,A8,01,50,50,00,00,44,04,
900409,00000237,false,Rx,0,8,00,15,BA,00,00,A8,1E,00,
900562,00000239,false,Rx,0,8,00,00,00,00,01,00,00,00,
902079,00000152,false,Rx,0,8,16,18,18,00,0B,00,00,00,
903759,000001F6,false,Rx,0,8,EE,35,29,00,00,00,00,0E,
903794,00000153,false,Rx,0,8,00,00,00,00,00,00,00,00,
903812,000001F7,false,Rx,0,8,0B,00,00,00,00,00,00,00,
903830,00000154,false,Rx,0,8,00,00,00,00,00,00,00,00,
903847,000002FB,false,Rx,0,8,EA,9D,29,04,5F,1A,CC,CC,
905296,0000025D,false,Rx,0,8,00,C8,00,00,00,80,C0,70,
905331,00000326,false,Rx,0,8,14,6B,29,00,00,00,00,00,
905350,0000025E,false,Rx,0,8,AC,07,0E,0F,00,00,00,00,
905367,00000327,false,Rx,0,8,00,00,00,00,05,00,00,00,
905402,00000380,false,Rx,0,8,73,DE,00,0C,0C,0C,0C,01,
905420,00000412,false,Rx,0,8,6D,60,00,00,00,00,00,00,
905809,0000011B,false,Rx,0,8,8E,76,92,05,80,08,A8,02,
906584,0000012B,false,Rx,0,8,C9,8C,92,06,00,00,08,00,
907531,0000011C,false,Rx,0,8,00,05,20,00,22,00,01,01,
907934,0000012C,false,Rx,0,8,00,00,01,00,00,64,00,00,
907957,00000329,false,Rx,0,8,A0,00,00,00,00,00,00,00,
907976,00000383,false,Rx,0,8,FC,DC,02,10,01,00,00,00,
907993,00000331,false,Rx,0,8,07,24,29,F1,C8,A0,2C,97,
908011,00000332,false,Rx,0,8,94,02,00,00,00,00,00,00,
909281,00000333,false,Rx,0,8,00,00,00,1C,0C,40,20,A0,
909317,00000413,false,Rx,0,8,6F,30,00,00,00,00,00,00,
909336,00000334,false,Rx,0,8,C8,00,00,00,AC,70,1D,90,
909353,0000010B,false,Rx,0,8,C4,D7,A1,00,00,00,00,05,
909371,00000414,false,Rx,0,8,F0,10,00,00,28,00,00,00,
909388,0000010C,false,Rx,0,8,FF,F9,E7,1F,46,44,46,46,
909804,00000416,false,Rx,0,8,55,00,00,00,00,00,00,00,
909830,0000010D,false,Rx,0,8,10,03,00,00,00,00,01,35,
910579,000002AB,false,Rx,0,8,16,47,2A,0C,0C,00,00,00,
910607,0000010E,false,Rx,0,8,00,00,1E,00,00,C0,AB,57,
910624,000002AC,false,Rx,0,8,00,FF,FF,00,00,40,00,50,
911570,00000417,false,Rx,0,8,5F,20,00,00,00,00,00,00,
911591,000002AD,false,Rx,0,8,00,01,00,40,FF,FF,FF,0F,
911609,00000251,false,Rx,0,8,67,1F,29,00,00,00,00,00,
911627,000002AE,false,Rx,0,8,01,00,FF,3F,01,01,00,00,
912566,00000252,false,Rx,0,8,00,00,1B,1B,03,00,00,00,
912586,000002B6,false,Rx,0,8,6C,70,2A,01,00,00,00,40,
912604,00000253,false,Rx,0,8,00,00,00,55,56,00,80,44,
912628,000002B7,false,Rx,0,8,EA,01,F0,78,00,04,00,00,
912646,00000396,false,Rx,0,8,CC,FD,94,0F,08,01,00,02,
914447,000002B8,false,Rx,0,8,AA,11,11,00,00,00,00,00,
914482,00000397,false,Rx,0,8,0C,00,00,00,00,00,00,00,
914500,000002B9,false,Rx,0,8,0A,00,00,00,00,00,00,00,
914518,00000398,false,Rx,0,8,00,00,00,00,00,00,00,00,
914536,000002E1,false,Rx,0,8,35,62,2A,00,00,00,00,40,
914848,00000419,false,Rx,0,8,B1,A0,7A,D6,55,86,90,00,
914868,000002E3,false,Rx,0,8,00,00,00,00,00,00,72,01,
915600,0000041A,false,Rx,0,8,8D,D0,12,00,00,00,00,00,
915627,000002E4,false,Rx,0,8,02,00,00,00,00,00,00,00,
915645,0000041B,false,Rx,0,8,70,D0,00,00,00,00,00,00,
916579,0000048F,false,Rx,0,8,AD,10,41,00,05,00,00,00,
916599,0000041C,false,Rx,0,8,48,00,E0,00,00,00,00,00,
916617,000004EE,false,Rx,0,8,FF,FF,00,00,00,00,00,00,
916635,00000422,false,Rx,0,8,9D,70,01,00,00,00,04,00,
917568,000004EF,false,Rx,0,8,60,00,60,00,29,14,00,00,
917590,00000432,false,Rx,0,8,03,20,02,00,00,00,00,00,
917607,0000063D,false,Rx,0,8,00,80,00,00,00,00,00,00,
917625,00000435,false,Rx,0,8,26,C0,00,40,00,00,00,00,
918569,0000063E,false,Rx,0,8,FF,FF,FF,FF,FF,FF,FF,FF,
918590,00000442,false,Rx,0,8,CE,20,11,81,00,00,00,00,
918607,0000063F,false,Rx,0,8,00,10,00,C4,FF,00,00,00,
918625,00000444,false,Rx,0,8,D5,20,20,50,55,50,00,00,
919569,00000640,false,Rx,0,8,FF,FF,FF,00,FF,FF,FF,00,
919590,00000445,false,Rx,0,8,C6,C0,00,00,00,00,00,18,
919608,00000641,false,Rx,0,8,FF,FF,FF,FF,0F,FF,FF,FF,
919625,00000464,false,Rx,0,8,D5,20,F0,FF,38,7F,05,00,
920569,00000646,false,Rx,0,8,00,00,00,80,01,00,00,00,
926563,0000019B,false,Rx,0,8,0E,69,9F,00,00,E4,00,00,
926583,0000019C,false,Rx,0,8,40,20,00,00,00,00,0B,09,
926600,0000019D,false,Rx,0,8,00,10,00,01,00,00,00,00,
926618,0000019E,false,Rx,0,8,15,00,00,00,00,32,00,00,
927575,000002D6,false,Rx,0,8,32,9B,94,00,00,00,00,00,
927597,000002EB,false,Rx,0,8,FC,B5,94,09,08,01,00,02,
927615,000002D7,false,Rx,0,8,00,00,00,00,03,00,00,00,
928573,000002EC,false,Rx,0,8,12,00,00,00,00,00,00,00,
928593,000002D8,false,Rx,0,8,00,00,00,00,00,00,38,45,
928611,000002ED,false,Rx,0,8,00,00,00,00,00,00,00,00,
928629,000002D9,false,Rx,0,8,00,00,00,00,00,00,00,00,
929574,000002EE,false,Rx,0,8,00,00,00,00,00,00,00,00,
931564,00000356,false,Rx,0,8,B8,8B,95,00,00,00,00,00,
931584,00000357,false,Rx,0,8,00,00,00,00,00,4B,4D,48,
931601,00000358,false,Rx,0,8,35,41,45,4D,52,37,33,4F,
931619,00000359,false,Rx,0,8,51,4F,34,52,4A,35,33,00,
935566,00000121,false,Rx,0,8,38,8F,A2,00,00,00,00,05,
935588,00000122,false,Rx,0,8,FF,D9,67,1F,46,46,46,46,
935605,00000123,false,Rx,0,8,11,03,00,00,00,00,01,35,
935623,00000124,false,Rx,0,8,00,00,0A,00,00,00,20,40,
936567,000001E1,false,Rx,0,8,51,4E,51,02,00,00,00,00,
936587,000001E2,false,Rx,0,8,00,00,00,00,00,00,00,00,
939566,00000036,false,Rx,0,8,12,46,A4,51,00,00,25,01,
939588,00000037,false,Rx,0,8,3A,00,00,10,00,40,00,00,
940567,00000038,false,Rx,0,8,04,00,00,00,50,38,96,D4,
940587,00000039,false,Rx,0,8,00,00,00,00,00,00,00,00,
942566,000003B6,false,Rx,0,8,95,CD,93,00,00,00,00,46,
942588,00000561,false,Rx,0,8,63,02,00,00,00,00,FF,FF,
942605,00000061,false,Rx,0,8,59,FA,AA,00,00,00,00,00,
942623,000003B7,false,Rx,0,8,46,00,00,00,00,00,00,00,
943567,00000062,false,Rx,0,8,02,02,00,02,40,FF,00,FF,
943587,000003B8,false,Rx,0,8,0C,03,00,00,00,00,69,0E,
943605,00000063,false,Rx,0,8,00,00,05,00,00,08,FD,00,
943622,000003B9,false,Rx,0,8,00,00,00,00,00,00,00,00,
944569,00000064,false,Rx,0,8,00,00,00,04,FF,FA,00,00,
944590,00000091,false,Rx,0,8,15,26,28,02,00,00,00,00,
944608,00000092,false,Rx,0,8,2A,00,00,00,A0,02,00,00,
944626,00000093,false,Rx,0,8,00,00,00,00,00,00,00,00,
945568,00000094,false,Rx,0,8,00,00,00,00,00,00,00,00,
945590,000000A1,false,Rx,0,8,F1,02,AA,1A,00,00,00,00,
945608,000000A2,false,Rx,0,8,00,00,00,00,00,00,00,00,
945626,00000161,false,Rx,0,8,BF,AA,CB,03,00,00,00,02,
946568,000000A3,false,Rx,0,8,00,40,01,00,00,00,00,00,
946590,00000162,false,Rx,0,8,FF,FC,01,00,00,00,00,00,
952569,00000146,false,Rx,0,8,FB,52,C8,10,04,05,00,00,
952590,00000147,false,Rx,0,8,01,04,7D,00,40,97,08,00,
952608,00000148,false,Rx,0,8,00,00,42,00,1E,91,40,05,
953688,00000149,false,Rx,0,8,00,38,00,D4,00,00,00,00,
956587,0000011B,false,Rx,0,8,78,5E,97,05,80,08,A8,02,
956622,0000012B,false,Rx,0,8,3F,A4,97,06,00,00,08,00,
956641,0000011C,false,Rx,0,8,00,05,20,00,22,00,01,01,
956658,0000012C,false,Rx,0,8,00,00,01,00,00,64,00,00,
957585,00000495,false,Rx,0,8,49,00,00,00,00,00,00,00,
957608,000001B1,false,Rx,0,8,BF,8C,C8,00,72,00,00,00,
957626,000003AA,false,Rx,0,8,FF,00,B0,00,54,00,00,00,
957644,000001B2,false,Rx,0,8,23,00,04,EF,25,08,52,10,
957669,000001B3,false,Rx,0,8,25,36,4B,00,85,91,95,90,
958576,000001B4,false,Rx,0,8,91,91,10,00,00,41,01,00,
958599,0000010B,false,Rx,0,8,37,49,A6,00,00,00,00,05,
959566,0000010C,false,Rx,0,8,FF,F9,E7,1F,46,44,46,46,
959592,0000010D,false,Rx,0,8,10,03,00,00,00,00,01,35,
959610,0000010E,false,Rx,0,8,00,00,1E,00,00,C0,AB,57,
962566,000001AB,false,Rx,0,8,71,56,1D,50,70,38,00,00,
962588,000001AC,false,Rx,0,8,00,28,00,00,00,00,00,00,
963569,000002FF,false,Rx,0,8,E2,01,00,F1,3F,00,00,00,
964569,00000316,false,Rx,0,8,7E,18,83,04,13,80,0A,00,
964590,00000472,false,Rx,0,8,5C,EC,00,40,08,41,00,45,
964608,00000317,false,Rx,0,8,00,00,05,00,00,00,00,00,
964625,00000473,false,Rx,0,8,5F,24,00,25,00,00,00,78,
965565,00000474,false,Rx,0,8,93,44,00,00,00,00,00,14,
968567,000003B0,false,Rx,0,8,72,37,FF,C7,00,00,03,C0,
970567,000003B1,false,Rx,0,8,9B,3C,FF,40,00,00,20,00,
971593,00000448,false,Rx,0,8,00,C0,00,00,00,00,00,00,
975581,00000384,false,Rx,0,8,C5,8D,05,01,00,FF,00,14,
975608,000001A1,false,Rx,0,8,31,A0,CC,FE,F7,7F,64,00,
976570,0000019B,false,Rx,0,8,D8,35,A4,00,00,E4,00,00,
976593,000001A2,false,Rx,0,8,00,00,00,00,00,08,00,00,
976610,0000019C,false,Rx,0,8,40,20,00,00,00,00,0B,09,
976628,000001A3,false,Rx,0,8,FF,F3,3F,00,00,00,00,00,
977567,0000019D,false,Rx,0,8,00,10,00,01,00,00,00,00,
977589,000001A4,false,Rx,0,8,FE,07,00,00,00,00,00,00,
977607,0000019E,false,Rx,0,8,15,00,00,00,00,32,00,00,
977624,0000042A,false,Rx,0,8,9F,1D,02,02,00,10,00,00,
978567,0000036F,false,Rx,0,8,99,51,01,00,00,00,00,00,
978586,0000037F,false,Rx,0,8,5D,E0,52,24,41,02,00,00,
979566,000003B2,false,Rx,0,8,36,15,FF,02,29,2F,34,00,
981565,00000487,false,Rx,0,8,00,00,00,00,00,00,00,00,
982567,00000642,false,Rx,0,8,FF,FF,FF,FF,FF,FF,00,00,
984564,00000427,false,Rx,0,8,1D,86,FF,00,80,0A,00,00,
985567,00000121,false,Rx,0,8,47,A3,A7,00,00,00,00,05,
985586,00000122,false,Rx,0,8,FF,D9,67,1F,46,46,46,46,
985604,00000123,false,Rx,0,8,11,03,00,00,00,00,01,35,
985622,00000124,false,Rx,0,8,00,00,0A,00,00,00,20,40,
989564,00000036,false,Rx,0,8,1F,80,A9,51,00,00,25,01,
989587,00000037,false,Rx,0,8,3A,00,00,10,00,40,00,00,
990567,00000038,false,Rx,0,8,04,00,00,00,50,38,96,D4,
990586,00000039,false,Rx,0,8,00,00,00,00,00,00,00,00,
992571,00000061,false,Rx,0,8,26,D6,AF,00,00,00,00,00,
992593,00000062,false,Rx,0,8,02,02,00,02,40,FF,00,FF,
992611,00000063,false,Rx,0,8,00,00,05,00,00,08,FD,00,
993572,00000064,false,Rx,0,8,00,00,00,04,FF,FA,00,00,
993602,000000A1,false,Rx,0,8,FE,E9,AF,1A,00,00,00,00,
993622,000000A2,false,Rx,0,8,00,00,00,00,00,00,00,00,
993639,000000A3,false,Rx,0,8,00,40,01,00,00,00,00,00,
1001588,000001E6,false,Rx,0,8,B1,02,51,02,00,00,00,00,
1002739,000001E7,false,Rx,0,8,00,00,22,03,20,01,00,00,
1002774,000001BB,false,Rx,0,8,D1,F1,51,02,00,00,00,0A,
1002792,000001BC,false,Rx,0,8,32,00,00,00,02,00,00,00,
1002809,000001BD,false,Rx,0,8,00,00,00,00,00,00,00,00,
1005919,0000011B,false,Rx,0,8,B0,A7,9C,05,80,08,A8,02,
1007135,0000012B,false,Rx,0,8,F7,5D,9C,06,00,00,08,00,
1007198,0000011C,false,Rx,0,8,00,05,20,00,22,00,01,01,
1007216,0000012C,false,Rx,0,8,00,00,01,00,00,64,00,00,
1008356,000001FB,false,Rx,0,8,77,09,29,00,00,00,00,00,
1008424,000001FC,false,Rx,0,8,00,00,00,00,00,00,00,00,
1008443,000001FD,false,Rx,0,8,00,1A,03,00,00,00,00,00,
1008461,000001FE,false,Rx,0,8,00,00,00,00,00,00,00,00,
1008647,0000010B,false,Rx,0,8,CC,5A,AB,00,00,00,00,05,
1010270,0000010C,false,Rx,0,8,FF,F9,E7,1F,46,45,46,46,
1010305,0000010D,false,Rx,0,8,10,03,00,00,00,00,01,35,
1010324,0000010E,false,Rx,0,8,00,00,1E,00,00,C0,AB,57,
1010568,000002C1,false,Rx,0,8,98,BE,96,21,00,41,00,AB,
1011771,000002C2,false,Rx,0,8,12,00,00,00,00,00,00,00,
1011806,000002C3,false,Rx,0,8,00,00,00,00,00,00,00,00,
1011824,000002C4,false,Rx,0,8,00,00,00,00,00,00,00,00,
1021598,000004A3,false,Rx,0,8,80,00,48,0B,3E,00,00,00,
1021639,000004A4,false,Rx,0,8,FF,FF,FF,00,00,00,00,00,
1026593,0000019B,false,Rx,0,8,D5,F3,A9,00,00,E4,00,00,
1026630,0000019C,false,Rx,0,8,40,20,00,00,00,00,0B,09,
1026648,0000019D,false,Rx,0,8,00,10,00,01,00,00,00,00,
1026666,0000019E,false,Rx,0,8,15,00,00,00,00,32,00,00,
1030600,0000033B,false,Rx,0,8,51,65,2B,00,00,00,00,00,
1030637,0000033C,false,Rx,0,8,00,00,00,00,F0,00,00,00,
1031598,0000033D,false,Rx,0,8,00,00,00,00,00,00,00,00,
1031631,0000033E,false,Rx,0,8,00,00,00,00,00,00,00,00,
1034846,00000121,false,Rx,0,8,FF,A2,AC,00,00,00,00,05,
1035688,00000122,false,Rx,0,8,FF,D9,67,1F,46,46,46,46,
1035721,00000123,false,Rx,0,8,11,03,00,00,00,00,01,35,
1035739,00000124,false,Rx,0,8,00,00,0A,00,00,00,20,40,
1037078,00000563,false,Rx,0,8,65,02,00,00,00,00,FF,FF,
1038347,00000382,false,Rx,0,8,C5,F7,11,00,00,05,05,00,
1038532,00000419,false,Rx,0,8,4E,B0,7B,D6,55,86,90,00,
1039781,00000036,false,Rx,0,8,EC,1E,AE,51,00,00,25,01,
1039803,00000037,false,Rx,0,8,3A,00,00,10,00,40,00,00,
1039821,00000038,false,Rx,0,8,04,00,00,00,50,38,96,D4,
1041099,00000039,false,Rx,0,8,00,00,00,00,00,00,00,00,
1041633,000002E6,false,Rx,0,8,5F,D0,28,01,00,00,00,15,
1041660,000002E7,false,Rx,0,8,0A,00,00,00,00,00,00,00,
1042952,00000256,false,Rx,0,8,9F,5C,28,15,40,00,10,01,
1043347,00000091,false,Rx,0,8,53,7F,29,02,00,00,00,00,
1043383,00000257,false,Rx,0,8,00,93,41,1C,86,07,00,94,
1043405,00000061,false,Rx,0,8,5B,13,B4,00,00,00,00,00,
1044715,00000258,false,Rx,0,8,0B,6D,1E,00,10,15,00,28,
1044749,00000062,false,Rx,0,8,02,02,00,02,40,FF,00,FF,
1044767,00000259,false,Rx,0,8,62,05,8C,3C,4C,02,00,00,
1044785,00000063,false,Rx,0,8,00,00,05,00,00,08,FD,00,
1044802,000002E8,false,Rx,0,8,00,00,00,00,00,00,00,00,
1044820,00000093,false,Rx,0,8,00,00,00,00,00,00,00,00,
1046408,00000094,false,Rx,0,8,00,00,00,00,00,00,00,00,
1046444,000000A1,false,Rx,0,8,91,58,B4,1A,00,00,00,00,
1046824,00000161,false,Rx,0,8,7D,70,D0,03,00,00,00,02,
1046850,000000A2,false,Rx,0,8,00,00,00,00,00,00,00,00,
1046868,00000162,false,Rx,0,8,FF,FC,01,00,00,00,00,00,
1046916,000001F1,false,Rx,0,8,CF,1A,24,01,00,00,28,00,
1048182,000001F2,false,Rx,0,8,00,00,00,00,00,00,00,00,
1052267,00000146,false,Rx,0,8,72,B8,CD,10,04,05,00,00,
1052303,00000147,false,Rx,0,8,01,04,7D,00,40,98,08,00,
1053392,00000148,false,Rx,0,8,00,00,42,00,1E,91,40,05,
1053426,00000149,false,Rx,0,8,00,38,00,D4,00,00,00,00,
1054712,000002BF,false,Rx,0,8,FF,FF,FF,00,00,00,00,00,
1054747,0000047F,false,Rx,0,8,FF,FC,FF,FF,FF,3F,F3,FF,
1055967,00000653,false,Rx,0,8,0A,19,03,01,02,2A,00,00,
1056021,0000011B,false,Rx,0,8,DD,FB,A1,05,80,08,A8,02,
1056039,0000012B,false,Rx,0,8,9A,01,A1,06,00,00,08,00,
1057313,0000011C,false,Rx,0,8,00,05,20,00,22,00,01,01,
1057355,0000012C,false,Rx,0,8,00,00,01,00,00,64,00,00,
1057374,000001B1,false,Rx,0,8,22,B0,CD,00,72,00,00,00,
1057391,000001B2,false,Rx,0,8,23,00,04,EF,25,08,52,10,
1057554,000001B3,false,Rx,0,8,25,37,4B,00,85,91,95,90,
1057571,000001B4,false,Rx,0,8,91,91,10,00,00,41,01,00,
1058721,0000010B,false,Rx,0,8,47,4A,B0,00,00,00,00,05,
1059157,0000010C,false,Rx,0,8,FF,F9,E7,1F,46,44,46,46,
1059183,0000010D,false,Rx,0,8,10,03,00,00,00,00,01,35,
1060494,0000010E,false,Rx,0,8,00,00,1E,00,00,C0,AB,57,
1062812,000001AB,false,Rx,0,8,75,4A,22,50,70,38,00,00,
1062847,000001AC,false,Rx,0,8,00,28,00,00,00,00,00,00,
1063609,00000475,false,Rx,0,8,12,00,00,00,00,00,00,00,
1063646,00000226,false,Rx,0,8,89,4D,07,FF,30,E1,05,42,
1063664,00000496,false,Rx,0,8,12,00,00,00,00,00,00,00,
1063682,00000227,false,Rx,0,8,02,70,E1,08,00,F2,17,04,
1067680,00000111,false,Rx,0,8,30,1C,8A,01,00,00,00,00,
1067716,00000112,false,Rx,0,8,00,00,00,00,00,00,00,00,
1067735,00000113,false,Rx,0,8,00,00,00,00,00,00,00,00,
1068611,00000114,false,Rx,0,8,00,00,00,00,00,00,00,00,
1076595,000001A1,false,Rx,0,8,F9,A2,D1,FE,F7,7F,64,00,
1076633,0000019B,false,Rx,0,8,26,6D,AE,00,00,E4,00,00,
1076653,000001A2,false,Rx,0,8,00,00,00,00,00,08,00,00,
1076670,0000019C,false,Rx,0,8,40,20,00,00,00,00,0B,09,
1076688,000001A3,false,Rx,0,8,FF,F3,3F,00,00,00,00,00,
1077599,0000019D,false,Rx,0,8,00,10,00,01,00,00,00,00,
1077656,000001A4,false,Rx,0,8,FE,07,00,00,00,00,00,00,
1077674,0000019E,false,Rx,0,8,15,00,00,00,00,32,00,00,
1077692,0000036F,false,Rx,0,8,4F,61,01,00,00,00,00,00,
1078573,00000419,false,Rx,0,8,4E,B0,7B,D6,55,86,90,00,
1078597,0000037F,false,Rx,0,8,4D,00,52,24,41,02,00,00,
1080820,0000030B,false,Rx,0,8,41,F2,2B,00,04,00,00,00,
1080857,0000030C,false,Rx,0,8,00,00,0E,00,2C,00,A0,0F,
1080877,000003A1,false,Rx,0,8,4D,8A,A6,00,FF,FF,FF,FF,
1080894,0000030D,false,Rx,0,8,00,00,00,00,48,00,00,00,
1081592,000003A2,false,Rx,0,8,00,00,00,00,00,00,00,00,
1081618,0000030E,false,Rx,0,8,00,00,38,05,21,00,00,00,
1084863,00000121,false,Rx,0,8,37,A0,B1,00,00,00,00,05,
1085720,00000122,false,Rx,0,8,FF,D9,67,1F,46,46,46,46,
1085754,00000123,false,Rx,0,8,11,03,00,00,00,00,01,35,
1085772,00000124,false,Rx,0,8,00,00,0A,00,00,00,20,40,
1086986,000001E1,false,Rx,0,8,A7,66,54,02,00,00,00,00,
1087021,000001E2,false,Rx,0,8,00,00,00,00,00,00,00,00,
1089607,00000036,false,Rx,0,8,24,1C,B3,51,00,00,25,01,
1089657,00000037,false,Rx,0,8,3A,00,00,10,00,40,00,00,
1089675,00000038,false,Rx,0,8,04,00,00,00,50,38,96,D4,
1090600,00000039,false,Rx,0,8,00,00,00,00,00,00,00,00,
1092234,000000C5,false,Rx,0,8,00,00,00,00,00,00,00,00,
1092269,00000244,false,Rx,0,8,FF,FF,FF,FF,FF,FF,FF,FF,
1092287,000004B4,false,Rx,0,8,00,00,00,00,00,00,00,00,
1092316,00000061,false,Rx,0,8,56,D5,B9,00,00,00,00,00,
1092334,000004B5,false,Rx,0,8,08,00,F0,07,00,00,00,00,
1093460,00000062,false,Rx,0,8,02,02,00,02,40,FF,00,FF,
1093494,00000401,false,Rx,0,8,A9,30,10,00,00,04,00,00,
1093512,00000063,false,Rx,0,8,00,00,05,00,00,08,FD,00,
1093680,000004B7,false,Rx,0,8,08,00,F0,07,00,00,00,00,
1093698,00000064,false,Rx,0,8,00,00,00,04,FF,FA,00,00,
1095277,000004CA,false,Rx,0,8,00,00,00,00,00,00,00,00,
1095679,000000A1,false,Rx,0,8,A7,1B,B9,1A,00,00,00,00,
1095705,000004CC,false,Rx,0,8,08,00,00,06,00,00,03,00,
1095723,000000A2,false,Rx,0,8,00,00,00,00,00,00,00,00,
1095741,000004CE,false,Rx,0,8,14,01,FF,FF,FF,FF,FF,FF,
1095776,000004D8,false,Rx,0,8,41,10,F0,F0,40,F2,1E,CC,
1095793,000004DD,false,Rx,0,8,00,00,FE,00,04,00,00,00,
1097046,000000FF,false,Rx,0,8,CB,10,00,00,00,00,02,00,
1097081,000004DF,false,Rx,0,8,FF,03,0C,3F,00,00,00,00,
1097456,000004E7,false,Rx,0,8,00,30,00,00,00,00,69,00,
1097504,00000394,false,Rx,0,8,2A,22,1A,49,00,00,00,00,
1097522,000004E8,false,Rx,0,8,FF,FF,FF,05,FF,FF,FF,00,
1097638,000003C3,false,Rx,0,8,45,10,31,30,36,00,00,00,
1097670,000004E9,false,Rx,0,8,12,00,00,34,00,00,50,00,
1098883,000003E0,false,Rx,0,8,66,20,01,00,54,03,00,00,
1098938,000004EA,false,Rx,0,8,67,00,00,89,00,00,00,00,
1098955,00000405,false,Rx,0,8,BD,30,00,00,00,01,00,00,
1098973,00000413,false,Rx,0,8,6F,30,00,00,00,00,00,00,
1098991,00000410,false,Rx,0,8,4B,80,59,3C,16,6B,FF,FF,
1099009,00000236,false,Rx,0,8,3E,C1,2B,00,6E,3C,34,6C,
1100313,000003E5,false,Rx,0,8,37,80,01,00,00,00,00,00,
1100348,00000237,false,Rx,0,8,00,15,BA,00,00,A8,1E,00,
1100366,000003E6,false,Rx,0,8,67,90,00,00,00,00,00,00,
1100398,00000238,false,Rx,0,8,00,00,5F,00,00,00,00,00,
1100415,00000151,false,Rx,0,8,51,A4,2B,A0,C8,00,28,19,
1100779,00000239,false,Rx,0,8,00,00,00,00,01,00,00,00,
1101833,00000152,false,Rx,0,8,16,18,18,00,0B,00,00,00,
1101867,000001F6,false,Rx,0,8,62,87,2B,00,00,00,00,0E,
1101886,00000153,false,Rx,0,8,00,00,00,00,00,00,00,00,
1101903,000001F7,false,Rx,0,8,0B,00,00,00,00,00,00,00,
1101921,00000154,false,Rx,0,8,00,00,00,00,00,00,00,00,
1101939,000001F8,false,Rx,0,8,00,00,00,00,00,00,00,00,
1102602,000002FB,false,Rx,0,8,66,2F,2B,04,5F,1A,CC,CC,
1102632,000001F9,false,Rx,0,8,00,00,A0,C8,14,00,00,00,
1102650,000002FC,false,Rx,0,8,0F,00,16,19,00,00,8E,BF,
1103577,0000025B,false,Rx,0,8,FA,77,2B,40,40,20,00,00,
1103599,000002FD,false,Rx,0,8,00,00,00,00,00,1C,0E,EA,
1103617,0000025C,false,Rx,0,8,00,00,0B,00,34,89,19,00,
1103635,000002FE,false,Rx,0,8,00,00,72,01,00,28,00,00,
1105308,0000025D,false,Rx,0,8,00,C8,00,00,00,80,C0,70,
1105343,00000326,false,Rx,0,8,98,D9,2B,00,00,00,00,00,
1105360,0000025E,false,Rx,0,8,AC,07,0E,0F,00,00,00,00,
1105378,00000327,false,Rx,0,8,00,00,00,00,05,00,00,00,
1105396,00000380,false,Rx,0,8,73,DE,00,0C,0C,0C,0C,01,
1106830,00000329,false,Rx,0,8,A0,00,00,00,00,00,00,00,
1106911,0000011B,false,Rx,0,8,42,93,A6,05,80,08,A8,02,
1106929,0000012B,false,Rx,0,8,05,69,A6,06,00,00,08,00,
1106960,0000011C,false,Rx,0,8,00,05,20,00,22,00,01,01,
1106978,0000012C,false,Rx,0,8,00,00,01,00,00,64,00,00,
1106995,00000331,false,Rx,0,8,8B,96,2B,F1,C8,A0,2C,97,
1108050,00000383,false,Rx,0,8,FC,DC,02,10,01,00,00,00,
1108076,00000332,false,Rx,0,8,94,02,00,00,00,00,00,00,
1108093,00000412,false,Rx,0,8,6D,60,00,00,00,00,00,00,
1108516,00000333,false,Rx,0,8,00,00,00,1C,0C,40,20,A0,
1109800,00000414,false,Rx,0,8,F0,10,00,00,28,00,00,00,
1109820,00000334,false,Rx,0,8,C8,00,00,00,AC,70,1D,90,
1109838,00000416,false,Rx,0,8,55,00,00,00,00,00,00,00,
1111139,0000010B,false,Rx,0,8,38,66,B5,00,00,00,00,05,
1111165,00000417,false,Rx,0,8,5F,20,00,00,00,00,00,00,
1111183,0000041A,false,Rx,0,8,8D,D0,12,00,00,00,00,00,
1112833,000002AD,false,Rx,0,8,00,01,00,40,FF,FF,FF,0F,
1112868,00000252,false,Rx,0,8,00,00,1B,1B,03,00,00,00,
1112887,000002AE,false,Rx,0,8,01,00,FF,3F,01,01,00,00,
1114249,00000253,false,Rx,0,8,00,00,00,56,55,00,80,44,
1114301,000002B6,false,Rx,0,8,D9,B7,2C,01,00,00,00,40,
1114320,00000397,false,Rx,0,8,04,00,00,00,00,00,00,00,
1114338,000002B8,false,Rx,0,8,AA,11,11,00,00,00,00,00,
1114355,00000398,false,Rx,0,8,00,00,00,00,00,00,00,00,
1114373,000002B9,false,Rx,0,8,0A,00,00,00,00,00,00,00,
1115947,00000422,false,Rx,0,8,9D,70,01,00,00,00,04,00,
1115995,000002E2,false,Rx,0,8,FD,00,00,00,00,14,00,04,
1116014,00000432,false,Rx,0,8,03,20,02,00,00,00,00,00,
1116032,000002E3,false,Rx,0,8,00,00,00,00,00,00,72,01,
1116582,000004EB,false,Rx,0,8,10,80,33,2F,80,00,00,00,
1116609,00000444,false,Rx,0,8,D5,20,20,50,55,50,00,00,
1118152,000004EC,false,Rx,0,8,00,00,00,00,00,00,00,00,
1119430,00000445,false,Rx,0,8,C6,C0,00,00,00,00,00,18,
1119855,000004ED,false,Rx,0,8,00,00,00,00,00,FF,FF,1F,
1119881,00000464,false,Rx,0,8,D5,20,F0,FF,38,7F,05,00,
1119899,000004EE,false,Rx,0,8,FF,FF,00,00,00,00,00,00,
1119917,000004EF,false,Rx,0,8,60,00,60,00,29,14,00,00,
1119935,0000063D,false,Rx,0,8,00,80,00,00,00,00,00,00,
1126593,0000019B,false,Rx,0,8,EE,6F,B3,00,00,E4,00,00,
1126631,0000019C,false,Rx,0,8,40,20,00,00,00,00,0B,09,
1126651,0000019D,false,Rx,0,8,00,10,00,01,00,00,00,00,
1126669,0000019E,false,Rx,0,8,15,00,00,00,00,32,00,00,
1127640,000002D6,false,Rx,0,8,74,C2,95,00,00,00,00,00,
1127673,000002EB,false,Rx,0,8,B0,E2,95,09,08,01,00,02,
1127691,000002D7,false,Rx,0,8,00,00,00,00,03,00,00,00,
1128681,000002EC,false,Rx,0,8,1F,00,00,00,00,00,00,00,
1129117,000002D8,false,Rx,0,8,00,00,00,00,00,00,38,45,
1129140,000002ED,false,Rx,0,8,00,00,00,00,00,00,00,00,
1129158,000002D9,false,Rx,0,8,00,00,00,00,00,00,00,00,
1129175,000002EE,false,Rx,0,8,00,00,00,00,00,00,00,00,
1130644,00000565,false,Rx,0,8,66,02,00,00,00,00,FF,FF,
1131991,00000356,false,Rx,0,8,72,60,96,00,00,00,00,00,
1132377,00000357,false,Rx,0,8,00,00,00,00,00,4B,4D,48,
1133572,00000358,false,Rx,0,8,35,41,45,4D,52,37,33,4F,
1134399,00000359,false,Rx,0,8,51,4F,34,52,4A,35,33,00,
1134883,00000121,false,Rx,0,8,C4,3E,B6,00,00,00,00,05,
1136125,00000122,false,Rx,0,8,FF,D9,67,1F,46,46,46,46,
1136157,00000123,false,Rx,0,8,11,03,00,00,00,00,01,35,
1136174,00000124,false,Rx,0,8,00,00,0A,00,00,00,20,40,
1139832,00000036,false,Rx,0,8,9C,1D,B8,51,00,00,25,01,
1139873,00000037,false,Rx,0,8,3A,00,00,10,00,40,00,00,
1139891,00000038,false,Rx,0,8,04,00,00,00,50,38,96,D4,
1140594,00000039,false,Rx,0,8,00,00,00,00,00,00,00,00,
1143255,000003B6,false,Rx,0,8,66,53,94,00,00,00,00,46,
1143294,000003B7,false,Rx,0,8,46,00,00,00,00,00,00,00,
1143312,00000091,false,Rx,0,8,6C,E3,2A,02,00,00,00,00,
1143330,000003B8,false,Rx,0,8,0C,03,00,00,00,00,69,0E,
1143348,00000061,false,Rx,0,8,A5,4B,BE,00,00,00,00,00,
1144768,00000063,false,Rx,0,8,00,00,05,00,00,08,FD,00,
1144790,00000064,false,Rx,0,8,00,00,00,04,FF,FA,00,00,
1144808,00000092,false,Rx,0,8,2D,00,00,00,D0,02,00,00,
1144826,00000093,false,Rx,0,8,00,00,00,00,00,00,00,00,
1144843,00000094,false,Rx,0,8,00,00,00,00,00,00,00,00,
1145571,000000A2,false,Rx,0,8,00,00,00,00,00,00,00,00,
1145599,000000A3,false,Rx,0,8,00,40,01,00,00,00,00,00,
1145617,00000161,false,Rx,0,8,8B,58,D5,03,00,00,00,02,
1146843,00000162,false,Rx,0,8,FF,FC,01,00,00,00,00,00,
1151588,000001E6,false,Rx,0,8,47,2A,54,02,00,00,00,00,
1152590,000001BB,false,Rx,0,8,DE,1A,54,02,00,00,00,0A,
1152626,00000146,false,Rx,0,8,36,08,D2,10,04,05,00,00,
1152644,000001BC,false,Rx,0,8,32,00,00,00,02,00,00,00,
1152662,00000147,false,Rx,0,8,01,04,7D,00,40,98,08,00,
1153585,000001BD,false,Rx,0,8,00,00,00,00,00,00,00,00,
1153613,00000148,false,Rx,0,8,00,00,42,00,1E,91,40,05,
1153631,000001E7,false,Rx,0,8,00,00,22,03,20,01,00,00,
1153649,00000149,false,Rx,0,8,00,38,00,D4,00,00,00,00,
1156099,0000011B,false,Rx,0,8,31,AA,AB,05,80,08,A8,02,
1156505,0000012B,false,Rx,0,8,76,50,AB,06,00,00,08,00,
247579,0000011C,false,Rx,0,8,00,05,20,00,22,00,01,01,
247669,0000012C,false,Rx,0,8,00,00,01,00,00,64,00,00,
247687,00000495,false,Rx,0,8,49,00,00,00,00,00,00,00,
247705,000001B1,false,Rx,0,8,66,00,D2,00,72,00,00,00,
247723,000003AA,false,Rx,0,8,FF,00,B0,00,54,00,00,00,
247740,000001B2,false,Rx,0,8,23,00,04,EF,25,08,52,10,
247758,000001B3,false,Rx,0,8,25,37,4B,00,85,91,95,90,
248015,000001B4,false,Rx,0,8,91,91,10,00,00,41,01,00,
248953,0000010B,false,Rx,0,8,B9,12,BA,00,00,00,00,05,
248989,0000010C,false,Rx,0,8,FF,F9,E7,1F,46,44,46,46,
249609,0000010D,false,Rx,0,8,10,03,00,00,00,00,01,35,
249636,0000010E,false,Rx,0,8,00,00,1E,00,00,C0,AB,57,
252599,000001AB,false,Rx,0,8,83,62,27,50,70,38,00,00,
252638,000001AC,false,Rx,0,8,00,28,00,00,00,00,00,00,
253573,000002FF,false,Rx,0,8,E2,01,00,F1,3F,00,00,00,
253592,00000316,false,Rx,0,8,E1,70,84,04,13,80,0A,00,
254571,00000472,false,Rx,0,8,5C,EC,00,40,08,41,00,45,
254594,00000317,false,Rx,0,8,00,00,05,00,00,00,00,00,
254612,00000473,false,Rx,0,8,5F,24,00,25,00,00,00,78,
254630,00000474,false,Rx,0,8,93,44,00,00,00,00,00,14,
258569,000003B0,false,Rx,0,8,72,37,FF,C7,00,00,03,C0,
260559,000003B1,false,Rx,0,8,9B,3C,FF,40,00,00,20,00,
261562,00000448,false,Rx,0,8,00,C0,00,00,00,00,00,00,
265577,00000384,false,Rx,0,8,C5,8D,05,01,00,FF,00,14,
265615,000001A1,false,Rx,0,8,0A,3C,D6,FE,F7,7F,64,00,
266590,0000019B,false,Rx,0,8,56,6E,B8,00,00,E4,00,00,
266619,000001A2,false,Rx,0,8,00,00,00,00,00,08,00,00,
266637,0000019C,false,Rx,0,8,40,20,00,00,00,00,0B,09,
266655,000001A3,false,Rx,0,8,FF,F3,3F,00,00,00,00,00,
267575,0000019D,false,Rx,0,8,00,10,00,01,00,00,00,00,
267597,000001A4,false,Rx,0,8,FE,07,00,00,00,00,00,00,
267615,0000019E,false,Rx,0,8,15,00,00,00,00,32,00,00,
267632,0000042A,false,Rx,0,8,9F,1D,02,02,00,10,00,00,
268574,0000036F,false,Rx,0,8,F6,71,01,00,00,00,00,00,
268610,0000037F,false,Rx,0,8,F4,10,52,24,41,02,00,00,
268628,000003B2,false,Rx,0,8,36,15,FF,02,29,2F,34,00,
273566,00000487,false,Rx,0,8,00,00,00,00,00,00,00,00,
274567,00000427,false,Rx,0,8,1D,86,FF,00,80,0A,00,00,
274587,00000642,false,Rx,0,8,FF,FF,FF,FF,FF,FF,00,00,
275569,00000121,false,Rx,0,8,C9,F8,BB,00,00,00,00,05,
275590,00000122,false,Rx,0,8,FF,D9,67,1F,46,46,46,46,
275607,00000123,false,Rx,0,8,11,03,00,00,00,00,01,35,
275625,00000124,false,Rx,0,8,00,00,0A,00,00,00,20,40,
279570,00000036,false,Rx,0,8,E3,31,BD,51,00,00,25,01,
279592,00000037,false,Rx,0,8,3A,00,00,10,00,40,00,00,
280569,00000038,false,Rx,0,8,04,00,00,00,50,38,96,D4,
280591,00000039,false,Rx,0,8,00,00,00,00,00,00,00,00,
282568,00000061,false,Rx,0,8,B1,F3,C3,00,00,00,00,00,
282590,00000062,false,Rx,0,8,02,02,00,02,40,FF,00,FF,
282608,00000063,false,Rx,0,8,00,00,05,00,00,08,FD,00,
283575,00000064,false,Rx,0,8,00,00,00,04,FF,FA,00,00,
283596,000000A1,false,Rx,0,8,00,0C,C3,1A,00,00,00,00,
283614,000000A2,false,Rx,0,8,00,00,00,00,00,00,00,00,
283632,000000A3,false,Rx,0,8,00,40,01,00,00,00,00,00,
287567,000001F1,false,Rx,0,8,82,F2,27,01,00,00,28,00,
287589,000001F2,false,Rx,0,8,00,00,00,00,00,00,00,00,
288568,00000419,false,Rx,0,8,94,C0,7B,D6,59,86,90,00,
296606,0000011B,false,Rx,0,8,F3,70,B0,05,80,08,A8,02,
296665,0000012B,false,Rx,0,8,B4,8A,B0,06,00,00,08,00,
296683,0000011C,false,Rx,0,8,00,05,20,00,22,00,01,01,
296701,0000012C,false,Rx,0,8,00,00,01,00,00,64,00,00,
296718,000001FB,false,Rx,0,8,FB,BB,2B,00,00,00,00,00,
297598,000001FC,false,Rx,0,8,00,00,00,00,00,00,00,00,
297631,000001FD,false,Rx,0,8,00,1A,03,00,00,00,00,00,
297650,000001FE,false,Rx,0,8,00,00,00,00,00,00,00,00,
298761,0000010B,false,Rx,0,8,C6,3E,BF,00,00,00,00,05,
299595,0000010C,false,Rx,0,8,FF,F9,E7,1F,46,44,46,46,
299622,0000010D,false,Rx,0,8,10,03,00,00,00,00,01,35,
299640,0000010E,false,Rx,0,8,00,00,1E,00,00,C0,AB,57,
300570,000002C1,false,Rx,0,8,DE,E7,97,21,00,41,00,AB,
302405,000002C2,false,Rx,0,8,12,00,00,00,00,00,00,00,
302796,000002C3,false,Rx,0,8,00,00,00,00,00,00,00,00,
302822,000002C4,false,Rx,0,8,00,00,00,00,00,00,00,00,
314596,000004A3,false,Rx,0,8,80,00,48,0B,3E,00,00,00,
314635,000004A4,false,Rx,0,8,FF,FF,FF,00,00,00,00,00,
316723,0000019B,false,Rx,0,8,29,42,BD,00,00,E4,00,00,
316761,0000019C,false,Rx,0,8,40,20,00,00,00,00,0B,09,
316780,0000019D,false,Rx,0,8,00,10,00,01,00,00,00,00,
316797,0000019E,false,Rx,0,8,15,00,00,00,00,32,00,00,
319603,00000566,false,Rx,0,8,16,02,00,00,00,00,FF,FF,
320616,0000033B,false,Rx,0,8,E4,A2,2D,00,00,00,00,00,
320648,0000033C,false,Rx,0,8,00,00,00,00,F0,00,00,00,
321745,0000033D,false,Rx,0,8,00,00,00,00,00,00,00,00,
322882,0000033E,false,Rx,0,8,00,00,00,00,00,00,00,00,
325603,00000121,false,Rx,0,8,68,87,C0,00,00,00,00,05,
325642,00000122,false,Rx,0,8,FF,D9,67,1F,46,46,46,46,
325660,00000123,false,Rx,0,8,11,03,00,00,00,00,01,35,
325678,00000124,false,Rx,0,8,00,00,0A,00,00,00,20,40,
326601,000001E1,false,Rx,0,8,EA,8E,57,02,00,00,00,00,
326634,000001E2,false,Rx,0,8,00,00,00,00,00,00,00,00,
329080,00000382,false,Rx,0,8,C5,F7,11,00,00,05,05,00,
329499,00000419,false,Rx,0,8,94,C0,7B,D6,59,86,90,00,
329532,00000036,false,Rx,0,8,7B,3B,C2,51,00,00,25,01,
329659,00000037,false,Rx,0,8,3A,00,00,10,00,40,00,00,
330859,00000038,false,Rx,0,8,04,00,00,00,50,38,96,D4,
330894,00000039,false,Rx,0,8,00,00,00,00,00,00,00,00,
331568,000002E6,false,Rx,0,8,D3,62,2A,01,00,00,00,15,
331590,00000256,false,Rx,0,8,D8,36,2A,15,40,00,50,01,
332800,000002E7,false,Rx,0,8,0A,00,00,00,00,00,00,00,
332835,00000091,false,Rx,0,8,DF,CD,2B,02,00,00,00,00,
332853,00000257,false,Rx,0,8,00,93,41,22,86,07,00,94,
333259,00000061,false,Rx,0,8,09,F2,C8,00,00,00,00,00,
333286,00000258,false,Rx,0,8,0B,6E,1E,00,10,15,00,28,
333304,00000062,false,Rx,0,8,02,02,00,02,40,FF,00,FF,
333322,00000259,false,Rx,0,8,7F,05,8D,3C,4C,02,00,00,
333584,00000063,false,Rx,0,8,00,00,05,00,00,08,FD,00,
334712,000002E8,false,Rx,0,8,00,00,00,00,00,00,00,00,
334746,00000064,false,Rx,0,8,00,00,00,04,FF,FA,00,00,
334763,000002E9,false,Rx,0,8,00,00,00,00,00,00,00,00,
334781,00000092,false,Rx,0,8,2A,00,00,00,A0,02,00,00,
334799,0000048B,false,Rx,0,8,8A,4F,EB,1E,01,00,00,00,
336172,00000093,false,Rx,0,8,00,00,00,00,00,00,00,00,
336207,0000048C,false,Rx,0,8,00,00,00,00,00,00,00,00,
340611,00000094,false,Rx,0,8,00,00,00,00,00,00,00,00,
340649,00000161,false,Rx,0,8,91,21,DA,03,00,00,00,02,
340667,000000A1,false,Rx,0,8,3C,FD,C8,1A,00,00,00,00,
340685,000000A2,false,Rx,0,8,00,00,00,00,00,00,00,00,
340702,000000A3,false,Rx,0,8,00,40,01,00,00,00,00,00,
342832,00000146,false,Rx,0,8,BF,E2,D7,10,04,05,00,00,
342992,00000147,false,Rx,0,8,01,04,7D,00,40,97,08,00,
343010,00000148,false,Rx,0,8,00,00,42,00,1E,91,40,05,
343027,00000149,false,Rx,0,8,00,38,00,D4,00,00,00,00,
344260,000002BF,false,Rx,0,8,FF,FF,FF,00,00,00,00,00,
344295,0000047F,false,Rx,0,8,FF,FC,FF,FF,FF,3F,F3,FF,
344583,00000653,false,Rx,0,8,0A,19,03,01,02,2A,00,00,
346564,0000011B,false,Rx,0,8,05,58,B5,05,80,08,A8,02,
346584,0000012B,false,Rx,0,8,42,A2,B5,06,00,00,08,00,
346602,0000011C,false,Rx,0,8,00,05,20,00,22,00,01,01,
346620,0000012C,false,Rx,0,8,00,00,01,00,00,64,00,00,
348296,000001B1,false,Rx,0,8,19,2C,D7,00,72,00,00,00,
348331,000001B2,false,Rx,0,8,23,00,04,EF,25,08,52,10,
348349,000001B3,false,Rx,0,8,25,37,4B,00,85,91,95,90,
348367,000001B4,false,Rx,0,8,91,91,10,00,00,41,01,00,
348790,0000010B,false,Rx,0,8,67,41,C4,00,00,00,00,05,
348815,0000010C,false,Rx,0,8,FF,F9,E7,1F,46,44,46,46,
349884,0000010D,false,Rx,0,8,10,03,00,00,00,00,01,35,
349919,0000010E,false,Rx,0,8,00,00,1E,00,00,C0,AB,57,
351595,000001AB,false,Rx,0,8,4B,9B,2C,50,70,38,00,00,
352727,000001AC,false,Rx,0,8,00,28,00,00,00,00,00,00,
352763,00000226,false,Rx,0,8,B7,9C,09,FF,30,E1,05,42,
352781,00000227,false,Rx,0,8,02,70,E1,08,00,F2,17,04,
354092,00000475,false,Rx,0,8,12,00,00,00,00,00,00,00,
354127,00000496,false,Rx,0,8,12,00,00,00,00,00,00,00,
358017,00000111,false,Rx,0,8,76,45,8B,01,00,00,00,00,
358057,00000112,false,Rx,0,8,00,00,00,00,00,00,00,00,
358075,00000113,false,Rx,0,8,00,00,00,00,00,00,00,00,
358092,00000114,false,Rx,0,8,00,00,00,00,00,00,00,00,
366600,000001A1,false,Rx,0,8,07,FA,DB,FE,F7,7F,64,00,
366641,0000019B,false,Rx,0,8,B1,48,C2,00,00,E4,00,00,
366660,000001A2,false,Rx,0,8,00,00,00,00,00,08,00,00,
366677,0000019C,false,Rx,0,8,40,20,00,00,00,00,0B,09,
366695,000001A3,false,Rx,0,8,FF,F3,3F,00,00,00,00,00,
367627,0000019D,false,Rx,0,8,00,10,00,01,00,00,00,00,
367661,000001A4,false,Rx,0,8,FE,07,00,00,00,00,00,00,
367679,0000019E,false,Rx,0,8,15,00,00,00,00,32,00,00,
367696,0000036F,false,Rx,0,8,5F,81,01,00,00,00,00,00,
368868,00000419,false,Rx,0,8,94,C0,7B,D6,59,86,90,00,
368904,0000037F,false,Rx,0,8,22,20,52,24,41,02,00,00,
370586,0000030B,false,Rx,0,8,A7,CD,2D,00,04,00,00,00,
370614,0000030C,false,Rx,0,8,00,00,0E,00,2C,00,A0,0F,
370805,000003A1,false,Rx,0,8,69,22,A7,00,FF,FF,FF,FF,
370824,0000030D,false,Rx,0,8,00,00,00,00,48,00,00,00,
371885,000003A2,false,Rx,0,8,00,00,00,00,00,00,00,00,
372253,0000030E,false,Rx,0,8,00,00,38,05,21,00,00,FE,
375587,00000121,false,Rx,0,8,17,AB,C5,00,00,00,00,05,
375625,00000122,false,Rx,0,8,FF,D9,67,1F,46,46,46,46,
375644,00000123,false,Rx,0,8,11,03,00,00,00,00,01,35,
375662,00000124,false,Rx,0,8,00,00,0A,00,00,00,20,40,
379593,00000036,false,Rx,0,8,04,17,C7,51,00,00,25,01,
379630,00000037,false,Rx,0,8,3A,00,00,10,00,40,00,00,
379655,00000038,false,Rx,0,8,04,00,00,00,50,38,96,D4,
380603,00000039,false,Rx,0,8,00,00,00,00,00,00,00,00,
382594,00000061,false,Rx,0,8,76,DE,CD,00,00,00,00,00,
382630,00000062,false,Rx,0,8,02,02,00,02,40,FF,00,FF,
382648,00000063,false,Rx,0,8,00,00,05,00,00,08,FD,00,
383790,00000064,false,Rx,0,8,00,00,00,04,FF,FA,00,00,
383824,00000401,false,Rx,0,8,A9,30,10,00,00,04,00,00,
383843,000000A1,false,Rx,0,8,33,16,CD,1A,00,00,00,00,
383860,000000A2,false,Rx,0,8,00,00,00,00,00,00,00,00,
383878,000000A3,false,Rx,0,8,00,40,01,00,00,00,00,00,
385267,000000C5,false,Rx,0,8,00,00,00,00,00,00,00,00,
385302,00000244,false,Rx,0,8,FF,FF,FF,FF,FF,FF,FF,FF,
385320,000004B4,false,Rx,0,8,00,00,00,00,00,00,00,00,
385729,000004B5,false,Rx,0,8,08,00,F0,07,00,00,00,00,
385753,000000FF,false,Rx,0,8,CB,10,00,00,00,00,02,00,
385770,000004B7,false,Rx,0,8,08,00,F0,07,00,00,00,00,
387064,000004CA,false,Rx,0,8,00,00,00,00,00,00,00,00,
387099,000004CC,false,Rx,0,8,08,00,00,06,00,00,03,00,
387136,000004CE,false,Rx,0,8,14,01,FF,FF,FF,FF,FF,FF,
387154,00000394,false,Rx,0,8,2A,22,1A,49,00,00,00,00,
387171,000004D7,false,Rx,0,8,23,01,00,00,00,00,00,00,
387189,000003C3,false,Rx,0,8,45,10,31,30,36,00,00,00,
388666,000004D8,false,Rx,0,8,41,10,F0,F0,40,F2,1E,CC,
388701,000003E0,false,Rx,0,8,66,20,01,00,54,03,00,00,
388719,000004DD,false,Rx,0,8,00,00,FE,00,04,00,00,00,
388737,000004DF,false,Rx,0,8,FF,03,0C,3F,00,00,00,00,
388754,00000405,false,Rx,0,8,BD,30,00,00,00,01,00,00,
389849,00000236,false,Rx,0,8,8B,06,2D,00,6E,3C,34,6C,
389884,00000410,false,Rx,0,8,4B,80,59,3C,16,6B,FF,FF,
389902,00000237,false,Rx,0,8,00,15,BA,00,00,A8,1E,00,
391451,000003E6,false,Rx,0,8,67,90,00,00,00,00,00,00,
391486,00000151,false,Rx,0,8,E4,63,2D,A0,C8,00,28,19,
391519,00000239,false,Rx,0,8,00,00,00,00,01,00,00,00,
391717,00000152,false,Rx,0,8,16,18,18,00,0B,00,00,00,
391742,000001F6,false,Rx,0,8,D7,40,2D,00,00,00,00,0E,
391770,000001E6,false,Rx,0,8,0A,C2,57,02,00,00,00,00,
391788,00000154,false,Rx,0,8,00,00,00,00,00,00,00,00,
393103,000001E7,false,Rx,0,8,00,00,22,03,20,01,00,00,
393611,000001F7,false,Rx,0,8,0B,00,00,00,00,00,00,00,
394880,000001BB,false,Rx,0,8,DB,43,57,02,00,00,00,0A,
394901,000001F8,false,Rx,0,8,00,00,00,00,00,00,00,00,
394937,000001BC,false,Rx,0,8,32,00,00,00,02,00,00,00,
394955,000001F9,false,Rx,0,8,00,00,A0,C8,14,00,00,00,
394972,0000025B,false,Rx,0,8,B4,55,2D,40,40,20,00,00,
395999,0000025E,false,Rx,0,8,B7,07,0E,00,00,00,00,00,
396440,000002FE,false,Rx,0,8,00,00,72,01,00,28,00,00,
397792,0000012C,false,Rx,0,8,00,00,01,00,00,64,00,00,
399392,00000412,false,Rx,0,8,6D,60,00,00,00,00,00,00,
399427,00000329,false,Rx,0,8,A0,00,00,00,00,00,00,00,
399445,00000414,false,Rx,0,8,F0,10,00,00,28,00,00,00,
400517,00000332,false,Rx,0,8,94,02,00,00,00,00,00,00,
400941,0000010D,false,Rx,0,8,10,03,00,00,00,00,01,35,
402091,000002AD,false,Rx,0,8,00,01,00,40,FF,FF,FF,0F,
402126,00000252,false,Rx,0,8,00,00,1B,1B,03,00,00,00,
403747,000002B6,false,Rx,0,8,55,05,2E,01,00,00,00,40,
404575,000002E1,false,Rx,0,8,0C,17,2E,00,00,00,00,40,
404602,00000416,false,Rx,0,8,55,00,00,00,00,00,00,00,
404628,000002E2,false,Rx,0,8,FD,00,00,00,00,14,00,04,
405563,00000417,false,Rx,0,8,5F,20,00,00,00,00,00,00,
405591,000002E3,false,Rx,0,8,00,00,00,00,00,00,72,01,
405619,00000418,false,Rx,0,8,19,70,00,00,12,0C,00,00,
405637,000002E4,false,Rx,0,8,02,00,00,00,00,00,00,00,
407205,00000419,false,Rx,0,8,94,C0,7B,D6,59,86,90,00,
407240,00000485,false,Rx,0,8,00,40,11,02,00,00,00,00,
407258,0000041A,false,Rx,0,8,8D,D0,12,00,00,00,00,00,
407276,000004E7,false,Rx,0,8,00,30,00,00,00,00,69,00,
407294,0000041B,false,Rx,0,8,70,D0,00,00,00,00,00,00,
408626,0000041C,false,Rx,0,8,48,00,E0,00,00,00,00,00,
408652,000004E9,false,Rx,0,8,12,00,00,34,00,00,50,00,
409940,00000422,false,Rx,0,8,9D,70,01,00,00,00,04,00,
409959,000004EA,false,Rx,0,8,67,00,00,89,00,00,00,00,
409976,00000432,false,Rx,0,8,03,20,02,00,00,00,00,00,
410010,00000435,false,Rx,0,8,26,C0,00,40,00,00,00,00,
411374,000004EC,false,Rx,0,8,00,00,00,00,00,00,00,00,
411393,000004EE,false,Rx,0,8,FF,FF,00,00,00,00,00,00,
411410,00000445,false,Rx,0,8,C6,C0,00,00,00,00,00,18,
411428,000004EF,false,Rx,0,8,60,00,60,00,29,14,00,00,
411446,00000464,false,Rx,0,8,D5,20,F0,FF,38,7F,05,00,
411562,0000063F,false,Rx,0,8,00,10,00,C4,FF,00,00,00,
413170,00000640,false,Rx,0,8,FF,FF,FF,00,FF,FF,FF,00,
414364,00000641,false,Rx,0,8,FF,FF,FF,FF,0F,FF,FF,FF,
414384,00000646,false,Rx,0,8,00,00,00,80,01,00,00,00,
415734,0000019B,false,Rx,0,8,CE,64,C7,00,00,E4,00,00,
416739,0000019C,false,Rx,0,8,40,20,00,00,00,00,0B,09,
416772,0000019D,false,Rx,0,8,00,10,00,01,00,00,00,00,
416790,0000019E,false,Rx,0,8,15,00,00,00,00,32,00,00,
418207,000002D6,false,Rx,0,8,BE,29,96,00,00,00,00,00,
419466,000002EB,false,Rx,0,8,D7,3A,96,09,08,01,00,02,
419928,000002D7,false,Rx,0,8,00,00,00,00,03,00,00,00,
419959,000002EC,false,Rx,0,8,17,00,00,00,00,00,00,00,
419977,000002D8,false,Rx,0,8,00,00,00,00,00,00,38,45,
419995,000002ED,false,Rx,0,8,00,00,00,00,00,00,00,00,
420012,000002D9,false,Rx,0,8,00,00,00,00,00,00,00,00,
420030,00000415,false,Rx,0,8,40,13,10,00,08,01,00,00,
421012,00000356,false,Rx,0,8,34,39,97,00,00,00,00,00,
422547,00000358,false,Rx,0,8,35,41,45,4D,52,37,33,4F,
422582,00000359,false,Rx,0,8,51,4F,34,52,4A,35,33,00,
425553,00000121,false,Rx,0,8,96,DF,CA,00,00,00,00,05,
425603,00000122,false,Rx,0,8,FF,D9,67,1F,46,46,46,46,
425622,00000123,false,Rx,0,8,11,03,00,00,00,00,01,35,
425639,00000124,false,Rx,0,8,00,00,0A,00,00,00,20,40,
428587,000004E8,false,Rx,0,8,FF,FF,FF,05,FF,FF,FF,00,
429597,00000036,false,Rx,0,8,BC,16,CC,51,00,00,25,01,
429629,00000037,false,Rx,0,8,3A,00,00,10,00,40,00,00,
430719,00000038,false,Rx,0,8,04,00,00,00,50,38,96,D4,
430754,00000039,false,Rx,0,8,00,00,00,00,00,00,00,00,
431970,00000091,false,Rx,0,8,2C,53,2C,02,00,00,00,00,
433425,000003B6,false,Rx,0,8,20,0A,95,00,00,00,00,46,
433460,00000061,false,Rx,0,8,32,6E,D2,00,00,00,00,00,
433478,000003B7,false,Rx,0,8,46,00,00,00,00,00,00,00,
433508,00000062,false,Rx,0,8,02,02,00,02,40,FF,00,FF,
433526,000003B8,false,Rx,0,8,0C,03,00,00,00,00,69,0E,
433668,000003B9,false,Rx,0,8,00,00,00,00,00,00,00,00,
434938,00000064,false,Rx,0,8,00,00,00,04,FF,FA,00,00,
435387,00000092,false,Rx,0,8,2A,00,00,00,A0,02,00,00,
435411,00000093,false,Rx,0,8,00,00,00,00,00,00,00,00,
435428,00000094,false,Rx,0,8,00,00,00,00,00,00,00,00,
435446,000000A1,false,Rx,0,8,50,7B,D2,1A,00,00,00,00,
436663,000000A2,false,Rx,0,8,00,00,00,00,00,00,00,00,
436690,00000161,false,Rx,0,8,67,09,DF,03,00,00,00,02,
436708,00000162,false,Rx,0,8,FF,FC,01,00,00,00,00,00,
437749,000001F1,false,Rx,0,8,F1,CB,2A,01,00,00,28,00,
438120,000001F2,false,Rx,0,8,00,00,00,00,00,00,00,00,
442926,00000146,false,Rx,0,8,F1,25,DC,10,04,05,00,00,
442965,00000147,false,Rx,0,8,01,04,7D,00,40,98,08,00,
442983,00000148,false,Rx,0,8,00,00,42,00,1E,91,40,05,
443001,00000149,false,Rx,0,8,00,38,00,D4,00,00,00,00,
446603,0000011B,false,Rx,0,8,E9,09,BF,05,80,08,A8,02,
446643,0000012B,false,Rx,0,8,AE,F3,BF,06,00,00,08,00,
446662,0000011C,false,Rx,0,8,00,05,20,00,22,00,01,01,
446680,0000012C,false,Rx,0,8,00,00,01,00,00,64,00,00,
447598,000001B1,false,Rx,0,8,A1,2D,DC,00,72,00,00,00,
447631,00000495,false,Rx,0,8,49,00,00,00,00,00,00,00,
447649,000001B2,false,Rx,0,8,23,00,04,EF,25,08,52,10,
447667,000003AA,false,Rx,0,8,FF,00,B0,00,54,00,00,00,
447697,000001B3,false,Rx,0,8,25,37,4B,00,85,91,95,90,
448584,000001B4,false,Rx,0,8,91,91,10,00,00,41,01,00,
448610,0000010B,false,Rx,0,8,99,19,CE,00,00,00,00,05,
449861,0000010C,false,Rx,0,8,FF,F9,E7,1F,46,44,46,46,
449896,0000010D,false,Rx,0,8,10,03,00,00,00,00,01,35,
449915,0000010E,false,Rx,0,8,00,00,1E,00,00,C0,AB,57,
452091,000001AB,false,Rx,0,8,32,81,31,50,70,38,00,00,
452131,000001AC,false,Rx,0,8,00,28,00,00,00,00,00,00,
452149,000002FF,false,Rx,0,8,E2,01,00,F1,3F,00,00,00,
452187,00000316,false,Rx,0,8,C5,D8,85,04,13,80,0A,00,
452751,00000317,false,Rx,0,8,00,00,05,00,00,00,00,00,
454226,00000472,false,Rx,0,8,5C,EC,00,40,08,41,00,45,
454261,00000473,false,Rx,0,8,5F,24,00,25,00,00,00,78,
454279,00000474,false,Rx,0,8,93,44,00,00,00,00,00,14,
458590,000003B0,false,Rx,0,8,72,37,FF,C7,00,00,03,C0,
458627,000004E8,false,Rx,0,8,FF,FF,FF,05,FF,FF,FF,00,
460789,000003B1,false,Rx,0,8,9B,3C,FF,40,00,00,20,00,
462298,00000448,false,Rx,0,8,00,C0,00,00,00,00,00,00,
466072,00000384,false,Rx,0,8,C5,8D,05,01,00,FF,00,14,
466137,000001A1,false,Rx,0,8,D1,A6,E0,FE,F7,7F,64,00,
466154,0000019B,false,Rx,0,8,76,65,CC,00,00,E4,00,00,
466172,000001A2,false,Rx,0,8,00,00,00,00,00,08,00,00,
466761,0000019C,false,Rx,0,8,40,20,00,00,00,00,0B,09,
466791,000001A3,false,Rx,0,8,FF,F3,3F,00,00,00,00,00,
468322,0000019D,false,Rx,0,8,00,10,00,01,00,00,00,00,
468357,000001A4,false,Rx,0,8,FE,07,00,00,00,00,00,00,
468748,0000019E,false,Rx,0,8,15,00,00,00,00,32,00,00,
468776,0000042A,false,Rx,0,8,9F,1D,02,02,00,10,00,00,
468796,0000036F,false,Rx,0,8,E6,91,01,00,00,00,00,00,
468813,000003B2,false,Rx,0,8,36,15,FF,02,29,2F,34,00,
473694,00000427,false,Rx,0,8,1D,86,FF,00,80,0A,00,00,
474943,00000121,false,Rx,0,8,E9,F3,CF,00,00,00,00,05,
476434,00000122,false,Rx,0,8,FF,D9,67,1F,46,46,46,46,
476480,00000123,false,Rx,0,8,11,03,00,00,00,00,01,35,
476498,00000124,false,Rx,0,8,00,00,0A,00,00,00,20,40,
476516,000001E1,false,Rx,0,8,99,B7,5A,02,00,00,00,00,
478063,000001E2,false,Rx,0,8,00,00,00,00,00,00,00,00,
479331,00000487,false,Rx,0,8,00,00,00,00,00,00,00,00,
479383,00000642,false,Rx,0,8,FF,FF,FF,FF,FF,FF,00,00,
479400,00000036,false,Rx,0,8,74,14,D1,51,00,00,25,01,
479418,00000037,false,Rx,0,8,3A,00,00,10,00,40,00,00,
480534,00000038,false,Rx,0,8,04,00,00,00,50,38,96,D4,
480943,00000039,false,Rx,0,8,00,00,00,00,00,00,00,00,
483193,00000061,false,Rx,0,8,4D,42,D7,00,00,00,00,00,
483228,00000062,false,Rx,0,8,02,02,00,02,40,FF,00,FF,
483246,00000063,false,Rx,0,8,00,00,05,00,00,08,FD,00,
483264,00000064,false,Rx,0,8,00,00,00,04,FF,FA,00,00,
483281,000000A1,false,Rx,0,8,5F,90,D7,1A,00,00,00,00,
484481,000000A2,false,Rx,0,8,00,00,00,00,00,00,00,00,
484523,000000A3,false,Rx,0,8,00,40,01,00,00,00,00,00,
497039,0000011B,false,Rx,0,8,17,19,C4,05,80,08,A8,02,
497074,0000012B,false,Rx,0,8,50,E3,C4,06,00,00,08,00,
497092,0000011C,false,Rx,0,8,00,05,20,00,22,00,01,01,
497110,0000012C,false,Rx,0,8,00,00,01,00,00,64,00,00,
497128,000001FB,false,Rx,0,8,4E,7C,2D,00,00,00,00,00,
497575,000001FD,false,Rx,0,8,00,1A,03,00,00,00,00,00,
497600,000001FE,false,Rx,0,8,00,00,00,00,00,00,00,00,
500329,0000010B,false,Rx,0,8,51,1B,D3,00,00,00,00,05,
500392,000004E8,false,Rx,0,8,FF,FF,FF,05,FF,FF,FF,00,
500410,0000010C,false,Rx,0,8,FF,F9,E7,1F,46,44,46,46,
500428,0000010D,false,Rx,0,8,10,03,00,00,00,00,01,35,
500445,0000010E,false,Rx,0,8,00,00,1E,00,00,C0,AB,57,
500463,000002C1,false,Rx,0,8,5F,93,98,21,00,41,00,AB,
500730,000002C2,false,Rx,0,8,12,00,00,00,00,00,00,00,
501575,000002C3,false,Rx,0,8,00,00,00,00,00,00,00,00,
501600,000002C4,false,Rx,0,8,00,00,00,00,00,00,00,00,
516593,0000019B,false,Rx,0,8,BE,67,D1,00,00,E4,00,00,
516632,0000019C,false,Rx,0,8,40,20,00,00,00,00,0B,09,
516658,0000019D,false,Rx,0,8,00,10,00,01,00,00,00,00,
516676,0000019E,false,Rx,0,8,15,00,00,00,00,32,00,00,
516694,00000561,false,Rx,0,8,63,02,00,00,00,00,FF,FF,
518565,000004A3,false,Rx,0,8,80,00,48,0B,3E,00,00,00,
519559,000004A4,false,Rx,0,8,FF,FF,FF,00,00,00,00,00,
520568,0000033B,false,Rx,0,8,68,10,2F,00,00,00,00,00,
520591,0000033C,false,Rx,0,8,00,00,00,00,F0,00,00,00,
521566,0000033D,false,Rx,0,8,00,00,00,00,00,00,00,00,
521587,0000033E,false,Rx,0,8,00,00,00,00,00,00,00,00,
525564,00000121,false,Rx,0,8,94,36,D4,00,00,00,00,05,
525588,00000122,false,Rx,0,8,FF,D9,67,1F,46,46,46,46,
525606,00000123,false,Rx,0,8,11,03,00,00,00,00,01,35,
525624,00000124,false,Rx,0,8,00,00,0A,00,00,00,20,40,
527639,00000382,false,Rx,0,8,C5,F7,11,00,00,05,05,00,
529568,00000036,false,Rx,0,8,87,8A,D6,51,00,00,25,01,
529590,00000037,false,Rx,0,8,3A,00,00,10,00,40,00,00,
530567,00000038,false,Rx,0,8,04,00,00,00,50,38,96,D4,
530589,00000039,false,Rx,0,8,00,00,00,00,00,00,00,00,
531561,000002E6,false,Rx,0,8,66,A5,2C,01,00,00,00,15,
531584,00000256,false,Rx,0,8,F8,E9,2C,15,40,00,40,01,
532566,000002E7,false,Rx,0,8,0A,00,00,00,00,00,00,00,
532587,00000091,false,Rx,0,8,9F,7D,2D,02,00,00,00,00,
532605,00000257,false,Rx,0,8,00,93,41,21,86,07,00,94,
532623,00000061,false,Rx,0,8,F5,43,DC,00,00,00,00,00,
533561,00000258,false,Rx,0,8,0B,6E,1E,00,10,15,00,28,
533584,00000062,false,Rx,0,8,02,02,00,02,40,FF,00,FF,
533602,00000259,false,Rx,0,8,7D,05,8D,3C,4C,02,00,00,
533620,00000063,false,Rx,0,8,00,00,05,00,00,08,FD,00,
534565,000002E8,false,Rx,0,8,00,00,00,00,00,00,00,00,
534587,00000064,false,Rx,0,8,00,00,00,04,FF,FA,00,00,
534604,000002E9,false,Rx,0,8,00,00,00,00,00,00,00,00,
534622,00000092,false,Rx,0,8,2D,00,00,00,D0,02,00,00,
535562,00000093,false,Rx,0,8,00,00,00,00,00,00,00,00,
535584,00000094,false,Rx,0,8,00,00,00,00,00,00,00,00,
535602,000000A1,false,Rx,0,8,63,61,DC,1A,00,00,00,00,
535620,000000A2,false,Rx,0,8,00,00,00,00,00,00,00,00,
536566,00000161,false,Rx,0,8,B1,95,E4,03,00,00,00,02,
536587,000000A3,false,Rx,0,8,00,40,01,00,00,00,00,00,
536605,00000162,false,Rx,0,8,FF,FC,01,00,00,00,00,00,
541561,000001E6,false,Rx,0,8,79,FB,5A,02,00,00,00,00,
542566,000001BB,false,Rx,0,8,ED,00,5A,02,00,00,00,0A,
542585,00000146,false,Rx,0,8,92,BE,E1,10,04,05,00,00,
542602,000001BC,false,Rx,0,8,32,00,00,00,02,00,00,00,
542620,00000147,false,Rx,0,8,01,04,7D,00,40,98,08,00,
543561,000001BD,false,Rx,0,8,00,00,00,00,00,00,00,00,
543584,00000148,false,Rx,0,8,00,00,42,00,1E,91,40,05,
543602,000001E7,false,Rx,0,8,00,00,22,03,20,01,00,00,
543620,00000149,false,Rx,0,8,00,38,00,D4,00,00,00,00,
544565,000002BF,false,Rx,0,8,FF,FF,FF,00,00,00,00,00,
544587,0000047F,false,Rx,0,8,FF,FC,FF,FF,FF,3F,F3,FF,
544604,00000653,false,Rx,0,8,0A,19,03,01,02,2A,00,00,
547151,0000011B,false,Rx,0,8,64,20,C9,05,80,08,A8,02,
547188,0000012B,false,Rx,0,8,23,DA,C9,06,00,00,08,00,
547205,0000011C,false,Rx,0,8,00,05,20,00,22,00,01,01,
547241,0000012C,false,Rx,0,8,00,00,01,00,00,64,00,00,
547259,000001B1,false,Rx,0,8,C2,B6,E1,00,72,00,00,00,
547277,000001B3,false,Rx,0,8,25,37,4B,00,85,91,95,90,
548720,000001B4,false,Rx,0,8,91,91,10,00,00,41,01,00,
548773,0000010B,false,Rx,0,8,E9,1A,D8,00,00,00,00,05,
548791,0000010C,false,Rx,0,8,FF,F9,E7,1F,46,44,46,46,
549911,0000010D,false,Rx,0,8,10,03,00,00,00,00,01,35,
549946,0000010E,false,Rx,0,8,00,00,1E,00,00,C0,AB,57,
551569,000001AB,false,Rx,0,8,AD,E9,36,50,70,38,00,00,
551592,000001AC,false,Rx,0,8,00,28,00,00,00,00,00,00,
553470,00000226,false,Rx,0,8,DE,DC,0B,FF,30,E1,05,42,
553513,00000227,false,Rx,0,8,02,70,E1,08,00,F2,17,04,
553878,00000475,false,Rx,0,8,12,00,00,00,00,00,00,00,
553907,00000496,false,Rx,0,8,12,00,00,00,00,00,00,00,
557596,00000111,false,Rx,0,8,85,DB,8C,01,00,00,00,00,
557635,00000112,false,Rx,0,8,00,00,00,00,00,00,00,00,
557654,00000113,false,Rx,0,8,00,00,00,00,00,00,00,00,
558600,00000114,false,Rx,0,8,00,00,00,00,00,00,00,00,
566592,0000019B,false,Rx,0,8,4D,F9,D6,00,00,E4,00,00,
566638,000001A1,false,Rx,0,8,AE,8A,E5,FE,F7,7F,64,00,
566656,0000019C,false,Rx,0,8,40,20,00,00,00,00,0B,09,
566674,000001A2,false,Rx,0,8,00,00,00,00,00,08,00,00,
566692,0000019D,false,Rx,0,8,00,10,00,01,00,00,00,00,
567638,000001A3,false,Rx,0,8,FF,F3,3F,00,00,00,00,00,
568605,0000019E,false,Rx,0,8,15,00,00,00,00,32,00,00,
568635,000001A4,false,Rx,0,8,FE,07,00,00,00,00,00,00,
568653,0000036F,false,Rx,0,8,30,A1,01,00,00,00,00,00,
569802,0000037F,false,Rx,0,8,93,40,52,24,41,02,00,00,
571122,0000030B,false,Rx,0,8,2B,7F,2F,00,04,00,00,00,
571157,0000030C,false,Rx,0,8,00,00,0E,00,2C,00,A0,0F,
571175,000003A1,false,Rx,0,8,73,5B,A8,00,FF,FF,FF,FF,
571211,0000030D,false,Rx,0,8,00,00,00,00,48,00,00,00,
572848,000003A2,false,Rx,0,8,00,00,00,00,00,00,00,00,
572922,0000030E,false,Rx,0,8,00,00,38,05,21,00,00,FE,
575354,00000121,false,Rx,0,8,99,F0,D9,00,00,00,00,05,
575391,00000122,false,Rx,0,8,FF,D9,67,1F,46,46,46,46,
575408,00000123,false,Rx,0,8,11,03,00,00,00,00,01,35,
575577,00000124,false,Rx,0,8,00,00,0A,00,00,00,20,40,
579591,00000036,false,Rx,0,8,8A,4C,DB,51,00,00,25,01,
579635,00000037,false,Rx,0,8,3A,00,00,10,00,40,00,00,
579654,00000038,false,Rx,0,8,04,00,00,00,50,38,96,D4,
580600,00000039,false,Rx,0,8,00,00,00,00,00,00,00,00,
582652,00000061,false,Rx,0,8,96,D8,E1,00,00,00,00,00,
582693,00000062,false,Rx,0,8,02,02,00,02,40,FF,00,FF,
582711,00000063,false,Rx,0,8,00,00,05,00,00,08,FD,00,
583662,00000064,false,Rx,0,8,00,00,00,04,FF,FA,00,00,
583695,00000401,false,Rx,0,8,A9,30,10,00,00,04,00,00,
583714,000000A1,false,Rx,0,8,A0,E2,E1,1A,00,00,00,00,
583731,000000A2,false,Rx,0,8,00,00,00,00,00,00,00,00,
584830,000000A3,false,Rx,0,8,00,40,01,00,00,00,00,00,
586436,000000FF,false,Rx,0,8,CB,10,00,00,00,00,02,00,
586612,00000394,false,Rx,0,8,2A,22,1A,49,00,00,00,00,
586631,000003C3,false,Rx,0,8,45,10,31,30,36,00,00,00,
587733,000003E0,false,Rx,0,8,66,20,01,00,54,03,00,00,
587768,000001F1,false,Rx,0,8,6E,A3,2D,01,00,00,28,00,
587786,000001F2,false,Rx,0,8,00,00,00,00,00,00,00,00,
590433,00000405,false,Rx,0,8,BD,30,00,00,00,01,00,00,
590468,00000413,false,Rx,0,8,6F,30,00,00,00,00,00,00,
590486,000000C5,false,Rx,0,8,00,00,00,00,00,00,00,00,
590504,00000410,false,Rx,0,8,4B,80,59,3C,16,6B,FF,FF,
590521,00000236,false,Rx,0,8,07,B4,2F,00,6E,3C,34,6C,
590945,00000151,false,Rx,0,8,68,D1,2F,A0,C8,00,28,19,
590972,000001F6,false,Rx,0,8,5B,F2,2F,00,00,00,00,0E,
591582,00000152,false,Rx,0,8,16,18,18,00,0B,00,00,00,
591609,000001F7,false,Rx,0,8,0B,00,00,00,00,00,00,00,
591627,00000153,false,Rx,0,8,00,00,00,00,00,00,00,00,
592712,000001F8,false,Rx,0,8,00,00,00,00,00,00,00,00,
592758,00000154,false,Rx,0,8,00,00,00,00,00,00,00,00,
592776,000001F9,false,Rx,0,8,00,00,A0,C8,14,00,00,00,
592794,000002FB,false,Rx,0,8,5F,5A,2F,04,5F,1A,CC,CC,
592811,0000025B,false,Rx,0,8,D7,F7,2F,40,40,20,00,00,
594491,000002FC,false,Rx,0,8,0F,00,16,19,00,00,8E,BF,
594527,0000025C,false,Rx,0,8,00,00,0B,00,34,89,19,00,
594807,000002FD,false,Rx,0,8,00,00,00,00,00,1C,0E,EA,
594827,0000025D,false,Rx,0,8,00,C8,00,00,00,80,C0,70,
594845,000002FE,false,Rx,0,8,00,00,72,01,00,28,00,00,
594862,00000326,false,Rx,0,8,A1,AC,2F,00,00,00,00,00,
594880,000003E6,false,Rx,0,8,67,90,00,00,00,00,00,00,
595799,00000327,false,Rx,0,8,00,00,00,00,05,00,00,00,
595832,00000380,false,Rx,0,8,73,DE,00,0C,0C,0C,0C,01,
595851,00000328,false,Rx,0,8,00,00,00,00,00,00,00,00,
596266,00000412,false,Rx,0,8,6D,60,00,00,00,00,00,00,
596304,0000011B,false,Rx,0,8,FB,48,CE,05,80,08,A8,02,
596325,0000012B,false,Rx,0,8,BC,B2,CE,06,00,00,08,00,
596589,0000011C,false,Rx,0,8,00,05,20,00,22,00,01,01,
598257,0000012C,false,Rx,0,8,00,00,01,00,00,64,00,00,
598672,00000329,false,Rx,0,8,A0,00,00,00,00,00,00,00,
598712,00000383,false,Rx,0,8,FC,DC,02,10,01,00,00,00,
598734,00000331,false,Rx,0,8,B2,E3,2F,F1,C8,A0,2C,97,
598752,00000414,false,Rx,0,8,F0,10,00,00,28,00,00,00,
598769,00000333,false,Rx,0,8,00,00,00,1C,0C,40,20,A0,
598787,00000417,false,Rx,0,8,5F,20,00,00,00,00,00,00,
599577,0000010B,false,Rx,0,8,96,36,DD,00,00,00,00,05,
599606,00000334,false,Rx,0,8,C8,00,00,00,AC,70,1D,90,
599625,0000010C,false,Rx,0,8,FF,F9,E7,1F,46,44,46,46,
599642,00000418,false,Rx,0,8,19,70,00,00,12,0C,00,00,
600691,0000010D,false,Rx,0,8,10,03,00,00,00,00,01,35,
600726,000002AB,false,Rx,0,8,2D,DB,30,0C,0C,00,00,00,
600760,0000010E,false,Rx,0,8,00,00,1E,00,00,C0,AB,57,
600777,000002AC,false,Rx,0,8,00,FF,FF,00,00,40,00,50,
600795,00000419,false,Rx,0,8,94,C0,7B,D6,59,86,90,00,
602076,00000251,false,Rx,0,8,0F,BB,2F,00,00,00,00,00,
602527,000002AD,false,Rx,0,8,00,01,00,40,FF,FF,FF,0F,
603459,00000252,false,Rx,0,8,00,00,1B,1B,03,00,00,00,
603481,000002AE,false,Rx,0,8,01,00,FF,3F,01,01,00,00,
603498,00000253,false,Rx,0,8,00,00,00,56,55,00,80,44,
603516,000002B6,false,Rx,0,8,57,EC,30,01,00,00,00,40,
603914,000002B7,false,Rx,0,8,EA,01,F0,78,00,04,00,00,
603956,000002B9,false,Rx,0,8,0A,00,00,00,00,00,00,00,
603974,0000041A,false,Rx,0,8,8D,D0,12,00,00,00,00,00,
604895,000002E1,false,Rx,0,8,0E,FE,30,00,00,00,00,40,
604928,0000041B,false,Rx,0,8,70,D0,00,00,00,00,00,00,
604946,000002E2,false,Rx,0,8,FD,00,00,00,00,14,00,04,
606256,000002E3,false,Rx,0,8,00,00,00,00,00,00,72,01,
606564,00000432,false,Rx,0,8,03,20,02,00,00,00,00,00,
608078,000004B5,false,Rx,0,8,08,00,F0,07,00,00,00,00,
609628,00000445,false,Rx,0,8,C6,C0,00,00,00,00,00,18,
609673,000004CE,false,Rx,0,8,14,01,FF,FF,FF,FF,FF,FF,
609691,00000464,false,Rx,0,8,D5,20,F0,FF,38,7F,05,00,
614255,000004DF,false,Rx,0,8,FF,03,0C,3F,00,00,00,00,
614325,000004E7,false,Rx,0,8,00,30,00,00,00,00,69,00,
615027,00000563,false,Rx,0,8,65,02,00,00,00,00,FF,FF,
615079,00000640,false,Rx,0,8,FF,FF,FF,00,FF,FF,FF,00,
621770,00000356,false,Rx,0,8,B5,4D,98,00,00,00,00,00,
625338,00000121,false,Rx,0,8,6A,6E,DE,00,00,00,00,05,
625373,00000122,false,Rx,0,8,FF,D9,67,1F,46,46,46,46,
625391,00000123,false,Rx,0,8,11,03,00,00,00,00,01,35,
625561,00000124,false,Rx,0,8,00,00,0A,00,00,00,20,40,
627011,000001E1,false,Rx,0,8,06,DF,5D,02,00,00,00,00,
627051,000001E2,false,Rx,0,8,00,00,00,00,00,00,00,00,
628044,00000419,false,Rx,0,8,6B,D0,7A,D6,59,86,90,00,
629734,00000036,false,Rx,0,8,5C,10,E0,51,00,00,25,01,
629769,00000037,false,Rx,0,8,3A,00,00,10,00,40,00,00,
629787,00000038,false,Rx,0,8,04,00,00,00,50,38,96,D4,
630832,00000039,false,Rx,0,8,00,00,00,00,00,00,00,00,
632716,00000091,false,Rx,0,8,87,F0,2E,02,00,00,00,00,
632753,00000092,false,Rx,0,8,2B,00,00,00,B0,02,00,00,
632771,00000061,false,Rx,0,8,65,46,E6,00,00,00,00,00,
632789,00000062,false,Rx,0,8,02,02,00,02,40,FF,00,FF,
633592,00000063,false,Rx,0,8,00,00,05,00,00,08,FD,00,
633628,000003B6,false,Rx,0,8,EA,E1,96,00,00,00,00,46,
633646,00000064,false,Rx,0,8,00,00,00,04,FF,FA,00,00,
633664,000003B7,false,Rx,0,8,46,00,00,00,00,00,00,00,
634567,00000093,false,Rx,0,8,00,00,00,00,00,00,00,00,
634587,000003B8,false,Rx,0,8,0C,03,00,00,00,00,69,0E,
634605,00000094,false,Rx,0,8,00,00,00,00,00,00,00,00,
636347,000003B9,false,Rx,0,8,00,00,00,00,00,00,00,00,
636380,000000A1,false,Rx,0,8,A9,67,E6,1A,00,00,00,00,
636397,000000A2,false,Rx,0,8,00,00,00,00,00,00,00,00,
636415,000000A3,false,Rx,0,8,00,40,01,00,00,00,00,00,
636433,00000161,false,Rx,0,8,C2,AC,E9,03,00,00,00,02,
642594,00000146,false,Rx,0,8,97,E6,E6,10,04,05,00,00,
642641,00000147,false,Rx,0,8,01,04,7D,00,40,97,08,00,
642659,00000148,false,Rx,0,8,00,00,42,00,1E,91,40,05,
642677,00000149,false,Rx,0,8,00,38,00,D4,00,00,00,00,
646592,0000011B,false,Rx,0,8,82,52,D3,05,80,08,A8,02,
646629,0000012B,false,Rx,0,8,C5,A8,D3,06,00,00,08,00,
646647,0000011C,false,Rx,0,8,00,05,20,00,22,00,01,01,
646665,0000012C,false,Rx,0,8,00,00,01,00,00,64,00,00,
647606,000001B1,false,Rx,0,8,31,28,E6,00,72,00,00,00,
647640,00000495,false,Rx,0,8,49,00,00,00,00,00,00,00,
647659,000001B2,false,Rx,0,8,23,00,04,EF,25,08,52,10,
647676,000003AA,false,Rx,0,8,FF,00,B0,00,54,00,00,00,
649110,000001B3,false,Rx,0,8,25,37,4B,00,85,91,95,90,
649165,000001B4,false,Rx,0,8,91,91,10,00,00,41,01,00,
649183,0000010B,false,Rx,0,8,79,1F,E2,00,00,00,00,05,
649201,0000010C,false,Rx,0,8,FF,F9,E7,1F,46,44,46,46,
649218,0000010D,false,Rx,0,8,10,03,00,00,00,00,01,35,
650112,0000010E,false,Rx,0,8,00,00,1E,00,00,C0,AB,57,
651568,000001AB,false,Rx,0,8,DE,D0,3B,50,70,38,00,00,
651592,000001AC,false,Rx,0,8,00,28,00,00,00,00,00,00,
653132,000002FF,false,Rx,0,8,E2,01,00,F1,3F,00,00,00,
653183,00000316,false,Rx,0,8,88,30,86,04,13,80,0A,00,
653200,0000034B,false,Rx,0,8,D2,BC,EB,31,D8,0D,05,01,
653218,00000317,false,Rx,0,8,00,00,05,00,00,00,00,00,
653236,0000034C,false,Rx,0,8,00,00,00,00,00,00,00,00,
653253,0000034E,false,Rx,0,8,00,00,00,00,00,00,00,00,
653569,00000472,false,Rx,0,8,5C,EC,00,40,08,41,00,45,
655253,00000473,false,Rx,0,8,5F,24,00,25,00,00,00,78,
655288,00000474,false,Rx,0,8,93,44,00,00,00,00,00,14,
658082,000003B0,false,Rx,0,8,72,37,FF,C7,00,00,03,C0,
660591,000003B1,false,Rx,0,8,9B,3C,FF,40,00,00,20,00,
661599,00000448,false,Rx,0,8,00,C0,00,00,00,00,00,00,
665589,00000384,false,Rx,0,8,C5,8D,05,01,00,FF,00,14,
666603,0000019B,false,Rx,0,8,96,63,E0,00,00,E4,00,00,
667213,000001A1,false,Rx,0,8,2F,FE,EA,FE,F7,7F,64,00,
667235,0000019C,false,Rx,0,8,40,20,00,00,00,00,0B,09,
667252,000001A2,false,Rx,0,8,00,00,00,00,00,08,00,00,
667270,0000019D,false,Rx,0,8,00,10,00,01,00,00,00,00,
667288,000001A3,false,Rx,0,8,FF,F3,3F,00,00,00,00,00,
667896,000001A4,false,Rx,0,8,FE,07,00,00,00,00,00,00,
667927,0000042A,false,Rx,0,8,9F,1D,02,02,00,10,00,00,
667945,0000036F,false,Rx,0,8,89,B1,01,00,00,00,00,00,
668593,00000419,false,Rx,0,8,6B,D0,7A,D6,59,86,90,00,
668623,0000037F,false,Rx,0,8,2A,50,52,24,41,02,00,00,
668643,000003B2,false,Rx,0,8,36,15,FF,02,29,2F,34,00,
674589,00000427,false,Rx,0,8,1D,86,FF,00,80,0A,00,00,
675617,00000121,false,Rx,0,8,09,F5,E3,00,00,00,00,05,
675650,00000122,false,Rx,0,8,FF,D9,67,1F,46,46,46,46,
675669,00000123,false,Rx,0,8,11,03,00,00,00,00,01,35,
675687,00000124,false,Rx,0,8,00,00,0A,00,00,00,20,40,
679587,00000036,false,Rx,0,8,23,3C,E5,51,00,00,25,01,
679630,00000487,false,Rx,0,8,00,00,00,00,00,00,00,00,
679648,00000037,false,Rx,0,8,3A,00,00,10,00,40,00,00,
680568,00000642,false,Rx,0,8,FF,FF,FF,FF,FF,FF,00,00,
680598,00000038,false,Rx,0,8,04,00,00,00,50,38,96,D4,
680617,00000645,false,Rx,0,8,C7,35,06,79,E0,32,56,00,
680634,00000039,false,Rx,0,8,00,00,00,00,00,00,00,00,
682593,00000061,false,Rx,0,8,68,80,EB,00,00,00,00,00,
682626,00000062,false,Rx,0,8,02,02,00,02,40,FF,00,FF,
682644,00000063,false,Rx,0,8,00,00,05,00,00,08,FD,00,
683894,00000064,false,Rx,0,8,00,00,00,04,FF,FA,00,00,
683929,000000A1,false,Rx,0,8,9F,24,EB,1A,00,00,00,00,
683947,000000A2,false,Rx,0,8,00,00,00,00,00,00,00,00,
683965,000000A3,false,Rx,0,8,00,40,01,00,00,00,00,00,
691589,000001E6,false,Rx,0,8,E6,93,5D,02,00,00,00,00,
694765,000001E7,false,Rx,0,8,00,00,22,03,20,01,00,00,
695343,000001BB,false,Rx,0,8,E4,85,5D,02,00,00,00,0A,
695371,000001BC,false,Rx,0,8,32,00,00,00,02,00,00,00,
695391,000001BD,false,Rx,0,8,00,00,00,00,00,00,00,00,
696597,0000011B,false,Rx,0,8,4A,AB,D8,05,80,08,A8,02,
696627,0000012B,false,Rx,0,8,0D,51,D8,06,00,00,08,00,
696645,0000011C,false,Rx,0,8,00,05,20,00,22,00,01,01,
696662,0000012C,false,Rx,0,8,00,00,01,00,00,64,00,00,
697878,000001FB,false,Rx,0,8,C2,CE,2F,00,00,00,00,00,
698264,000001FC,false,Rx,0,8,00,00,00,00,00,00,00,00,
698288,000001FD,false,Rx,0,8,00,1A,03,00,00,00,00,00,
698306,000001FE,false,Rx,0,8,00,00,00,00,00,00,00,00,
700215,0000010B,false,Rx,0,8,F0,E6,E7,00,00,00,00,05,
700250,0000010C,false,Rx,0,8,FF,F9,E7,1F,46,45,46,46,
700269,0000010D,false,Rx,0,8,10,03,00,00,00,00,01,35,
700286,0000010E,false,Rx,0,8,00,00,1E,00,00,C0,AB,57,
700714,000002C1,false,Rx,0,8,78,66,99,21,00,41,00,AB,
700740,000002C2,false,Rx,0,8,13,00,00,00,00,00,00,00,
701581,000002C3,false,Rx,0,8,00,00,00,00,00,00,00,00,
701608,000002C4,false,Rx,0,8,00,00,00,00,00,00,00,00,
708589,00000419,false,Rx,0,8,6B,D0,7A,D6,59,86,90,00,
710627,00000565,false,Rx,0,8,66,02,00,00,00,00,FF,FF,
716587,0000019B,false,Rx,0,8,E9,4F,E5,00,00,E4,00,00,
716625,0000019C,false,Rx,0,8,40,20,00,00,00,00,0B,09,
716644,0000019D,false,Rx,0,8,00,10,00,01,00,00,00,00,
716662,0000019E,false,Rx,0,8,15,00,00,00,00,32,00,00,
719916,000004A3,false,Rx,0,8,80,00,48,0B,3E,00,00,00,
719957,000004A4,false,Rx,0,8,FF,FF,FF,00,00,00,00,00,
719976,000004F0,false,Rx,0,8,4A,10,33,30,58,1A,18,02,
720574,0000033B,false,Rx,0,8,6A,F9,31,00,00,00,00,00,
720599,0000033C,false,Rx,0,8,00,00,00,00,F0,00,00,00,
721566,0000033D,false,Rx,0,8,00,00,00,00,00,00,00,00,
721590,0000033E,false,Rx,0,8,00,00,00,00,00,00,00,00,
725592,00000121,false,Rx,0,8,B1,F4,E8,00,00,00,00,05,
725632,00000122,false,Rx,0,8,FF,D9,67,1F,46,46,46,46,
725650,00000123,false,Rx,0,8,11,03,00,00,00,00,01,35,
725668,00000124,false,Rx,0,8,00,00,0A,00,00,00,20,40,
727748,00000382,false,Rx,0,8,C5,F7,11,00,00,05,05,00,
729701,00000036,false,Rx,0,8,A2,48,EA,51,00,00,25,01,
729737,00000037,false,Rx,0,8,3A,00,00,10,00,40,00,00,
729756,00000038,false,Rx,0,8,04,00,00,00,50,38,96,D4,
730828,00000039,false,Rx,0,8,00,00,00,00,00,00,00,00,
731589,000002E6,false,Rx,0,8,EA,17,2E,01,00,00,00,15,
731616,00000256,false,Rx,0,8,CF,C6,2E,15,40,00,10,01,
732652,000002E7,false,Rx,0,8,0A,00,00,00,00,00,00,00,
732843,00000091,false,Rx,0,8,E6,B8,2F,02,00,00,00,00,
732861,00000257,false,Rx,0,8,00,93,41,1B,86,07,00,94,
732878,00000061,false,Rx,0,8,15,45,F0,00,00,00,00,00,
732896,00000258,false,Rx,0,8,0B,6E,1E,00,10,15,00,28,
734401,00000062,false,Rx,0,8,02,02,00,02,40,FF,00,FF,
734456,00000259,false,Rx,0,8,62,05,8D,3C,4C,02,00,00,
734474,00000063,false,Rx,0,8,00,00,05,00,00,08,FD,00,
734491,000002E8,false,Rx,0,8,00,00,00,00,00,00,00,00,
734509,00000064,false,Rx,0,8,00,00,00,04,FF,FA,00,00,
734881,00000092,false,Rx,0,8,2A,00,00,00,A0,02,00,00,
736173,00000093,false,Rx,0,8,00,00,00,00,00,00,00,00,
737410,00000094,false,Rx,0,8,00,00,00,00,00,00,00,00,
737463,000000A1,false,Rx,0,8,F0,95,F0,1A,00,00,00,00,
737482,000000A2,false,Rx,0,8,00,00,00,00,00,00,00,00,
737499,00000161,false,Rx,0,8,5D,C4,EE,03,00,00,00,02,
737517,00000162,false,Rx,0,8,FF,FC,01,00,00,00,00,00,
737535,000001F1,false,Rx,0,8,17,B9,30,01,00,00,28,00,
742385,00000146,false,Rx,0,8,6C,E6,EB,10,04,05,00,00,
742420,00000147,false,Rx,0,8,01,04,7D,00,40,98,08,00,
742439,00000148,false,Rx,0,8,00,00,42,00,1E,91,40,05,
743661,00000149,false,Rx,0,8,00,38,00,D4,00,00,00,00,
744939,000002BF,false,Rx,0,8,FF,FF,FF,00,00,00,00,00,
747856,0000047F,false,Rx,0,8,FF,FC,FF,FF,FF,3F,F3,FF,
747933,00000653,false,Rx,0,8,0A,19,03,01,02,2A,00,00,
747952,0000011B,false,Rx,0,8,BC,83,DD,05,80,08,A8,02,
747970,0000012B,false,Rx,0,8,FB,79,DD,06,00,00,08,00,
747987,0000011C,false,Rx,0,8,00,05,20,00,22,00,01,01,
748005,0000012C,false,Rx,0,8,00,00,01,00,00,64,00,00,
749041,0000010B,false,Rx,0,8,BE,32,EC,00,00,00,00,05,
749078,0000010C,false,Rx,0,8,FF,F9,E7,1F,46,44,46,46,
749480,0000010D,false,Rx,0,8,10,03,00,00,00,00,01,35,
749514,0000010E,false,Rx,0,8,00,00,1E,00,00,C0,AB,57,
752517,000001AB,false,Rx,0,8,20,C0,40,50,70,38,00,00,
752809,000001AC,false,Rx,0,8,00,28,00,00,00,00,00,00,
752863,00000226,false,Rx,0,8,65,1C,0D,FF,30,E1,05,42,
752882,00000227,false,Rx,0,8,02,70,E1,08,00,F2,17,04,
752899,00000475,false,Rx,0,8,12,00,00,00,00,00,00,00,
753588,00000496,false,Rx,0,8,12,00,00,00,00,00,00,00,
757565,00000111,false,Rx,0,8,C3,82,8D,01,00,00,00,00,
757585,00000112,false,Rx,0,8,00,00,00,00,00,00,00,00,
757603,00000113,false,Rx,0,8,00,00,00,00,00,00,00,00,
758565,00000114,false,Rx,0,8,00,00,00,00,00,00,00,00,
759564,000004F0,false,Rx,0,8,4A,10,33,30,58,1A,18,02,
766561,0000019B,false,Rx,0,8,68,3B,EA,00,00,E4,00,00,
766580,000001A1,false,Rx,0,8,50,D2,EF,FE,F7,7F,64,00,
766598,0000019C,false,Rx,0,8,40,20,00,00,00,00,0B,09,
766621,000001A2,false,Rx,0,8,00,00,00,00,00,08,00,00,
766639,0000019D,false,Rx,0,8,00,10,00,01,00,00,00,00,
767566,000001A3,false,Rx,0,8,FF,F3,3F,00,00,00,00,00,
767587,0000019E,false,Rx,0,8,15,00,00,00,00,32,00,00,
767605,000001A4,false,Rx,0,8,FE,07,00,00,00,00,00,00,
768564,0000036F,false,Rx,0,8,81,C1,01,00,00,00,00,00,
768582,0000037F,false,Rx,0,8,FC,60,52,24,41,02,00,00,
770569,0000030B,false,Rx,0,8,1A,00,31,00,04,00,00,00,
770590,0000030C,false,Rx,0,8,00,00,0E,00,2C,00,A0,0F,
770608,000003A1,false,Rx,0,8,57,F3,A9,00,FF,FF,FF,FF,
771564,0000030D,false,Rx,0,8,00,00,00,00,48,00,00,00,
771585,000003A2,false,Rx,0,8,00,00,00,00,00,00,00,00,
771603,0000030E,false,Rx,0,8,00,00,38,05,21,00,00,02,
775564,00000121,false,Rx,0,8,CE,D8,ED,00,00,00,00,05,
775585,00000122,false,Rx,0,8,FF,D9,67,1F,46,46,46,46,
775602,00000123,false,Rx,0,8,11,03,00,00,00,00,01,35,
775620,00000124,false,Rx,0,8,00,00,0A,00,00,00,20,40,
776564,000001E1,false,Rx,0,8,6B,83,60,02,00,00,00,00,
776584,000001E2,false,Rx,0,8,00,00,00,00,00,00,00,00,
779580,00000036,false,Rx,0,8,DD,64,EF,51,00,00,25,01,
779607,00000037,false,Rx,0,8,3A,00,00,10,00,40,00,00,
780582,00000038,false,Rx,0,8,04,00,00,00,50,38,96,D4,
780612,00000039,false,Rx,0,8,00,00,00,00,00,00,00,00,
782568,00000061,false,Rx,0,8,6A,69,F5,00,00,00,00,00,
782591,00000062,false,Rx,0,8,02,02,00,02,40,FF,00,FF,
782608,00000063,false,Rx,0,8,00,00,05,00,00,08,FD,00,
783571,00000064,false,Rx,0,8,00,00,00,04,FF,FA,00,00,
783596,000000A1,false,Rx,0,8,FF,7E,F5,1A,00,00,00,00,
783614,00000401,false,Rx,0,8,A9,30,10,00,00,04,00,00,
783632,000000A2,false,Rx,0,8,00,00,00,00,00,00,00,00,
784568,000000A3,false,Rx,0,8,00,40,01,00,00,00,00,00,
785567,000000FF,false,Rx,0,8,CB,10,00,00,00,00,02,00,
786571,00000394,false,Rx,0,8,2A,22,1A,49,00,00,00,00,
786596,000003C3,false,Rx,0,8,45,10,31,30,36,00,00,00,
787565,000003E0,false,Rx,0,8,66,20,01,00,54,03,00,00,
788567,00000405,false,Rx,0,8,BD,30,00,00,00,01,00,00,
788589,00000413,false,Rx,0,8,6F,30,00,00,00,00,00,00,
788607,00000410,false,Rx,0,8,4B,80,59,3C,16,6B,FF,FF,
788624,00000414,false,Rx,0,8,F0,10,00,00,28,00,00,00,
789565,000003E5,false,Rx,0,8,37,80,01,00,00,00,00,00,
789590,00000236,false,Rx,0,8,05,5D,31,00,6E,3C,34,6C,
789607,000003E6,false,Rx,0,8,67,90,00,00,00,00,00,00,
789625,000000C5,false,Rx,0,8,00,00,00,00,00,00,00,00,
790565,00000237,false,Rx,0,8,00,15,BA,00,00,A8,1E,00,
790590,00000244,false,Rx,0,8,FF,FF,FF,FF,FF,FF,FF,FF,
790608,00000151,false,Rx,0,8,6A,38,31,A0,C8,00,28,19,
790625,00000238,false,Rx,0,8,00,00,5F,00,00,00,00,00,
791568,00000152,false,Rx,0,8,16,18,18,00,0B,00,00,00,
791593,000001F6,false,Rx,0,8,59,1B,31,00,00,00,00,0E,
791611,00000153,false,Rx,0,8,00,00,00,00,00,00,00,00,
791629,000001F7,false,Rx,0,8,0B,00,00,00,00,00,00,00,
792565,00000154,false,Rx,0,8,00,00,00,00,00,00,00,00,
792591,000001F8,false,Rx,0,8,00,00,00,00,00,00,00,00,
792609,000002FB,false,Rx,0,8,5D,B3,31,04,5F,1A,CC,CC,
792627,000001F9,false,Rx,0,8,00,00,A0,C8,14,00,00,00,
793565,000002FC,false,Rx,0,8,0F,00,16,19,00,00,8E,BF,
793590,00000239,false,Rx,0,8,00,00,00,00,01,00,00,00,
793607,000002FD,false,Rx,0,8,00,00,00,00,00,1C,0E,EA,
793625,0000025B,false,Rx,0,8,3B,4E,31,40,40,20,00,00,
795909,000002FE,false,Rx,0,8,00,00,72,01,00,28,00,00,
795948,0000025C,false,Rx,0,8,00,00,0B,00,34,89,19,00,
795966,00000326,false,Rx,0,8,A3,45,31,00,00,00,00,00,
796095,0000025D,false,Rx,0,8,00,C8,00,00,00,80,C0,70,
796114,00000327,false,Rx,0,8,00,00,00,00,05,00,00,00,
796132,00000380,false,Rx,0,8,73,DE,00,0C,0C,0C,0C,01,
796149,0000012B,false,Rx,0,8,FF,65,E2,06,00,00,08,00,
796808,0000011C,false,Rx,0,8,00,05,20,00,22,00,01,01,
796836,0000012C,false,Rx,0,8,00,00,01,00,00,64,00,00,
796854,00000331,false,Rx,0,8,B0,0A,31,F1,C8,A0,2C,97,
798135,00000383,false,Rx,0,8,FC,DC,02,10,01,00,00,00,
798170,00000332,false,Rx,0,8,94,02,00,00,00,00,00,00,
798188,000003E4,false,Rx,0,8,FE,00,00,00,00,00,00,00,
798206,00000333,false,Rx,0,8,00,00,00,1C,0C,40,20,A0,
798224,00000411,false,Rx,0,8,A8,01,50,50,00,00,44,04,
799173,00000334,false,Rx,0,8,C8,00,00,00,AC,70,1D,90,
799227,00000412,false,Rx,0,8,6D,60,00,00,00,00,00,00,
799245,0000010B,false,Rx,0,8,76,30,F1,00,00,00,00,05,
799681,00000417,false,Rx,0,8,5F,20,00,00,00,00,00,00,
801155,000002AB,false,Rx,0,8,A1,69,32,0C,0C,00,00,00,
801206,0000010E,false,Rx,0,8,00,00,1E,00,00,C0,AB,57,
801224,000002AC,false,Rx,0,8,00,FF,FF,00,00,40,00,50,
801242,00000418,false,Rx,0,8,19,70,00,00,12,0C,00,00,
801260,00000251,false,Rx,0,8,0D,F7,31,00,00,00,00,00,
801661,000002AD,false,Rx,0,8,00,01,00,40,FF,FF,FF,0F,
801687,00000252,false,Rx,0,8,00,00,1B,1B,03,00,00,00,
801705,000002AE,false,Rx,0,8,01,00,FF,3F,01,01,00,00,
803243,00000253,false,Rx,0,8,00,00,00,55,56,00,80,44,
803276,000002B6,false,Rx,0,8,DB,5E,32,01,00,00,00,40,
803294,00000396,false,Rx,0,8,CE,7A,98,0F,08,01,00,02,
803312,000002B7,false,Rx,0,8,EA,01,F0,78,00,04,00,00,
803456,00000397,false,Rx,0,8,10,00,00,00,00,00,00,00,
803473,00000398,false,Rx,0,8,00,00,00,00,00,00,00,00,
803801,000002B9,false,Rx,0,8,0A,00,00,00,00,00,00,00,
803844,00000419,false,Rx,0,8,6B,D0,7A,D6,59,86,90,00,
805182,000002E1,false,Rx,0,8,82,4C,32,00,00,00,00,40,
805215,0000041A,false,Rx,0,8,8D,D0,12,00,00,00,00,00,
805233,000002E2,false,Rx,0,8,FD,00,00,00,00,14,00,04,
805251,0000041B,false,Rx,0,8,70,D0,00,00,00,00,00,00,
805268,000002E3,false,Rx,0,8,00,00,00,00,00,00,72,01,
805689,0000041C,false,Rx,0,8,48,00,E0,00,00,00,00,00,
805714,000002E4,false,Rx,0,8,02,00,00,00,00,00,00,00,
806578,00000422,false,Rx,0,8,9D,70,01,00,00,00,04,00,
806602,000004B4,false,Rx,0,8,00,00,00,00,00,00,00,00,
806619,00000432,false,Rx,0,8,03,20,02,00,00,00,00,00,
806637,000004B5,false,Rx,0,8,08,00,F0,07,00,00,00,00,
807788,00000435,false,Rx,0,8,26,C0,00,40,00,00,00,00,
807822,000004B7,false,Rx,0,8,08,00,F0,07,00,00,00,00,
807839,00000442,false,Rx,0,8,CE,20,11,81,00,00,00,00,
807857,000004CA,false,Rx,0,8,00,00,00,00,00,00,00,00,
808246,00000444,false,Rx,0,8,D5,20,20,50,55,50,00,00,
809386,000004CC,false,Rx,0,8,08,00,00,06,00,00,03,00,
809558,00000445,false,Rx,0,8,C6,C0,00,00,00,00,00,18,
809575,000004CE,false,Rx,0,8,14,01,FF,FF,FF,FF,FF,FF,
809593,00000464,false,Rx,0,8,D5,20,F0,FF,38,7F,05,00,
809610,000004D7,false,Rx,0,8,23,01,00,00,00,00,00,00,
809628,000004D8,false,Rx,0,8,41,10,F0,F0,40,F2,1E,CC,
811179,000004DD,false,Rx,0,8,00,00,FE,00,04,00,00,00,
811214,000004DF,false,Rx,0,8,FF,03,0C,3F,00,00,00,00,
811232,000004E7,false,Rx,0,8,00,30,00,00,00,00,69,00,
811249,000004E8,false,Rx,0,8,FF,FF,FF,05,FF,FF,FF,00,
811267,000004E9,false,Rx,0,8,12,00,00,34,00,00,50,00,
811674,000004EB,false,Rx,0,8,10,80,33,30,80,00,00,00,
811697,000004EC,false,Rx,0,8,00,00,00,00,00,00,00,00,
814207,000004ED,false,Rx,0,8,00,00,00,00,00,FF,FF,1F,
814296,000004EE,false,Rx,0,8,FF,FF,00,00,00,00,00,00,
814314,000004EF,false,Rx,0,8,60,00,60,00,29,14,00,00,
814332,000004F0,false,Rx,0,8,4A,10,33,30,58,1A,18,02,
814349,0000063D,false,Rx,0,8,00,80,00,00,00,00,00,00,
814367,0000063E,false,Rx,0,8,FF,FF,FF,FF,FF,FF,FF,FF,
815810,0000019B,false,Rx,0,8,17,17,EF,00,00,E4,00,00,
815972,0000019C,false,Rx,0,8,40,20,00,00,00,00,0B,09,
816592,0000019D,false,Rx,0,8,00,10,00,01,00,00,00,00,
816616,0000019E,false,Rx,0,8,15,00,00,00,00,32,00,00,
817565,000002D6,false,Rx,0,8,79,04,98,00,00,00,00,00,
817590,000002EB,false,Rx,0,8,0B,BD,98,09,08,00,00,02,
817608,000002D7,false,Rx,0,8,00,00,00,00,03,00,00,00,
819425,000002EC,false,Rx,0,8,02,00,00,00,00,00,00,00,
819788,000002D8,false,Rx,0,8,00,00,00,00,00,00,38,45,
819828,000002ED,false,Rx,0,8,00,00,00,00,00,00,00,00,
819851,000002D9,false,Rx,0,8,00,00,00,00,00,00,00,00,
819869,000002EE,false,Rx,0,8,00,00,00,00,00,00,00,00,
821397,00000356,false,Rx,0,8,F3,14,99,00,00,00,00,00,
821451,00000357,false,Rx,0,8,00,00,00,00,00,4B,4D,48,
821470,00000358,false,Rx,0,8,35,41,45,4D,52,37,33,4F,
821488,00000359,false,Rx,0,8,51,4F,34,52,4A,35,33,00,
825590,00000121,false,Rx,0,8,8A,68,F2,00,00,00,00,05,
825629,00000122,false,Rx,0,8,FF,D9,67,1F,46,46,46,46,
825648,00000123,false,Rx,0,8,11,03,00,00,00,00,01,35,
825665,00000124,false,Rx,0,8,00,00,0A,00,00,00,20,40,
829698,00000036,false,Rx,0,8,A0,A1,F4,51,00,00,25,01,
829735,00000037,false,Rx,0,8,3A,00,00,10,00,40,00,00,
829753,00000038,false,Rx,0,8,04,00,00,00,50,38,96,D4,
830576,00000039,false,Rx,0,8,00,00,00,00,00,00,00,00,
832985,00000091,false,Rx,0,8,57,7F,30,02,00,00,00,00,
833022,00000092,false,Rx,0,8,2D,00,00,00,D0,02,00,00,
833040,00000061,false,Rx,0,8,EB,1D,FA,00,00,00,00,00,
833058,00000062,false,Rx,0,8,02,02,00,02,40,FF,00,FF,
833076,00000063,false,Rx,0,8,00,00,05,00,00,08,FD,00,
834204,000003B6,false,Rx,0,8,AC,B8,97,00,00,00,00,46,
834239,00000064,false,Rx,0,8,00,00,00,04,FF,FA,00,00,
834257,000003B7,false,Rx,0,8,46,00,00,00,00,00,00,00,
834275,00000093,false,Rx,0,8,00,00,00,00,00,00,00,00,
834293,000003B8,false,Rx,0,8,0C,03,00,00,00,00,69,0E,
834740,00000094,false,Rx,0,8,00,00,00,00,00,00,00,00,
834766,000003B9,false,Rx,0,8,00,00,00,00,00,00,00,00,
836149,000000A1,false,Rx,0,8,CF,53,FA,1A,00,00,00,00,
836184,000000A2,false,Rx,0,8,00,00,00,00,00,00,00,00,
836202,000000A3,false,Rx,0,8,00,40,01,00,00,00,00,00,
836220,00000161,false,Rx,0,8,24,DE,F3,03,00,00,00,02,
836238,00000162,false,Rx,0,8,FF,FC,01,00,00,00,00,00,
841592,000001E6,false,Rx,0,8,8B,CF,60,02,00,00,00,00,
842601,000001BB,false,Rx,0,8,27,06,60,02,00,00,00,0A,
842633,00000146,false,Rx,0,8,11,23,F0,10,04,05,00,00,
842651,000001BC,false,Rx,0,8,32,00,00,00,02,00,00,00,
842682,00000147,false,Rx,0,8,01,04,7D,00,40,98,08,00,
842700,000001BD,false,Rx,0,8,00,00,00,00,00,00,00,00,
843577,00000148,false,Rx,0,8,00,00,42,00,1E,91,40,05,
843599,000001E7,false,Rx,0,8,00,00,22,03,20,01,00,00,
843617,00000149,false,Rx,0,8,00,38,00,D4,00,00,00,00,
846620,0000011B,false,Rx,0,8,4E,B7,E7,05,80,08,A8,02,
847016,0000012B,false,Rx,0,8,09,4D,E7,06,00,00,08,00,
847069,0000011C,false,Rx,0,8,00,05,20,00,22,00,01,01,
848373,0000012C,false,Rx,0,8,00,00,01,00,00,64,00,00,
848393,000001B1,false,Rx,0,8,04,44,F0,00,72,00,00,00,
848411,00000495,false,Rx,0,8,49,00,00,00,00,00,00,00,
848428,000001B2,false,Rx,0,8,23,00,04,EF,25,08,52,10,
848446,000003AA,false,Rx,0,8,FF,00,B0,00,54,00,00,00,
849790,0000010B,false,Rx,0,8,73,7B,F6,00,00,00,00,05,
849833,0000010C,false,Rx,0,8,FF,F9,E7,1F,46,45,46,46,
849851,0000010D,false,Rx,0,8,10,03,00,00,00,00,01,35,
849869,0000010E,false,Rx,0,8,00,00,1E,00,00,C0,AB,57,
852368,000001AB,false,Rx,0,8,D6,E8,45,50,70,38,00,00,
852547,000001AC,false,Rx,0,8,00,28,00,00,00,00,00,00,
852565,00000316,false,Rx,0,8,AC,98,87,04,13,80,0A,00,
852583,00000317,false,Rx,0,8,00,00,05,00,00,00,00,00,
852601,000003CB,false,Rx,0,8,36,14,00,F4,00,00,00,00,
852618,000003CC,false,Rx,0,8,36,31,34,30,33,34,31,00,
853686,00000473,false,Rx,0,8,5F,24,00,25,00,00,00,78,
853721,00000474,false,Rx,0,8,93,44,00,00,00,00,00,14,
855588,000002FF,false,Rx,0,8,E2,01,00,F1,3F,00,00,00,
859349,000003B0,false,Rx,0,8,72,37,FF,C7,00,00,03,C0,
860891,000003B1,false,Rx,0,8,9B,3C,FF,40,00,00,20,00,
862096,00000448,false,Rx,0,8,00,C0,00,00,00,00,00,00,
865587,00000384,false,Rx,0,8,C5,8D,05,01,00,FF,00,14,
866602,0000019B,false,Rx,0,8,6A,D2,F4,00,00,E4,00,00,
866645,000001A1,false,Rx,0,8,2D,17,F4,FE,F7,7F,64,00,
866663,0000019C,false,Rx,0,8,40,20,00,00,00,00,0B,09,
867770,000001A2,false,Rx,0,8,00,00,00,00,00,08,00,00,
867807,0000019D,false,Rx,0,8,00,10,00,01,00,00,00,00,
867825,000001A3,false,Rx,0,8,FF,F3,3F,00,00,00,00,00,
867860,0000019E,false,Rx,0,8,15,00,00,00,00,32,00,00,
867878,000001A4,false,Rx,0,8,FE,07,00,00,00,00,00,00,
869408,0000036F,false,Rx,0,8,38,D1,01,00,00,00,00,00,
869479,0000037F,false,Rx,0,8,45,70,52,24,41,02,00,00,
869498,000003B2,false,Rx,0,8,36,15,FF,02,29,2F,34,00,
874596,00000427,false,Rx,0,8,1D,86,FF,00,80,0A,00,00,
875599,00000121,false,Rx,0,8,F5,44,F7,00,00,00,00,05,
875632,00000122,false,Rx,0,8,FF,D9,67,1F,46,46,46,46,
875650,00000123,false,Rx,0,8,11,03,00,00,00,00,01,35,
875668,00000124,false,Rx,0,8,00,00,0A,00,00,00,20,40,
879749,00000036,false,Rx,0,8,AD,67,F9,51,00,00,25,01,
879787,00000037,false,Rx,0,8,3A,00,00,10,00,40,00,00,
879806,00000038,false,Rx,0,8,04,00,00,00,50,38,96,D4,
880612,00000039,false,Rx,0,8,00,00,00,00,00,00,00,00,
880645,00000487,false,Rx,0,8,00,00,00,00,00,00,00,00,
881645,00000642,false,Rx,0,8,FF,FF,FF,FF,FF,FF,00,00,
883304,00000061,false,Rx,0,8,94,31,FF,00,00,00,00,00,
883339,00000062,false,Rx,0,8,02,02,00,02,40,FF,00,FF,
883357,00000063,false,Rx,0,8,00,00,05,00,00,08,FD,00,
883741,00000064,false,Rx,0,8,00,00,00,04,FF,FA,00,00,
883765,000000A1,false,Rx,0,8,C0,B8,FF,1A,00,00,00,00,
883783,000000A2,false,Rx,0,8,00,00,00,00,00,00,00,00,
883801,000000A3,false,Rx,0,8,00,40,01,00,00,00,00,00,
887726,000001F1,false,Rx,0,8,5A,51,33,01,00,00,28,00,
887764,000001F2,false,Rx,0,8,00,00,00,00,00,00,00,00,
892529,00000643,false,Rx,0,8,00,FC,FF,FF,FF,FF,03,00,
896592,0000011B,false,Rx,0,8,86,4E,EC,05,80,08,A8,02,
896633,0000012B,false,Rx,0,8,C1,B4,EC,06,00,00,08,00,
896650,0000011C,false,Rx,0,8,00,05,20,00,22,00,01,01,
896668,0000012C,false,Rx,0,8,00,00,01,00,00,64,00,00,
897608,000001FB,false,Rx,0,8,C0,27,31,00,00,00,00,00,
897641,000001FC,false,Rx,0,8,00,00,00,00,00,00,00,00,
897659,000001FD,false,Rx,0,8,00,1A,03,00,00,00,00,00,
897676,000001FE,false,Rx,0,8,00,00,00,00,00,00,00,00,
899041,0000010B,false,Rx,0,8,88,68,FB,00,00,00,00,05,
899075,0000010C,false,Rx,0,8,FF,F9,E7,1F,46,44,46,46,
901468,0000010D,false,Rx,0,8,10,03,00,00,00,00,01,35,
901905,0000010E,false,Rx,0,8,00,00,1E,00,00,C0,AB,57,
901947,000002C1,false,Rx,0,8,B2,8D,9A,21,00,41,00,AB,
901965,000002C2,false,Rx,0,8,13,00,00,00,00,00,00,00,
901983,000002C3,false,Rx,0,8,00,00,00,00,00,00,00,00,
902001,000002C4,false,Rx,0,8,00,00,00,00,00,00,00,00,
908583,00000516,false,Rx,0,8,61,02,00,00,00,00,FF,FF,
917226,0000019B,false,Rx,0,8,67,14,F9,00,00,E4,00,00,
917264,0000019C,false,Rx,0,8,40,20,00,00,00,00,0B,09,
917282,0000019D,false,Rx,0,8,00,10,00,01,00,00,00,00,
917300,0000019E,false,Rx,0,8,15,00,00,00,00,32,00,00,
920601,0000033B,false,Rx,0,8,E6,4B,33,00,00,00,00,00,
920641,000004A3,false,Rx,0,8,80,00,48,0B,3E,00,00,00,
924013,0000033C,false,Rx,0,8,00,00,00,00,F0,00,00,00,
924048,000004A4,false,Rx,0,8,FF,FF,FF,00,00,00,00,00,
924066,0000033D,false,Rx,0,8,00,00,00,00,00,00,00,00,
924084,0000033E,false,Rx,0,8,00,00,00,00,00,00,00,00,
925318,00000121,false,Rx,0,8,4D,45,FC,00,00,00,00,05,
925337,00000122,false,Rx,0,8,FF,D9,67,1F,46,46,46,46,
925562,00000123,false,Rx,0,8,11,03,00,00,00,00,01,35,
925588,00000124,false,Rx,0,8,00,00,0A,00,00,00,20,40,
929451,000001E1,false,Rx,0,8,26,6B,63,02,00,00,00,00,
929487,000001E2,false,Rx,0,8,00,00,00,00,00,00,00,00,
929505,00000382,false,Rx,0,8,C5,F7,11,00,00,05,05,00,
930610,00000036,false,Rx,0,8,5E,F9,FE,51,00,00,25,01,
930657,00000037,false,Rx,0,8,3A,00,00,10,00,40,00,00,
930675,00000038,false,Rx,0,8,04,00,00,00,50,38,96,D4,
