Time Stamp,ID,Extended,Dir,Bus,LEN,D1,D2,D3,D4,D5,D6,D7,D8
147914,642,false,Rx,0,8,FF,FF,FF,FF,FF,FF,0,0
149280,432,false,Rx,0,8,3,20,2,0,0,0,0,0
150756,435,false,Rx,0,8,26,C0,0,40,0,0,0,0
150827,442,false,Rx,0,8,CE,20,11,81,0,0,0,0
152031,444,false,Rx,0,8,D5,20,20,50,55,50,0,0
152096,445,false,Rx,0,8,C6,C0,0,0,0,0,0,18
152115,464,false,Rx,0,8,D5,20,F0,FF,38,7F,5,0
153157,146,false,Rx,0,8,E2,CD,14,10,4,1,0,0
153197,147,false,Rx,0,8,0,4,7D,0,40,0,0,0
153215,148,false,Rx,0,8,0,0,0,0,0,90,40,5
153233,149,false,Rx,0,8,0,0,0,0,0,0,0,0
154334,000003AA,false,Rx,0,8,FF,0,B0,0,54,0,0,0
154369,495,false,Rx,0,8,49,0,0,0,0,0,0,0
157349,0000010B,false,Rx,0,8,B7,13,3E,0,0,0,0,5
158756,0000010C,false,Rx,0,8,FF,F9,E7,1F,46,44,46,46
158783,0000010D,false,Rx,0,8,10,3,0,0,0,0,1,35
158801,0000010E,false,Rx,0,8,0,0,0A,0,0,C0,AB,57
158819,000001B1,false,Rx,0,8,E7,50,14,0,72,0,0,0
158836,000001B4,false,Rx,0,8,95,91,17,0,0,40,1,0
163584,0000036F,false,Rx,0,8,81,C1,1,0,0,0,0,0
163617,419,false,Rx,0,8,B6,40,8F,D6,79,86,90,0
163634,0000037F,false,Rx,0,8,FC,60,52,24,41,2,0,0
163652,380,false,Rx,0,8,AD,D7,FF,0,0,0,0,1
165565,000001A1,false,Rx,0,8,54,74,18,FE,F7,7F,64,0
165587,000001A2,false,Rx,0,8,0,0,0,0,0,8,0,0
165605,000001A3,false,Rx,0,8,FF,F3,3F,0,0,0,0,0
165623,000001A4,false,Rx,0,8,FE,7,0,0,0,0,0,0
167565,000003B0,false,Rx,0,8,72,37,FF,C7,0,0,3,C0
168566,000003B1,false,Rx,0,8,9B,3C,FF,40,0,0,20,0
169575,448,false,Rx,0,8,0,C0,0,0,0,0,0,0
172566,0000019B,false,Rx,0,8,81,5D,3C,0,0,E4,0,0
172587,0000019C,false,Rx,0,8,40,20,0,0,0,0,0B,9
172605,0000019D,false,Rx,0,8,0,10,0,1,0,0,0,0
173567,0000019E,false,Rx,0,8,15,0,0,0,0,32,0,0
175565,000001E1,false,Rx,0,8,BB,18,0A,2,0,0,0,0
175586,000001E2,false,Rx,0,8,0,0,0,0,0,0,0,0
178565,000003B2,false,Rx,0,8,36,15,FF,2,29,2F,34,0
181572,121,false,Rx,0,8,1E,CB,3F,0,0,0,0,5
181592,122,false,Rx,0,8,FF,D9,67,1F,46,46,46,46
181610,123,false,Rx,0,8,11,3,0,0,0,0,1,35
181628,124,false,Rx,0,8,0,0,0A,0,0,0,20,40
182567,427,false,Rx,0,8,1D,86,FF,0,80,0A,0,0
186589,36,false,Rx,0,8,FF,44,41,51,0,0,25,1
186618,37,false,Rx,0,8,0,0,0,10,0,40,0,0
186636,38,false,Rx,0,8,4,0,0,0,50,38,96,D4
187570,39,false,Rx,0,8,0,0,0,0,0,0,0,0
189571,000004A3,false,Rx,0,8,80,0,48,0B,3E,0,0,0
189602,000004A4,false,Rx,0,8,FF,FF,FF,0,0,0,0,0
189619,61,false,Rx,0,8,66,C0,47,0,0,0,0,0
189637,62,false,Rx,0,8,2,2,0,2,40,FF,0,FF
190563,63,false,Rx,0,8,0,0,5,0,0,8,FD,0
190588,64,false,Rx,0,8,0,0,0,4,FF,FA,0,0
190606,000000A1,false,Rx,0,8,D6,F2,47,1A,0,0,0,0
191562,000000A2,false,Rx,0,8,0,0,0,0,0,0,0,0
191589,000000A3,false,Rx,0,8,0,40,1,0,0,0,0,0
192563,0000042A,false,Rx,0,8,F4,DE,FF,1,0,10,0,0
194570,0000011B,false,Rx,0,8,50,F8,34,5,80,8,A8,2
194593,0000012B,false,Rx,0,8,17,2,34,6,0,0,8,0
194610,0000011C,false,Rx,0,8,0,5,20,0,22,0,1,1
195570,0000012C,false,Rx,0,8,0,0,1,0,0,64,0,0
195594,000001FB,false,Rx,0,8,97,0F,5,0,0,0,0,0
195612,000001FC,false,Rx,0,8,0,0,0,0,0,0,0,0
195630,000001FD,false,Rx,0,8,0,1A,3,0,0,0,0,0
196562,000001FE,false,Rx,0,8,0,0,0,0,0,0,0,0
203595,419,false,Rx,0,8,B6,40,8F,D6,79,86,90,0
206601,0000010B,false,Rx,0,8,55,7E,43,0,0,0,0,5
206641,0000010C,false,Rx,0,8,FF,F9,E7,1F,46,45,46,46
206659,0000010D,false,Rx,0,8,10,3,0,0,0,0,1,35
206677,0000010E,false,Rx,0,8,0,0,0A,0,0,C0,AB,57
207651,000002C1,false,Rx,0,8,10,E0,84,21,0,41,0,AA
209008,000002C2,false,Rx,0,8,17,0,0,0,0,0,0,0
209047,000002C3,false,Rx,0,8,0,0,0,0,0,0,0,0
209066,000002C4,false,Rx,0,8,0,0,0,0,0,0,0,0
213590,516,false,Rx,0,8,61,2,0,0,0,0,FF,FF
222586,0000019B,false,Rx,0,8,95,E5,41,0,0,E4,0,0
222625,0000019C,false,Rx,0,8,40,20,0,0,0,0,0B,9
222644,0000019D,false,Rx,0,8,0,10,0,1,0,0,0,0
223605,0000019E,false,Rx,0,8,15,0,0,0,0,32,0,0
225098,401,false,Rx,0,8,A9,30,10,0,0,4,0,0
226610,000001AB,false,Rx,0,8,95,3F,69,50,70,38,0,0
226647,000001AC,false,Rx,0,8,0,28,0,0,0,0,0,0
227028,0000033B,false,Rx,0,8,B1,63,7,0,0,0,0,0
227585,0000033C,false,Rx,0,8,0,0,0,0,F0,0,0,0
227608,0000033D,false,Rx,0,8,0,0,0,0,0,0,0,0
229082,000002FF,false,Rx,0,8,E2,1,0,F1,3F,0,0,0
229471,316,false,Rx,0,8,C8,1A,71,34,14,80,0A,0
230492,472,false,Rx,0,8,5C,EC,0,40,8,41,0,45
230519,317,false,Rx,0,8,0,0,5,0,0,0,0,0
231559,473,false,Rx,0,8,5F,24,0,25,0,0,0,78
232771,474,false,Rx,0,8,93,44,0,0,0,0,0,14
232854,121,false,Rx,0,8,BF,B4,44,0,0,0,0,5
232873,122,false,Rx,0,8,FF,D9,67,1F,46,46,46,46
232891,123,false,Rx,0,8,11,3,0,0,0,0,1,35
234461,124,false,Rx,0,8,0,0,0A,0,0,0,20,40
234502,161,false,Rx,0,8,73,65,1C,3,0,0,0,2
234566,162,false,Rx,0,8,FF,FC,1,0,0,0,0,0
236643,36,false,Rx,0,8,0C,DA,46,51,0,0,25,1
236679,37,false,Rx,0,8,0,0,0,10,0,40,0,0
236697,38,false,Rx,0,8,4,0,0,0,50,38,96,D4
238335,39,false,Rx,0,8,0,0,0,0,0,0,0,0
238508,000002E6,false,Rx,0,8,BF,D6,4,1,0,0,0,15
238527,256,false,Rx,0,8,16,C6,4,15,40,0,F0,0
239635,000002E7,false,Rx,0,8,0A,0,0,0,0,0,0,0
239694,257,false,Rx,0,8,0,93,41,18,86,7,0,93
239712,000002E8,false,Rx,0,8,0,0,0,0,0,0,0,0
239730,258,false,Rx,0,8,0B,71,1E,0,10,15,0,28
240127,61,false,Rx,0,8,DE,C1,4C,0,0,0,0,0
240177,259,false,Rx,0,8,50,5,8A,3C,4C,2,0,0
240196,62,false,Rx,0,8,2,2,0,2,40,FF,0,FF
240214,000002E9,false,Rx,0,8,0,0,0,0,0,0,0,0
241406,63,false,Rx,0,8,0,0,5,0,0,8,FD,0
241440,0000048B,false,Rx,0,8,B2,99,B4,1E,1,0,0,0
241458,64,false,Rx,0,8,0,0,0,4,FF,FA,0,0
241476,0000048C,false,Rx,0,8,0,0,0,0,0,0,0,0
241493,000000A1,false,Rx,0,8,EA,3,4C,1A,0,0,0,0
242867,91,false,Rx,0,8,CF,AB,5,0,0,0,0,0
242902,92,false,Rx,0,8,0,0,0,0,0,0,0,0
244096,93,false,Rx,0,8,0,0,0,0,0,0,0,0
244138,94,false,Rx,0,8,0,0,0,0,0,0,0,0
244156,000000A2,false,Rx,0,8,0,0,0,0,0,0,0,0
244174,000000A3,false,Rx,0,8,0,40,1,0,0,0,0,0
245814,0000011B,false,Rx,0,8,23,C1,39,5,80,8,A8,2
245849,0000012B,false,Rx,0,8,64,3B,39,6,0,0,8,0
245867,0000011C,false,Rx,0,8,0,5,20,0,22,0,1,1
245885,0000012C,false,Rx,0,8,0,0,1,0,0,64,0,0
248709,000002BF,false,Rx,0,8,FF,FF,FF,0,0,0,0,0
250093,000001E6,false,Rx,0,8,5B,54,0A,2,0,0,0,0
250128,0000047F,false,Rx,0,8,FF,FF,FF,FF,FF,FF,F3,FF
250146,000001BB,false,Rx,0,8,D3,51,0A,2,0,0,0,0A
250163,653,false,Rx,0,8,0A,19,3,1,2,2A,0,0
250181,000001BC,false,Rx,0,8,32,0,0,0,2,0,0,0
250199,000001BD,false,Rx,0,8,0,0,0,0,0,0,0,0
250611,000001E7,false,Rx,0,8,0,0,22,3,20,1,0,0
251802,146,false,Rx,0,8,EF,0B,19,10,4,1,0,0
251837,147,false,Rx,0,8,0,4,7D,0,40,0,0,0
252272,148,false,Rx,0,8,0,0,0,0,0,90,40,5
252296,149,false,Rx,0,8,0,0,0,0,0,0,0,0
256571,0000010B,false,Rx,0,8,1B,AA,48,0,0,0,0,5
256594,0000010C,false,Rx,0,8,FF,F9,E7,1F,46,44,46,46
256612,0000010D,false,Rx,0,8,10,3,0,0,0,0,1,35
257879,0000010E,false,Rx,0,8,0,0,0A,0,0,C0,AB,57
257897,000001B1,false,Rx,0,8,EA,96,19,0,72,0,0,0
257915,000001B2,false,Rx,0,8,23,0,4,0F,0F,7,52,10
257933,000001B3,false,Rx,0,8,10,2C,0,0,87,91,96,90
257950,000001B4,false,Rx,0,8,95,91,17,0,0,40,1,0
260469,000000C5,false,Rx,0,8,0,0,0,0,0,0,0,0
260901,244,false,Rx,0,8,FF,FF,FF,FF,FF,FF,FF,FF
260928,0000041F,false,Rx,0,8,0,0C,0,0,0,0,0,0
260946,000004B4,false,Rx,0,8,0,0,0,0,0,0,0,0
260963,475,false,Rx,0,8,12,0,0,0,0,0,0,0
260996,000004B5,false,Rx,0,8,8,0,F0,7,0,0,0,0
261014,000004B7,false,Rx,0,8,8,0,F0,7,0,0,0,0
262087,000004CA,false,Rx,0,8,0,0,0,0,0,0,0,0
262121,000004CC,false,Rx,0,8,8,0,0,6,0,0,3,0
262139,000004CE,false,Rx,0,8,14,1,FF,FF,FF,FF,FF,FF
262157,000004D7,false,Rx,0,8,23,1,0,0,0,0,0,0
263460,000004D8,false,Rx,0,8,41,10,F0,F0,40,F2,1E,CC
263495,000004DD,false,Rx,0,8,0,0,FE,0,4,0,0,0
263513,000004DF,false,Rx,0,8,FF,3,0C,3F,0,0,0,0
263530,0000036F,false,Rx,0,8,38,D1,1,0,0,0,0,0
264022,000004E7,false,Rx,0,8,0,30,0,0,0,0,69,0
264066,0000037F,false,Rx,0,8,45,70,52,24,41,2,0,0
264105,000004E8,false,Rx,0,8,FF,FF,FF,5,FF,FF,FF,0
264122,000004E9,false,Rx,0,8,12,0,0,34,0,0,50,0
266771,111,false,Rx,0,8,4B,96,78,1,0,0,0,0
266865,000001A1,false,Rx,0,8,2B,58,1D,FE,F7,7F,64,0
266884,112,false,Rx,0,8,0,0,0,0,0,0,0,0
266902,000001A2,false,Rx,0,8,0,0,0,0,0,8,0,0
266919,113,false,Rx,0,8,0,0,0,0,0,0,0,0
266937,000001A3,false,Rx,0,8,FF,F3,3F,0,0,0,0,0
267563,000004ED,false,Rx,0,8,0,0,0,0,0,FF,FF,1F
267593,000004EE,false,Rx,0,8,FF,FF,0,0,0,0,0,0
268558,000004EF,false,Rx,0,8,60,0,60,0,29,14,0,0
268583,0000063D,false,Rx,0,8,0,80,0,0,0,0,0,0
268601,0000063E,false,Rx,0,8,FF,FF,FF,FF,FF,FF,FF,FF
268619,0000063F,false,Rx,0,8,0,10,0,C4,FF,0,0,0
269664,640,false,Rx,0,8,FF,FF,FF,0,FF,FF,FF,0
269703,641,false,Rx,0,8,FF,FF,FF,FF,0F,FF,FF,FF
269720,646,false,Rx,0,8,0,0,0,80,1,0,0,0
273204,0000019B,false,Rx,0,8,66,7B,46,0,0,E4,0,0
273589,0000019C,false,Rx,0,8,40,20,0,0,0,0,0B,9
273617,0000019D,false,Rx,0,8,0,10,0,1,0,0,0,0
273635,0000019E,false,Rx,0,8,15,0,0,0,0,32,0,0
276715,0000030B,false,Rx,0,8,0,53,7,0,4,0,0,0
277596,0000030C,false,Rx,0,8,0,0,0E,0,2C,0,A0,0F
277629,0000030D,false,Rx,0,8,0,0,0,0,49,0,0,0
277647,0000030E,false,Rx,0,8,0,0,38,5,21,0,0,4
282010,121,false,Rx,0,8,B2,72,49,0,0,0,0,5
282052,122,false,Rx,0,8,FF,D9,67,1F,46,46,46,46
282070,123,false,Rx,0,8,11,3,0,0,0,0,1,35
282088,124,false,Rx,0,8,0,0,0A,0,0,0,20,40
284114,405,false,Rx,0,8,BD,30,0,0,0,1,0,0
284149,413,false,Rx,0,8,6F,30,0,0,0,0,0,0
284167,410,false,Rx,0,8,4B,80,59,3C,16,6B,FF,FF
284185,414,false,Rx,0,8,F0,10,0,0,28,0,0,0
284203,411,false,Rx,0,8,A8,1,50,50,0,0,44,4
284624,412,false,Rx,0,8,6D,60,0,0,0,0,0,0
284649,417,false,Rx,0,8,5F,20,0,0,0,0,0,0
286150,418,false,Rx,0,8,19,70,0,0,12,0C,0,0
286186,419,false,Rx,0,8,B6,40,8F,D6,79,86,90,0
286204,36,false,Rx,0,8,1,1C,4B,51,0,0,25,1
286592,37,false,Rx,0,8,0,0,0,10,0,40,0,0
286614,38,false,Rx,0,8,4,0,0,0,50,38,96,D4
287565,39,false,Rx,0,8,0,0,0,0,0,0,0,0
289588,61,false,Rx,0,8,16,C3,51,0,0,0,0,0
289624,62,false,Rx,0,8,2,2,0,2,40,FF,0,FF
291111,63,false,Rx,0,8,0,0,5,0,0,8,FD,0
291167,64,false,Rx,0,8,0,0,0,4,FF,FA,0,0
291185,000000A1,false,Rx,0,8,8F,0,51,1A,0,0,0,0
292325,000000A2,false,Rx,0,8,0,0,0,0,0,0,0,0
292410,000000A3,false,Rx,0,8,0,40,1,0,0,0,0,0
294595,0000011B,false,Rx,0,8,BC,A9,3E,5,80,8,A8,2
294634,0000012B,false,Rx,0,8,FB,53,3E,6,0,0,8,0
294653,0000011C,false,Rx,0,8,0,5,20,0,22,0,1,1
295569,0000012C,false,Rx,0,8,0,0,1,0,0,64,0,0
295591,000001F1,false,Rx,0,8,29,42,DD,1,0,0,28,0
295609,151,false,Rx,0,8,B1,A2,7,A0,C8,0,28,19
295627,000001F2,false,Rx,0,8,0,0,0,0,0,0,0,0
296694,152,false,Rx,0,8,16,18,18,0,0B,0,0,0
296743,236,false,Rx,0,8,13,7C,7,0,6E,3C,34,6C
296760,153,false,Rx,0,8,0,0,0,0,0,0,0,0
296778,000001F6,false,Rx,0,8,82,81,7,0,0,0,0,0E
298074,154,false,Rx,0,8,0,0,0,0,0,0,0,0
299352,000001F7,false,Rx,0,8,0B,0,0,0,0,0,0,0
299373,000002FB,false,Rx,0,8,ED,8B,7,4,5F,1A,CC,CC
299391,000001F8,false,Rx,0,8,0,0,0,0,0,0,0,0
299807,000002FC,false,Rx,0,8,3,0,16,19,0,0,8E,BF
301118,000002FD,false,Rx,0,8,0,0,0,0,0,1C,0E,EA
301138,239,false,Rx,0,8,0,0,0,0,1,0,0,0
301156,327,false,Rx,0,8,0,0,0,0,5,0,0,0
301174,0000025B,false,Rx,0,8,7E,46,7,40,40,20,0,0
301192,328,false,Rx,0,8,0,0,0,0,0,0,0,0
301209,331,false,Rx,0,8,6B,90,7,F1,C8,A0,2C,97
301567,0000025E,false,Rx,0,8,16,7,0E,2,0,0,0,0
302609,332,false,Rx,0,8,94,2,0,0,0,0,0,0
302646,382,false,Rx,0,8,F1,7A,1,0,0,1,8,0
302967,333,false,Rx,0,8,0,0,0,1C,0C,40,20,A0
302987,334,false,Rx,0,8,C8,0,0,0,AC,70,1D,90
306607,0000010B,false,Rx,0,8,64,86,4D,0,0,0,0,5
306644,0000010C,false,Rx,0,8,FF,F9,E7,1F,46,44,46,46
306663,0000010D,false,Rx,0,8,10,3,0,0,0,0,1,35
306681,0000010E,false,Rx,0,8,0,0,0A,0,0,C0,AB,57
307605,000002AB,false,Rx,0,8,31,6C,8,0C,0C,0,0,0
307638,000002AC,false,Rx,0,8,0,FF,FF,0,0,40,0,50
308648,000002AD,false,Rx,0,8,0,1,0,40,FF,FF,FF,0F
308703,485,false,Rx,0,8,0,40,11,2,0,0,0,0
308721,251,false,Rx,0,8,5D,DC,7,0,0,0,0,0
308738,000002AE,false,Rx,0,8,1,0,FF,3F,1,1,0,0
308756,252,false,Rx,0,8,0,0,0,0,3,0,0,0
310647,000002B6,false,Rx,0,8,43,1D,8,1,0,0,0,40
310702,253,false,Rx,0,8,0,0,0,51,51,0,80,44
310721,000002B7,false,Rx,0,8,8,2,F0,0,0,4,0,0
310739,396,false,Rx,0,8,F9,C9,83,0F,8,1,0,2
310756,000002B8,false,Rx,0,8,AA,11,11,0,0,0,0,0
310774,000002B9,false,Rx,0,8,0A,0,0,0,0,0,0,0
311882,000002E1,false,Rx,0,8,12,49,8,0,0,0,0,40
312284,000002E2,false,Rx,0,8,FD,0,0,0,0,14,0,4
312324,000002E3,false,Rx,0,8,0,0,0,0,0,0,72,1
312346,000002E4,false,Rx,0,8,2,0,0,0,0,0,0,0
312363,561,false,Rx,0,8,63,2,0,0,0,0,FF,FF
317595,383,false,Rx,0,8,12,ED,1,0,2,0,0,0
322587,0000019B,false,Rx,0,8,6B,BD,4B,0,0,E4,0,0
322626,0000019C,false,Rx,0,8,40,20,0,0,0,0,0B,9
322644,0000019D,false,Rx,0,8,0,10,0,1,0,0,0,0
323640,0000019E,false,Rx,0,8,15,0,0,0,0,32,0,0
325854,000002D6,false,Rx,0,8,4,C1,83,0,0,0,0,0
326054,000002EB,false,Rx,0,8,90,88,83,9,8,1,0,2
326072,000002D7,false,Rx,0,8,0,0,0,0,3,0,0,0
326089,000002EC,false,Rx,0,8,2,0,0,0,0,0,0,0
326107,000002D8,false,Rx,0,8,0,0,0,0,0,0,38,45
326125,000001E1,false,Rx,0,8,24,70,0D,2,0,0,0,0
326142,000003A2,false,Rx,0,8,0,0,0,0,0,0,0,0
326770,415,false,Rx,0,8,40,13,10,0,8,1,0,0
327690,000001AB,false,Rx,0,8,0A,57,6E,50,70,38,0,0
327723,226,false,Rx,0,8,32,F2,E3,FF,43,E1,5,42
328599,000001AC,false,Rx,0,8,0,28,0,0,0,0,0,0
328628,227,false,Rx,0,8,2,70,E1,8,0,F2,17,4
328646,356,false,Rx,0,8,3B,16,84,0,0,0,0,0
328664,357,false,Rx,0,8,0,0,0,0,0,4B,4D,48
330384,358,false,Rx,0,8,35,41,45,4D,52,37,33,4F
330448,359,false,Rx,0,8,51,4F,34,52,4A,35,33,0
332031,121,false,Rx,0,8,41,EC,4E,0,0,0,0,5
332407,122,false,Rx,0,8,FF,D9,67,1F,46,46,46,46
332433,123,false,Rx,0,8,11,3,0,0,0,0,1,35
332454,124,false,Rx,0,8,0,0,0A,0,0,0,20,40
335016,161,false,Rx,0,8,1E,39,21,3,0,0,0,2
335056,162,false,Rx,0,8,FF,FC,1,0,0,0,0,0
337027,36,false,Rx,0,8,7C,D9,50,51,0,0,25,1
337232,37,false,Rx,0,8,0,0,0,10,0,40,0,0
337251,38,false,Rx,0,8,4,0,0,0,50,38,96,D4
337269,39,false,Rx,0,8,0,0,0,0,0,0,0,0
338785,384,false,Rx,0,8,E9,DC,2,0,0,FF,0,21
338820,000003B6,false,Rx,0,8,16,50,82,0,0,0,0,46
340735,000003B7,false,Rx,0,8,46,0,0,0,0,0,0,0
340788,000003B8,false,Rx,0,8,0C,3,0,0,0,0,69,0E
340807,61,false,Rx,0,8,E5,5D,56,0,0,0,0,0
340824,000003B9,false,Rx,0,8,0,0,0,0,0,0,0,0
340842,62,false,Rx,0,8,2,2,0,2,40,FF,0,FF
340859,63,false,Rx,0,8,0,0,5,0,0,8,FD,0
343958,000000A2,false,Rx,0,8,0,0,0,0,0,0,0,0
343993,000000A3,false,Rx,0,8,0,40,1,0,0,0,0,0
344011,91,false,Rx,0,8,5,40,6,0,0,0,0,0
344029,92,false,Rx,0,8,0,0,0,0,0,0,0,0
344046,93,false,Rx,0,8,0,0,0,0,0,0,0,0
345421,0000011B,false,Rx,0,8,F9,79,43,5,80,8,A8,2
345455,0000012B,false,Rx,0,8,BE,83,43,6,0,0,8,0
345473,0000011C,false,Rx,0,8,0,5,20,0,22,0,1,1
345491,0000012C,false,Rx,0,8,0,0,1,0,0,64,0,0
345508,000003E5,false,Rx,0,8,37,80,1,0,0,0,0,0
346908,000003E6,false,Rx,0,8,67,90,0,0,0,0,0,0
346943,0000041A,false,Rx,0,8,8D,D0,12,0,0,0,0,0
347526,0000041B,false,Rx,0,8,70,D0,0,0,0,0,0,0
347694,0000041C,false,Rx,0,8,48,0,E0,0,0,0,0,0
347733,422,false,Rx,0,8,9D,70,1,0,0,0,4,0
348639,444,false,Rx,0,8,D5,20,20,50,55,50,0,0
348661,445,false,Rx,0,8,C6,C0,0,0,0,0,0,18
349622,464,false,Rx,0,8,D5,20,F0,FF,38,7F,5,0
349643,487,false,Rx,0,8,0,0,0,0,0,0,0,0
349672,642,false,Rx,0,8,FF,FF,FF,FF,FF,FF,0,0
351592,146,false,Rx,0,8,1C,95,1E,10,4,1,0,0
352835,147,false,Rx,0,8,0,4,7D,0,40,0,0,0
353210,148,false,Rx,0,8,0,0,0,0,0,90,40,5
353245,149,false,Rx,0,8,0,0,0,0,0,0,0,0
353575,000003AA,false,Rx,0,8,FF,0,B0,0,54,0,0,0
354565,495,false,Rx,0,8,49,0,0,0,0,0,0,0
356242,0000010B,false,Rx,0,8,20,36,52,0,0,0,0,5
356422,0000010C,false,Rx,0,8,FF,F9,E7,1F,46,44,46,46
356439,0000010D,false,Rx,0,8,10,3,0,0,0,0,1,35
356457,0000010E,false,Rx,0,8,0,0,0A,0,0,C0,AB,57
357739,000001B1,false,Rx,0,8,19,8,1E,0,72,0,0,0
357774,000001B2,false,Rx,0,8,23,0,4,0F,0F,7,52,10
357793,000001B3,false,Rx,0,8,10,2C,0,0,87,91,96,90
358867,000001B4,false,Rx,0,8,95,91,17,0,0,40,1,0
363403,0000036F,false,Rx,0,8,EE,E1,1,0,0,0,0,0
363438,0000037F,false,Rx,0,8,EC,80,52,24,41,2,0,0
363456,380,false,Rx,0,8,AD,D7,FF,0,0,0,0,1
364607,000001A1,false,Rx,0,8,C4,71,22,FE,F7,7F,64,0
364640,000001A2,false,Rx,0,8,0,0,0,0,0,8,0,0
364658,000001A3,false,Rx,0,8,FF,F3,3F,0,0,0,0,0
365570,000001A4,false,Rx,0,8,FE,7,0,0,0,0,0,0
367725,000003B0,false,Rx,0,8,72,37,FF,C7,0,0,3,C0
368580,000003B1,false,Rx,0,8,9B,3C,FF,40,0,0,20,0
369571,448,false,Rx,0,8,0,C0,0,0,0,0,0,0
372586,0000019B,false,Rx,0,8,16,78,50,0,0,E4,0,0
372621,0000019C,false,Rx,0,8,40,20,0,0,0,0,0B,9
372639,0000019D,false,Rx,0,8,0,10,0,1,0,0,0,0
373579,0000019E,false,Rx,0,8,15,0,0,0,0,32,0,0
378588,000003B2,false,Rx,0,8,36,15,FF,2,29,2F,34,0
381733,121,false,Rx,0,8,89,EE,53,0,0,0,0,5
381773,122,false,Rx,0,8,FF,D9,67,1F,46,46,46,46
381791,123,false,Rx,0,8,11,3,0,0,0,0,1,35
381809,124,false,Rx,0,8,0,0,0A,0,0,0,20,40
382675,427,false,Rx,0,8,1D,86,FF,0,80,0A,0,0
386808,36,false,Rx,0,8,3,F5,55,51,0,0,25,1
386844,37,false,Rx,0,8,0,0,0,10,0,40,0,0
386862,38,false,Rx,0,8,4,0,0,0,50,38,96,D4
386879,39,false,Rx,0,8,0,0,0,0,0,0,0,0
389382,61,false,Rx,0,8,E8,9B,5B,0,0,0,0,0
389661,62,false,Rx,0,8,2,2,0,2,40,FF,0,FF
390576,63,false,Rx,0,8,0,0,5,0,0,8,FD,0
390597,64,false,Rx,0,8,0,0,0,4,FF,FA,0,0
390615,000000A1,false,Rx,0,8,B0,C6,5B,1A,0,0,0,0
390633,000004A3,false,Rx,0,8,80,0,48,0B,3E,0,0,0
391677,000000A2,false,Rx,0,8,0,0,0,0,0,0,0,0
391708,000004A4,false,Rx,0,8,FF,FF,FF,0,0,0,0,0
391726,000000A3,false,Rx,0,8,0,40,1,0,0,0,0,0
391744,000004E8,false,Rx,0,8,FF,FF,FF,5,FF,FF,FF,0
392753,0000042A,false,Rx,0,8,F4,DE,FF,1,0,10,0,0
394599,0000011B,false,Rx,0,8,31,80,48,5,80,8,A8,2
396498,0000012B,false,Rx,0,8,76,7A,48,6,0,0,8,0
396523,0000011C,false,Rx,0,8,0,5,20,0,22,0,1,1
396737,0000012C,false,Rx,0,8,0,0,1,0,0,64,0,0
396768,000001FB,false,Rx,0,8,1B,BD,7,0,0,0,0,0
396788,000001FC,false,Rx,0,8,0,0,0,0,0,0,0,0
399962,000001E6,false,Rx,0,8,C4,3C,0D,2,0,0,0,0
399997,000001BB,false,Rx,0,8,DA,D4,0D,2,0,0,0,0A
400015,000001BC,false,Rx,0,8,32,0,0,0,2,0,0,0
400366,000001BD,false,Rx,0,8,0,0,0,0,0,0,0,0
400387,000001E7,false,Rx,0,8,0,0,22,3,20,1,0,0
405591,563,false,Rx,0,8,65,2,0,0,0,0,FF,FF
405638,0000010B,false,Rx,0,8,5F,1A,57,0,0,0,0,5
406600,0000010C,false,Rx,0,8,FF,F9,E7,1F,46,44,46,46
406632,0000010D,false,Rx,0,8,10,3,0,0,0,0,1,35
406650,0000010E,false,Rx,0,8,0,0,0A,0,0,C0,AB,57
410267,000002C1,false,Rx,0,8,56,B9,85,21,0,41,0,AA
410342,000002C2,false,Rx,0,8,17,0,0,0,0,0,0,0
410360,000002C3,false,Rx,0,8,0,0,0,0,0,0,0,0
410378,000002C4,false,Rx,0,8,0,0,0,0,0,0,0,0
422577,0000019B,false,Rx,0,8,69,54,55,0,0,E4,0,0
422606,0000019C,false,Rx,0,8,40,20,0,0,0,0,0B,9
422624,0000019D,false,Rx,0,8,0,10,0,1,0,0,0,0
423566,0000019E,false,Rx,0,8,15,0,0,0,0,32,0,0
426146,401,false,Rx,0,8,A9,30,10,0,0,4,0,0
426180,000001AB,false,Rx,0,8,73,4D,73,50,70,38,0,0
426571,000001AC,false,Rx,0,8,0,28,0,0,0,0,0,0
427566,0000033B,false,Rx,0,8,76,4E,9,0,0,0,0,0
427586,0000033C,false,Rx,0,8,0,0,0,0,F0,0,0,0
429554,000002FF,false,Rx,0,8,E2,1,0,F1,3F,0,0,0
429588,316,false,Rx,0,8,85,F2,72,34,14,80,0A,0
429605,472,false,Rx,0,8,5C,EC,0,40,8,41,0,45
429623,317,false,Rx,0,8,0,0,5,0,0,0,0,0
429640,473,false,Rx,0,8,5F,24,0,25,0,0,0,78
430572,000004E8,false,Rx,0,8,FF,FF,FF,5,FF,FF,FF,0
431565,121,false,Rx,0,8,31,EF,58,0,0,0,0,5
431591,122,false,Rx,0,8,FF,D9,67,1F,46,46,46,46
431608,123,false,Rx,0,8,11,3,0,0,0,0,1,35
431626,124,false,Rx,0,8,0,0,0A,0,0,0,20,40
434644,161,false,Rx,0,8,81,51,26,3,0,0,0,2
434668,162,false,Rx,0,8,FF,FC,1,0,0,0,0,0
436614,36,false,Rx,0,8,82,81,5A,51,0,0,25,1
437007,37,false,Rx,0,8,0,0,0,10,0,40,0,0
438065,38,false,Rx,0,8,4,0,0,0,50,38,96,D4
438105,39,false,Rx,0,8,0,0,0,0,0,0,0,0
438338,000002E6,false,Rx,0,8,33,64,6,1,0,0,0,15
438360,256,false,Rx,0,8,43,51,6,15,40,0,E0,0
438579,000002E7,false,Rx,0,8,0A,0,0,0,0,0,0,0
439563,257,false,Rx,0,8,0,93,41,17,86,7,0,93
439585,000002E8,false,Rx,0,8,0,0,0,0,0,0,0,0
439603,258,false,Rx,0,8,0B,70,1E,0,10,15,0,28
439621,61,false,Rx,0,8,3E,C7,60,0,0,0,0,0
440572,259,false,Rx,0,8,4B,5,8A,3C,4C,2,0,0
440595,62,false,Rx,0,8,2,2,0,2,40,FF,0,FF
440613,000002E9,false,Rx,0,8,0,0,0,0,0,0,0,0
440639,63,false,Rx,0,8,0,0,5,0,0,8,FD,0
440657,64,false,Rx,0,8,0,0,0,4,FF,FA,0,0
441566,000000A1,false,Rx,0,8,79,F7,60,1A,0,0,0,0
441590,000000A2,false,Rx,0,8,0,0,0,0,0,0,0,0
441608,91,false,Rx,0,8,43,19,7,0,0,0,0,0
442566,92,false,Rx,0,8,0,0,0,0,0,0,0,0
442590,93,false,Rx,0,8,0,0,0,0,0,0,0,0
442607,94,false,Rx,0,8,0,0,0,0,0,0,0,0
442625,000000A3,false,Rx,0,8,0,40,1,0,0,0,0,0
444566,0000011B,false,Rx,0,8,C7,A8,4D,5,80,8,A8,2
444590,0000012B,false,Rx,0,8,80,52,4D,6,0,0,8,0
444608,0000011C,false,Rx,0,8,0,5,20,0,22,0,1,1
445566,0000012C,false,Rx,0,8,0,0,1,0,0,64,0,0
445590,000001F1,false,Rx,0,8,44,1E,E0,1,0,0,28,0
445608,000001F2,false,Rx,0,8,0,0,0,0,0,0,0,0
449566,000002BF,false,Rx,0,8,FF,FF,FF,0,0,0,0,0
449590,0000047F,false,Rx,0,8,FF,FF,FF,FF,FF,FF,F3,FF
449607,653,false,Rx,0,8,0A,19,3,1,2,2A,0,0
451566,146,false,Rx,0,8,7F,0E,23,10,4,1,0,0
453438,147,false,Rx,0,8,0,4,7D,0,40,0,0,0
453472,148,false,Rx,0,8,0,0,0,0,0,90,40,5
453490,149,false,Rx,0,8,0,0,0,0,0,0,0,0
456875,0000010B,false,Rx,0,8,E7,1B,5C,0,0,0,0,5
456938,0000010C,false,Rx,0,8,FF,F9,E7,1F,46,44,46,46
456957,0000010D,false,Rx,0,8,10,3,0,0,0,0,1,35
456975,0000010E,false,Rx,0,8,0,0,0A,0,0,C0,AB,57
456992,000001B1,false,Rx,0,8,7A,93,23,0,72,0,0,0
457009,000001B2,false,Rx,0,8,23,0,4,0F,0F,7,52,10
457589,000001B3,false,Rx,0,8,10,2C,0,0,87,91,96,90
457620,000001B4,false,Rx,0,8,95,91,17,0,0,40,1,0
460605,475,false,Rx,0,8,12,0,0,0,0,0,0,0
460644,000000C5,false,Rx,0,8,0,0,0,0,0,0,0,0
460662,496,false,Rx,0,8,12,0,0,0,0,0,0,0
461620,244,false,Rx,0,8,FF,FF,FF,FF,FF,FF,FF,FF
461653,000004B4,false,Rx,0,8,0,0,0,0,0,0,0,0
461672,000004B5,false,Rx,0,8,8,0,F0,7,0,0,0,0
461689,000004B7,false,Rx,0,8,8,0,F0,7,0,0,0,0
462677,000004CA,false,Rx,0,8,0,0,0,0,0,0,0,0
462713,000004CC,false,Rx,0,8,8,0,0,6,0,0,3,0
462732,000004CE,false,Rx,0,8,14,1,FF,FF,FF,FF,FF,FF
462749,000004D7,false,Rx,0,8,23,1,0,0,0,0,0,0
463589,0000036F,false,Rx,0,8,FE,1,1,0,0,0,0,0
463625,000004D8,false,Rx,0,8,41,10,F0,F0,40,F2,1E,CC
463643,0000037F,false,Rx,0,8,55,90,52,24,41,2,0,0
463661,000004DD,false,Rx,0,8,0,0,FE,0,4,0,0,0
465241,000004DF,false,Rx,0,8,FF,3,0C,3F,0,0,0,0
465275,000004E7,false,Rx,0,8,0,30,0,0,0,0,69,0
465681,111,false,Rx,0,8,0D,CF,79,1,0,0,0,0
465708,000001A1,false,Rx,0,8,BB,5D,27,FE,F7,7F,64,0
465726,112,false,Rx,0,8,0,0,0,0,0,0,0,0
466812,113,false,Rx,0,8,0,0,0,0,0,0,0,0
466918,000001A3,false,Rx,0,8,FF,F3,3F,0,0,0,0,0
466937,114,false,Rx,0,8,0,0,0,0,0,0,0,0
466955,000001A4,false,Rx,0,8,FE,7,0,0,0,0,0,0
466973,000004E9,false,Rx,0,8,12,0,0,34,0,0,50,0
466990,000004EA,false,Rx,0,8,67,0,0,89,0,0,0,0
467008,000004EB,false,Rx,0,8,10,80,32,34,80,0,0,0
467590,000004EC,false,Rx,0,8,0,0,0,0,0,0,0,0
467624,000004ED,false,Rx,0,8,0,0,0,0,0,FF,FF,1F
468942,000004EE,false,Rx,0,8,FF,FF,0,0,0,0,0,0
468976,000004EF,false,Rx,0,8,60,0,60,0,29,14,0,0
468994,0000063D,false,Rx,0,8,0,80,0,0,0,0,0,0
469011,0000063E,false,Rx,0,8,FF,FF,FF,FF,FF,FF,FF,FF
469029,0000063F,false,Rx,0,8,0,10,0,C4,FF,0,0,0
469570,640,false,Rx,0,8,FF,FF,FF,0,FF,FF,FF,0
469603,641,false,Rx,0,8,FF,FF,FF,FF,0F,FF,FF,FF
469621,646,false,Rx,0,8,0,0,0,80,1,0,0,0
470591,000004E8,false,Rx,0,8,FF,FF,FF,5,FF,FF,FF,0
472387,0000019B,false,Rx,0,8,E8,20,5A,0,0,E4,0,0
472420,0000019C,false,Rx,0,8,40,20,0,0,0,0,0B,9
472835,0000019D,false,Rx,0,8,0,10,0,1,0,0,0,0
472861,0000019E,false,Rx,0,8,15,0,0,0,0,32,0,0
475678,000001E1,false,Rx,0,8,5D,6A,10,2,0,0,0,0
475713,000001E2,false,Rx,0,8,0,0,0,0,0,0,0,0
476820,0000030B,false,Rx,0,8,C6,65,9,0,4,0,0,0
476855,0000030C,false,Rx,0,8,0,0,0E,0,2C,0,A0,0F
476873,0000030D,false,Rx,0,8,0,0,0,0,49,0,0,0
476891,0000030E,false,Rx,0,8,0,0,38,5,21,0,0,0A
481601,121,false,Rx,0,8,4E,C3,5D,0,0,0,0,5
481639,122,false,Rx,0,8,FF,D9,67,1F,46,46,46,46
481657,123,false,Rx,0,8,11,3,0,0,0,0,1,35
481674,124,false,Rx,0,8,0,0,0A,0,0,0,20,40
483632,405,false,Rx,0,8,BD,30,0,0,0,1,0,0
483672,413,false,Rx,0,8,6F,30,0,0,0,0,0,0
483690,410,false,Rx,0,8,4B,80,59,3C,16,6B,FF,FF
483708,414,false,Rx,0,8,F0,10,0,0,28,0,0,0
485199,411,false,Rx,0,8,A8,1,50,50,0,0,44,4
485233,416,false,Rx,0,8,55,0,0,0,0,0,0,0
485252,412,false,Rx,0,8,6D,60,0,0,0,0,0,0
485270,417,false,Rx,0,8,5F,20,0,0,0,0,0,0
485287,418,false,Rx,0,8,19,70,0,0,12,0C,0,0
486584,36,false,Rx,0,8,FD,AD,5F,51,0,0,25,1
486611,37,false,Rx,0,8,0,0,0,10,0,40,0,0
486629,38,false,Rx,0,8,4,0,0,0,50,38,96,D4
487930,39,false,Rx,0,8,0,0,0,0,0,0,0,0
489383,61,false,Rx,0,8,41,EB,65,0,0,0,0,0
489587,62,false,Rx,0,8,2,2,0,2,40,FF,0,FF
490688,63,false,Rx,0,8,0,0,5,0,0,8,FD,0
491276,64,false,Rx,0,8,0,0,0,4,FF,FA,0,0
491327,000000A1,false,Rx,0,8,76,1C,65,1A,0,0,0,0
491351,000000A2,false,Rx,0,8,0,0,0,0,0,0,0,0
491368,000000A3,false,Rx,0,8,0,40,1,0,0,0,0,0
494587,0000011B,false,Rx,0,8,D7,F2,52,5,80,8,A8,2
494622,0000012B,false,Rx,0,8,90,8,52,6,0,0,8,0
494640,0000011C,false,Rx,0,8,0,5,20,0,22,0,1,1
496110,0000012C,false,Rx,0,8,0,0,1,0,0,64,0,0
496161,236,false,Rx,0,8,D4,51,9,0,6E,3C,34,6C
496179,151,false,Rx,0,8,76,8F,9,A0,C8,0,28,19
496214,000001F6,false,Rx,0,8,45,AC,9,0,0,0,0,0E
496232,152,false,Rx,0,8,16,18,18,0,0B,0,0,0
496249,000001F7,false,Rx,0,8,0B,0,0,0,0,0,0,0
496267,153,false,Rx,0,8,0,0,0,0,0,0,0,0
496574,000001F8,false,Rx,0,8,0,0,0,0,0,0,0,0
498042,154,false,Rx,0,8,0,0,0,0,0,0,0,0
498075,000001F9,false,Rx,0,8,0,0,A0,C8,14,0,0,0
498093,237,false,Rx,0,8,0,15,BA,0,0,AA,1E,0
498111,238,false,Rx,0,8,0,0,5F,0,0,0,0,0
498512,000002FB,false,Rx,0,8,4B,0A,9,4,5F,1A,CC,CC
499387,239,false,Rx,0,8,0,0,0,0,1,0,0,0
499476,000002FC,false,Rx,0,8,2,0,16,19,0,0,8E,BF
499880,0000025B,false,Rx,0,8,1D,31,9,40,40,20,0,0
499911,000002FD,false,Rx,0,8,0,0,0,0,0,1C,0E,EA
499929,0000025C,false,Rx,0,8,0,0,0B,0,34,89,19,0
499947,000002FE,false,Rx,0,8,0,0,72,1,0,28,0,0
499988,0000025D,false,Rx,0,8,0,C8,0,0,0,80,C0,70
500006,0000025E,false,Rx,0,8,BA,7,0E,0,0,0,0,0
501137,327,false,Rx,0,8,0,0,0,0,5,0,0,0
501171,382,false,Rx,0,8,F1,7A,1,0,0,1,8,0
502827,328,false,Rx,0,8,0,0,0,0,0,0,0,0
502868,565,false,Rx,0,8,66,2,0,0,0,0,FF,FF
502886,329,false,Rx,0,8,A0,0,0,0,0,0,0,0
502903,331,false,Rx,0,8,AC,BD,9,F1,C8,A0,2C,97
502921,332,false,Rx,0,8,94,2,0,0,0,0,0,0
506251,0000010B,false,Rx,0,8,72,55,61,0,0,0,0,5
506287,0000010C,false,Rx,0,8,FF,F9,E7,1F,46,45,46,46
506307,0000010D,false,Rx,0,8,10,3,0,0,0,0,1,35
506707,0000010E,false,Rx,0,8,0,0,0A,0,0,C0,AB,57
507738,000002AB,false,Rx,0,8,BD,DE,0A,0C,0C,0,0,0
507785,000002AC,false,Rx,0,8,0,FF,FF,0,0,40,0,50
509029,000002AD,false,Rx,0,8,0,1,0,40,FF,FF,FF,0F
509090,000002AE,false,Rx,0,8,1,0,FF,3F,1,1,0,0
509108,251,false,Rx,0,8,6E,C6,9,0,0,0,0,0
509615,000002B6,false,Rx,0,8,CF,AF,0A,1,0,0,0,40
509648,252,false,Rx,0,8,0,0,0,0,3,0,0,0
509669,000002B7,false,Rx,0,8,8,2,F0,0,0,4,0,0
509687,000002B8,false,Rx,0,8,AA,11,11,0,0,0,0,0
509705,396,false,Rx,0,8,A8,4E,84,0F,8,1,0,2
509733,000002B9,false,Rx,0,8,0A,0,0,0,0,0,0,0
510767,397,false,Rx,0,8,10,0,0,0,0,0,0,0
510801,000002E1,false,Rx,0,8,9E,FB,0A,0,0,0,0,40
510819,398,false,Rx,0,8,0,0,0,0,0,0,0,0
511137,000002E2,false,Rx,0,8,FD,0,0,0,0,14,0,4
511165,000002E3,false,Rx,0,8,0,0,0,0,0,0,72,1
512057,000002E4,false,Rx,0,8,2,0,0,0,0,0,0,0
517589,383,false,Rx,0,8,12,ED,1,0,2,0,0,0
522586,0000019B,false,Rx,0,8,97,0C,5F,0,0,E4,0,0
522625,0000019C,false,Rx,0,8,40,20,0,0,0,0,0B,9
522643,0000019D,false,Rx,0,8,0,10,0,1,0,0,0,0
523607,0000019E,false,Rx,0,8,15,0,0,0,0,32,0,0
523639,000002D6,false,Rx,0,8,F7,5F,84,0,0,0,0,0
523674,000002EB,false,Rx,0,8,63,16,84,9,8,1,0,2
523692,000002D7,false,Rx,0,8,0,0,0,0,3,0,0,0
525100,000002EC,false,Rx,0,8,2,0,0,0,0,0,0,0
525156,000002D8,false,Rx,0,8,0,0,0,0,0,0,38,45
525174,000002ED,false,Rx,0,8,0,0,0,0,0,0,0,0
525192,000002D9,false,Rx,0,8,0,0,0,0,0,0,0,0
525209,000002EE,false,Rx,0,8,0,0,0,0,0,0,0,0
526180,000003A1,false,Rx,0,8,1E,7,95,0,FF,FF,FF,FF
526213,000003A2,false,Rx,0,8,0,0,0,0,0,0,0,0
527586,000001AB,false,Rx,0,8,BB,B4,78,50,70,38,0,0
527613,226,false,Rx,0,8,89,32,E5,FF,43,E1,5,42
529352,000001AC,false,Rx,0,8,0,28,0,0,0,0,0,0
529551,227,false,Rx,0,8,2,70,E1,8,0,F2,17,4
529575,356,false,Rx,0,8,7D,4F,85,0,0,0,0,0
529593,357,false,Rx,0,8,0,0,0,0,0,4B,4D,48
529611,358,false,Rx,0,8,35,41,45,4D,52,37,33,4F
531598,121,false,Rx,0,8,A1,EA,62,0,0,0,0,5
531637,122,false,Rx,0,8,FF,D9,67,1F,46,46,46,46
532774,123,false,Rx,0,8,11,3,0,0,0,0,1,35
532859,124,false,Rx,0,8,0,0,0A,0,0,0,20,40
534589,161,false,Rx,0,8,F2,68,2B,3,0,0,0,2
535652,162,false,Rx,0,8,FF,FC,1,0,0,0,0,0
536578,36,false,Rx,0,8,2B,F1,64,51,0,0,25,1
536604,37,false,Rx,0,8,0,0,0,10,0,40,0,0
536621,38,false,Rx,0,8,4,0,0,0,50,38,96,D4
537612,39,false,Rx,0,8,0,0,0,0,0,0,0,0
538593,384,false,Rx,0,8,E9,DC,2,0,0,FF,0,21
538620,000003B6,false,Rx,0,8,50,9,83,0,0,0,0,46
540051,000003B7,false,Rx,0,8,46,0,0,0,0,0,0,0
541262,000003B8,false,Rx,0,8,0C,3,0,0,0,0,69,0E
541342,61,false,Rx,0,8,C0,9F,6A,0,0,0,0,0
541361,000003B9,false,Rx,0,8,0,0,0,0,0,0,0,0
541549,62,false,Rx,0,8,2,2,0,2,40,FF,0,FF
541569,63,false,Rx,0,8,0,0,5,0,0,8,FD,0
541587,64,false,Rx,0,8,0,0,0,4,FF,FA,0,0
541605,91,false,Rx,0,8,C2,6D,8,0,0,0,0,0
543090,92,false,Rx,0,8,0,0,0,0,0,0,0,0
543138,93,false,Rx,0,8,0,0,0,0,0,0,0,0
543156,394,false,Rx,0,8,2A,22,1A,49,0,0,0,0
543187,94,false,Rx,0,8,0,0,0,0,0,0,0,0
543205,000003C3,false,Rx,0,8,45,10,31,30,36,0,0,0
543222,000000FF,false,Rx,0,8,CB,10,0,0,0,0,2,0
543240,000003E0,false,Rx,0,8,66,20,1,0,54,3,0,0
544633,0000011B,false,Rx,0,8,21,DA,57,5,80,8,A8,2
545076,0000012B,false,Rx,0,8,66,20,57,6,0,0,8,0
545098,0000011C,false,Rx,0,8,0,5,20,0,22,0,1,1
545115,0000012C,false,Rx,0,8,0,0,1,0,0,64,0,0
545133,000003E5,false,Rx,0,8,37,80,1,0,0,0,0,0
546606,000003E6,false,Rx,0,8,67,90,0,0,0,0,0,0
546643,0000041A,false,Rx,0,8,8D,D0,12,0,0,0,0,0
547030,0000041B,false,Rx,0,8,70,D0,0,0,0,0,0,0
547057,0000041C,false,Rx,0,8,48,0,E0,0,0,0,0,0
547075,422,false,Rx,0,8,9D,70,1,0,0,0,4,0
547584,432,false,Rx,0,8,3,20,2,0,0,0,0,0
547610,435,false,Rx,0,8,26,C0,0,40,0,0,0,0
549305,442,false,Rx,0,8,CE,20,11,81,0,0,0,0
549340,444,false,Rx,0,8,D5,20,20,50,55,50,0,0
549357,445,false,Rx,0,8,C6,C0,0,0,0,0,0,18
549375,464,false,Rx,0,8,D5,20,F0,FF,38,7F,5,0
549393,000001E6,false,Rx,0,8,BD,26,10,2,0,0,0,0
549575,000001BB,false,Rx,0,8,BF,D7,10,2,0,0,0,0A
549592,000001BC,false,Rx,0,8,32,0,0,0,2,0,0,0
550818,000001BD,false,Rx,0,8,0,0,0,0,0,0,0,0
550853,000001E7,false,Rx,0,8,0,0,22,3,20,1,0,0
551589,146,false,Rx,0,8,C7,0F,28,10,4,1,0,0
552566,147,false,Rx,0,8,0,4,7D,0,40,0,0,0
552584,148,false,Rx,0,8,0,0,0,0,0,90,40,5
552601,149,false,Rx,0,8,0,0,0,0,0,0,0,0
552619,487,false,Rx,0,8,0,0,0,0,0,0,0,0
553755,642,false,Rx,0,8,FF,FF,FF,FF,FF,FF,0,0
553788,000003AA,false,Rx,0,8,FF,0,B0,0,54,0,0,0
553806,495,false,Rx,0,8,49,0,0,0,0,0,0,0
556232,0000010B,false,Rx,0,8,77,1E,66,0,0,0,0,5
556269,0000010C,false,Rx,0,8,FF,F9,E7,1F,46,44,46,46
556288,0000010D,false,Rx,0,8,10,3,0,0,0,0,1,35
556712,0000010E,false,Rx,0,8,0,0,0A,0,0,C0,AB,57
556738,000001B1,false,Rx,0,8,C2,92,28,0,72,0,0,0
557947,000001B2,false,Rx,0,8,23,0,4,0F,0F,7,52,10
557980,000001B3,false,Rx,0,8,10,2C,0,0,87,91,96,90
557998,000001B4,false,Rx,0,8,95,91,17,0,0,40,1,0
561588,0000034B,false,Rx,0,8,E1,2F,B4,31,D8,0D,5,1
561630,0000034C,false,Rx,0,8,0,0,0,0,0,0,0,0
563187,0000034D,false,Rx,0,8,0,0,0,0,0,0,0,0
563221,0000034E,false,Rx,0,8,0,0,0,0,0,0,0,0
563239,0000036F,false,Rx,0,8,47,11,1,0,0,0,0,0
563257,0000037F,false,Rx,0,8,83,A0,52,24,41,2,0,0
563566,380,false,Rx,0,8,AD,D7,FF,0,0,0,0,1
565706,000001A1,false,Rx,0,8,3,5C,2C,FE,F7,7F,64,0
565742,000001A2,false,Rx,0,8,0,0,0,0,0,8,0,0
565760,000001A3,false,Rx,0,8,FF,F3,3F,0,0,0,0,0
565778,000001A4,false,Rx,0,8,FE,7,0,0,0,0,0,0
567580,000003B0,false,Rx,0,8,72,37,FF,C7,0,0,3,C0
568900,000003B1,false,Rx,0,8,9B,3C,FF,40,0,0,20,0
570266,448,false,Rx,0,8,0,C0,0,0,0,0,0,0
572160,0000019B,false,Rx,0,8,41,50,64,0,0,E4,0,0
573361,0000019C,false,Rx,0,8,40,20,0,0,0,0,0B,9
573396,0000019D,false,Rx,0,8,0,10,0,1,0,0,0,0
573414,0000019E,false,Rx,0,8,15,0,0,0,0,32,0,0
578590,000003B2,false,Rx,0,8,36,15,FF,2,29,2F,34,0
581593,121,false,Rx,0,8,DE,C6,67,0,0,0,0,5
581633,122,false,Rx,0,8,FF,D9,67,1F,46,46,46,46
581651,123,false,Rx,0,8,11,3,0,0,0,0,1,35
581668,124,false,Rx,0,8,0,0,0A,0,0,0,20,40
582620,427,false,Rx,0,8,1D,86,FF,0,80,0A,0,0
587080,36,false,Rx,0,8,26,37,69,51,0,0,25,1
587123,37,false,Rx,0,8,0,0,0,10,0,40,0,0
587141,38,false,Rx,0,8,4,0,0,0,50,38,96,D4
587158,39,false,Rx,0,8,0,0,0,0,0,0,0,0
590037,61,false,Rx,0,8,BF,B3,6F,0,0,0,0,0
590452,62,false,Rx,0,8,2,2,0,2,40,FF,0,FF
590476,63,false,Rx,0,8,0,0,5,0,0,8,FD,0
590493,64,false,Rx,0,8,0,0,0,4,FF,FA,0,0
590511,000000A1,false,Rx,0,8,49,DA,6F,1A,0,0,0,0
591584,000000A2,false,Rx,0,8,0,0,0,0,0,0,0,0
591606,000000A3,false,Rx,0,8,0,40,1,0,0,0,0,0
593636,0000042A,false,Rx,0,8,F4,DE,FF,1,0,10,0,0
593672,000004A3,false,Rx,0,8,80,0,48,0B,3E,0,0,0
593689,000004A4,false,Rx,0,8,FF,FF,FF,0,0,0,0,0
593707,000004F0,false,Rx,0,8,4A,10,32,35,58,1A,18,2
593725,566,false,Rx,0,8,16,2,0,0,0,0,FF,FF
594576,000001F1,false,Rx,0,8,9,F6,E3,1,0,0,28,0
594598,0000011B,false,Rx,0,8,E9,23,5C,5,80,8,A8,2
594615,0000012B,false,Rx,0,8,AE,D9,5C,6,0,0,8,0
597344,0000011C,false,Rx,0,8,0,5,20,0,22,0,1,1
597393,0000012C,false,Rx,0,8,0,0,1,0,0,64,0,0
597412,000001F2,false,Rx,0,8,0,0,0,0,0,0,0,0
597429,000001FB,false,Rx,0,8,DC,90,9,0,0,0,0,0
597765,000001FC,false,Rx,0,8,0,0,0,0,0,0,0,0
606588,0000010B,false,Rx,0,8,7A,D8,6B,0,0,0,0,5
606627,0000010C,false,Rx,0,8,FF,F9,E7,1F,46,44,46,46
606647,0000010D,false,Rx,0,8,10,3,0,0,0,0,1,35
606664,0000010E,false,Rx,0,8,0,0,0A,0,0,C0,AB,57
607661,000002C1,false,Rx,0,8,75,14,86,21,0,41,0,AA
607697,000002C2,false,Rx,0,8,18,0,0,0,0,0,0,0
610172,000002C3,false,Rx,0,8,0,0,0,0,0,0,0,0
610207,000002C4,false,Rx,0,8,0,0,0,0,0,0,0,0
622588,0000019B,false,Rx,0,8,4C,96,69,0,0,E4,0,0
622626,0000019C,false,Rx,0,8,40,20,0,0,0,0,0B,9
622646,0000019D,false,Rx,0,8,0,10,0,1,0,0,0,0
623603,0000019E,false,Rx,0,8,15,0,0,0,0,32,0,0
624565,000001E1,false,Rx,0,8,10,82,13,2,0,0,0,0
626378,000001E2,false,Rx,0,8,0,0,0,0,0,0,0,0
626413,401,false,Rx,0,8,A9,30,10,0,0,4,0,0
626432,000001AB,false,Rx,0,8,4D,9C,7D,50,70,38,0,0
626450,000001AC,false,Rx,0,8,0,28,0,0,0,0,0,0
627588,0000033B,false,Rx,0,8,FA,FC,0B,0,0,0,0,0
627614,0000033C,false,Rx,0,8,0,0,0,0,F0,0,0,0
627639,000002FF,false,Rx,0,8,E2,1,0,F1,3F,0,0,0
627657,316,false,Rx,0,8,A1,5A,73,34,14,80,0A,0
629453,317,false,Rx,0,8,0,0,5,0,0,0,0,0
629489,472,false,Rx,0,8,5C,EC,0,40,8,41,0,45
629507,0000033D,false,Rx,0,8,0,0,0,0,0,0,0,0
629524,473,false,Rx,0,8,5F,24,0,25,0,0,0,78
629897,0000033E,false,Rx,0,8,0,0,0,0,0,0,0,0
631410,121,false,Rx,0,8,66,C7,6C,0,0,0,0,5
631445,122,false,Rx,0,8,FF,D9,67,1F,46,46,46,46
631463,123,false,Rx,0,8,11,3,0,0,0,0,1,35
631656,124,false,Rx,0,8,0,0,0A,0,0,0,20,40
632591,000004F0,false,Rx,0,8,4A,10,32,35,58,1A,18,2
634625,161,false,Rx,0,8,30,B2,30,3,0,0,0,2
634659,162,false,Rx,0,8,FF,FC,1,0,0,0,0,0
637265,36,false,Rx,0,8,D5,A9,6E,51,0,0,25,1
637300,37,false,Rx,0,8,0,0,0,10,0,40,0,0
637318,38,false,Rx,0,8,4,0,0,0,50,38,96,D4
637336,39,false,Rx,0,8,0,0,0,0,0,0,0,0
639136,000002E6,false,Rx,0,8,F4,49,8,1,0,0,0,15
639604,256,false,Rx,0,8,3C,52,8,15,40,0,C0,0
640466,000002E7,false,Rx,0,8,0A,0,0,0,0,0,0,0
640525,257,false,Rx,0,8,0,93,41,13,86,7,0,93
640678,000002E8,false,Rx,0,8,0,0,0,0,0,0,0,0
640698,258,false,Rx,0,8,0B,70,1E,0,10,15,0,28
640730,259,false,Rx,0,8,3A,5,89,3C,4C,2,0,0
640747,62,false,Rx,0,8,2,2,0,2,40,FF,0,FF
640765,64,false,Rx,0,8,0,0,0,4,FF,FA,0,0
641882,000000A1,false,Rx,0,8,26,6B,74,1A,0,0,0,0
641917,000000A2,false,Rx,0,8,0,0,0,0,0,0,0,0
641935,91,false,Rx,0,8,84,34,9,0,0,0,0,0
641952,92,false,Rx,0,8,0,0,0,0,0,0,0,0
643321,93,false,Rx,0,8,0,0,0,0,0,0,0,0
643558,94,false,Rx,0,8,0,0,0,0,0,0,0,0
643577,000000A3,false,Rx,0,8,0,40,1,0,0,0,0,0
644631,0000011B,false,Rx,0,8,84,7F,61,5,80,8,A8,2
644665,0000012B,false,Rx,0,8,C3,85,61,6,0,0,8,0
644684,0000011C,false,Rx,0,8,0,5,20,0,22,0,1,1
646255,0000012C,false,Rx,0,8,0,0,1,0,0,64,0,0
648609,000002BF,false,Rx,0,8,FF,FF,FF,0,0,0,0,0
649741,0000047F,false,Rx,0,8,FF,FF,FF,FF,FF,FF,F3,FF
649776,653,false,Rx,0,8,0A,19,3,1,2,2A,0,0
651587,146,false,Rx,0,8,B8,23,2D,10,4,1,0,0
653365,147,false,Rx,0,8,0,4,7D,0,40,0,0,0
653403,148,false,Rx,0,8,0,0,0,0,0,90,40,5
653421,149,false,Rx,0,8,0,0,0,0,0,0,0,0
656284,0000010B,false,Rx,0,8,7,1D,70,0,0,0,0,5
656688,0000010C,false,Rx,0,8,FF,F9,E7,1F,46,44,46,46
656730,0000010D,false,Rx,0,8,10,3,0,0,0,0,1,35
656750,0000010E,false,Rx,0,8,0,0,0A,0,0,C0,AB,57
656767,000001B1,false,Rx,0,8,BD,BE,2D,0,72,0,0,0
657585,000001B2,false,Rx,0,8,23,0,4,0F,0F,7,52,10
657609,000001B3,false,Rx,0,8,10,2C,0,0,87,91,96,90
657628,000001B4,false,Rx,0,8,95,91,17,0,0,40,1,0
661320,475,false,Rx,0,8,12,0,0,0,0,0,0,0
661355,496,false,Rx,0,8,12,0,0,0,0,0,0,0
662595,000000C5,false,Rx,0,8,0,0,0,0,0,0,0,0
662623,244,false,Rx,0,8,FF,FF,FF,FF,FF,FF,FF,FF
663571,000004B4,false,Rx,0,8,0,0,0,0,0,0,0,0
663592,0000036F,false,Rx,0,8,91,21,1,0,0,0,0,0
663610,000004B5,false,Rx,0,8,8,0,F0,7,0,0,0,0
663627,0000037F,false,Rx,0,8,3A,B0,52,24,41,2,0,0
664569,000004B7,false,Rx,0,8,8,0,F0,7,0,0,0,0
664590,000004CA,false,Rx,0,8,0,0,0,0,0,0,0,0
664608,111,false,Rx,0,8,C7,24,7A,1,0,0,0,0
664626,000004CC,false,Rx,0,8,8,0,0,6,0,0,3,0
665568,112,false,Rx,0,8,0,0,0,0,0,0,0,0
665590,000001A1,false,Rx,0,8,CB,5E,31,FE,F7,7F,64,0
665608,113,false,Rx,0,8,0,0,0,0,0,0,0,0
665626,000001A2,false,Rx,0,8,0,0,0,0,0,8,0,0
666568,114,false,Rx,0,8,0,0,0,0,0,0,0,0
666590,000001A3,false,Rx,0,8,FF,F3,3F,0,0,0,0,0
666607,000004CE,false,Rx,0,8,14,1,FF,FF,FF,FF,FF,FF
666625,000001A4,false,Rx,0,8,FE,7,0,0,0,0,0,0
667569,000004D7,false,Rx,0,8,23,1,0,0,0,0,0,0
667590,000004D8,false,Rx,0,8,41,10,F0,F0,40,F2,1E,CC
667607,000004DD,false,Rx,0,8,0,0,FE,0,4,0,0,0
667625,000004DF,false,Rx,0,8,FF,3,0C,3F,0,0,0,0
668569,000004E7,false,Rx,0,8,0,30,0,0,0,0,69,0
668590,000004E8,false,Rx,0,8,FF,FF,FF,5,FF,FF,FF,0
668608,000004E9,false,Rx,0,8,12,0,0,34,0,0,50,0
668625,000004EA,false,Rx,0,8,67,0,0,89,0,0,0,0
669569,000004EB,false,Rx,0,8,10,80,32,34,80,0,0,0
669590,000004EC,false,Rx,0,8,0,0,0,0,0,0,0,0
669614,000004ED,false,Rx,0,8,0,0,0,0,0,FF,FF,1F
669632,000004EE,false,Rx,0,8,FF,FF,0,0,0,0,0,0
670574,000004EF,false,Rx,0,8,60,0,60,0,29,14,0,0
670595,0000063D,false,Rx,0,8,0,80,0,0,0,0,0,0
670613,0000063E,false,Rx,0,8,FF,FF,FF,FF,FF,FF,FF,FF
671569,0000063F,false,Rx,0,8,0,10,0,C4,FF,0,0,0
671591,640,false,Rx,0,8,FF,FF,FF,0,FF,FF,FF,0
671609,641,false,Rx,0,8,FF,FF,FF,FF,0F,FF,FF,FF
671627,646,false,Rx,0,8,0,0,0,80,1,0,0,0
672569,0000019B,false,Rx,0,8,BF,8,6E,0,0,E4,0,0
672590,0000019C,false,Rx,0,8,40,20,0,0,0,0,0B,9
672608,0000019D,false,Rx,0,8,0,10,0,1,0,0,0,0
673568,000004F0,false,Rx,0,8,4A,10,32,35,58,1A,18,2
673590,0000019E,false,Rx,0,8,15,0,0,0,0,32,0,0
676566,0000030B,false,Rx,0,8,29,94,0B,0,4,0,0,0
676587,0000030C,false,Rx,0,8,0,0,0E,0,2C,0,A0,0F
676604,0000030D,false,Rx,0,8,0,0,0,0,49,0,0,0
677568,0000030E,false,Rx,0,8,0,0,38,5,21,0,0,1A
681566,121,false,Rx,0,8,AE,C5,71,0,0,0,0,5
681593,122,false,Rx,0,8,FF,D9,67,1F,46,46,46,46
681611,123,false,Rx,0,8,11,3,0,0,0,0,1,35
681628,124,false,Rx,0,8,0,0,0A,0,0,0,20,40
683574,405,false,Rx,0,8,BD,30,0,0,0,1,0,0
683596,413,false,Rx,0,8,6F,30,0,0,0,0,0,0
683614,410,false,Rx,0,8,4B,80,59,3C,16,6B,FF,FF
683632,414,false,Rx,0,8,F0,10,0,0,28,0,0,0
684568,411,false,Rx,0,8,A8,1,50,50,0,0,44,4
684590,416,false,Rx,0,8,55,0,0,0,0,0,0,0
684607,412,false,Rx,0,8,6D,60,0,0,0,0,0,0
684625,417,false,Rx,0,8,5F,20,0,0,0,0,0,0
685569,418,false,Rx,0,8,19,70,0,0,12,0C,0,0
685590,419,false,Rx,0,8,B6,40,8F,D6,79,86,90,0
686567,36,false,Rx,0,8,1D,AB,73,51,0,0,25,1
686587,37,false,Rx,0,8,0,0,0,10,0,40,0,0
686605,38,false,Rx,0,8,4,0,0,0,50,38,96,D4
687569,39,false,Rx,0,8,0,0,0,0,0,0,0,0
689566,61,false,Rx,0,8,CF,B0,79,0,0,0,0,0
689586,62,false,Rx,0,8,2,2,0,2,40,FF,0,FF
690578,63,false,Rx,0,8,0,0,5,0,0,8,FD,0
690600,64,false,Rx,0,8,0,0,0,4,FF,FA,0,0
690618,000000A1,false,Rx,0,8,10,28,79,1A,0,0,0,0
690635,000000A2,false,Rx,0,8,0,0,0,0,0,0,0,0
691607,000000A3,false,Rx,0,8,0,40,1,0,0,0,0,0
693610,516,false,Rx,0,8,61,2,0,0,0,0,FF,FF
694580,0000011B,false,Rx,0,8,1B,17,66,5,80,8,A8,2
694607,0000012B,false,Rx,0,8,5C,ED,66,6,0,0,8,0
694625,0000011C,false,Rx,0,8,0,5,20,0,22,0,1,1
695573,0000012C,false,Rx,0,8,0,0,1,0,0,64,0,0
695596,000001F6,false,Rx,0,8,C9,1E,0B,0,0,0,0,0E
695613,151,false,Rx,0,8,FA,3D,0B,A0,C8,0,28,19
695631,000001F7,false,Rx,0,8,0B,0,0,0,0,0,0,0
696575,152,false,Rx,0,8,16,18,18,0,0B,0,0,0
696600,000001F8,false,Rx,0,8,0,0,0,0,0,0,0,0
696618,153,false,Rx,0,8,0,0,0,0,0,0,0,0
696636,000001F9,false,Rx,0,8,0,0,A0,C8,14,0,0,0
697579,154,false,Rx,0,8,0,0,0,0,0,0,0,0
697609,236,false,Rx,0,8,58,E3,0B,0,6E,3C,34,6C
697627,000002FB,false,Rx,0,8,A6,14,0B,4,5F,1A,CC,CC
697644,237,false,Rx,0,8,0,15,BA,0,0,AA,1E,0
698566,000002FC,false,Rx,0,8,3,0,16,19,0,0,8E,BF
698587,238,false,Rx,0,8,0,0,5F,0,0,0,0,0
698604,000002FD,false,Rx,0,8,0,0,0,0,0,1C,0E,EA
698622,239,false,Rx,0,8,0,0,0,0,1,0,0,0
699581,000002FE,false,Rx,0,8,0,0,72,1,0,28,0,0
699617,000001E6,false,Rx,0,8,F0,CE,13,2,0,0,0,0
699635,0000025B,false,Rx,0,8,5E,32,0B,40,40,20,0,0
699652,000001BB,false,Rx,0,8,BA,8E,13,2,0,0,0,0A
699670,0000025C,false,Rx,0,8,0,0,0B,0,34,89,19,0
700569,000001BC,false,Rx,0,8,32,0,0,0,2,0,0,0
700597,0000025D,false,Rx,0,8,0,C8,0,0,0,80,C0,70
700615,000001BD,false,Rx,0,8,0,0,0,0,0,0,0,0
700632,0000025E,false,Rx,0,8,B9,7,0E,0,0,0,0,0
701573,000001E7,false,Rx,0,8,0,0,22,3,20,1,0,0
701593,326,false,Rx,0,8,33,40,0B,0,0,0,0,0
701611,382,false,Rx,0,8,F1,7A,1,0,0,1,8,0
701629,327,false,Rx,0,8,0,0,0,0,5,0,0,0
702568,328,false,Rx,0,8,0,0,0,0,0,0,0,0
702590,329,false,Rx,0,8,A0,0,0,0,0,0,0,0
702607,331,false,Rx,0,8,20,0F,0B,F1,C8,A0,2C,97
703566,332,false,Rx,0,8,94,2,0,0,0,0,0,0
703587,333,false,Rx,0,8,0,0,0,1C,0C,40,20,A0
703604,334,false,Rx,0,8,C8,0,0,0,AC,70,1D,90
706566,0000010B,false,Rx,0,8,78,31,75,0,0,0,0,5
706588,0000010C,false,Rx,0,8,FF,F9,E7,1F,46,44,46,46
706606,0000010D,false,Rx,0,8,10,3,0,0,0,0,1,35
706624,0000010E,false,Rx,0,8,0,0,0A,0,0,C0,AB,57
707575,000002AB,false,Rx,0,8,8,19,0C,0C,0C,0,0,0
707596,000002AC,false,Rx,0,8,0,FF,FF,0,0,40,0,50
707614,000002AD,false,Rx,0,8,0,1,0,40,FF,FF,FF,0F
707632,000002AE,false,Rx,0,8,1,0,FF,3F,1,1,0,0
708573,000002B6,false,Rx,0,8,7A,68,0C,1,0,0,0,40
708593,251,false,Rx,0,8,68,A8,0B,0,0,0,0,0
708610,000002B7,false,Rx,0,8,8,2,F0,0,0,4,0,0
708628,252,false,Rx,0,8,0,0,0,0,3,0,0,0
709569,000002B8,false,Rx,0,8,AA,11,11,0,0,0,0,0
709590,253,false,Rx,0,8,0,0,0,51,51,0,80,44
709608,000002B9,false,Rx,0,8,0A,0,0,0,0,0,0,0
709625,396,false,Rx,0,8,26,10,85,0F,8,2,0,2
710569,000002E1,false,Rx,0,8,2B,3C,0C,0,0,0,0,40
710590,397,false,Rx,0,8,25,0,0,0,0,0,0,0
710608,000002E2,false,Rx,0,8,FD,0,0,0,0,14,0,4
710626,398,false,Rx,0,8,0,0,0,0,0,0,0,0
711574,000002E3,false,Rx,0,8,0,0,0,0,0,0,72,1
711595,000002E4,false,Rx,0,8,2,0,0,0,0,0,0,0
717567,383,false,Rx,0,8,12,ED,1,0,2,0,0,0
722567,0000019B,false,Rx,0,8,77,0A,73,0,0,E4,0,0
722589,0000019C,false,Rx,0,8,40,20,0,0,0,0,0B,9
722606,0000019D,false,Rx,0,8,0,10,0,1,0,0,0,0
723572,0000019E,false,Rx,0,8,15,0,0,0,0,32,0,0
723593,000002D6,false,Rx,0,8,B1,6,85,0,0,0,0,0
723611,000002EB,false,Rx,0,8,2E,AB,85,0A,8,2,0,2
724568,000002D7,false,Rx,0,8,0,0,0,0,3,0,0,0
724590,000002EC,false,Rx,0,8,12,0,0,0,0,0,0,0
724607,000002D8,false,Rx,0,8,0,0,0,0,0,0,38,45
724625,000002ED,false,Rx,0,8,0,0,0,0,0,0,0,0
725700,000002D9,false,Rx,0,8,0,0,0,0,0,0,0,0
725730,000002EE,false,Rx,0,8,0,0,0,0,0,0,0,0
725748,000003A1,false,Rx,0,8,53,EF,96,0,FF,FF,FF,FF
725766,000003A2,false,Rx,0,8,0,0,0,0,0,0,0,0
726605,000001AB,false,Rx,0,8,10,4,82,50,70,38,0,0
726633,000001AC,false,Rx,0,8,0,28,0,0,0,0,0,0
726651,226,false,Rx,0,8,E0,72,E7,FF,43,E1,5,42
726669,227,false,Rx,0,8,2,70,E1,8,0,F2,17,4
728071,356,false,Rx,0,8,B7,A4,86,0,0,0,0,0
728117,357,false,Rx,0,8,0,0,0,0,0,4B,4D,48
728135,358,false,Rx,0,8,35,41,45,4D,52,37,33,4F
728580,359,false,Rx,0,8,51,4F,34,52,4A,35,33,0
731577,121,false,Rx,0,8,5D,5B,76,0,0,0,0,5
731604,122,false,Rx,0,8,FF,D9,67,1F,46,46,46,46
731622,123,false,Rx,0,8,11,3,0,0,0,0,1,35
731640,124,false,Rx,0,8,0,0,0A,0,0,0,20,40
734566,161,false,Rx,0,8,C6,9A,35,3,0,0,0,2
735565,162,false,Rx,0,8,FF,FC,1,0,0,0,0,0
736565,36,false,Rx,0,8,64,D6,78,51,0,0,25,1
736584,37,false,Rx,0,8,0,0,0,10,0,40,0,0
736602,38,false,Rx,0,8,4,0,0,0,90,38,96,D4
737568,39,false,Rx,0,8,0,0,0,0,0,0,0,0
738565,384,false,Rx,0,8,E9,DC,2,0,0,FF,0,21
739567,000003B6,false,Rx,0,8,A3,97,84,0,0,0,0,46
739587,000003B7,false,Rx,0,8,46,0,0,0,0,0,0,0
739605,000003B8,false,Rx,0,8,0C,3,0,0,0,0,69,0E
739623,61,false,Rx,0,8,3C,2E,7E,0,0,0,0,0
740566,000003B9,false,Rx,0,8,0,0,0,0,0,0,0,0
740586,62,false,Rx,0,8,2,2,0,2,40,FF,0,FF
740604,63,false,Rx,0,8,0,0,5,0,0,8,FD,0
740621,64,false,Rx,0,8,0,0,0,4,FF,FA,0,0
741567,000000A1,false,Rx,0,8,19,AD,7E,1A,0,0,0,0
741587,000000A2,false,Rx,0,8,0,0,0,0,0,0,0,0
741605,000000A3,false,Rx,0,8,0,40,1,0,0,0,0,0
741623,91,false,Rx,0,8,4E,DF,0A,0,0,0,0,0
742569,92,false,Rx,0,8,0,0,0,0,0,0,0,0
742589,93,false,Rx,0,8,0,0,0,0,0,0,0,0
742607,394,false,Rx,0,8,2A,22,1A,49,0,0,0,0
742625,94,false,Rx,0,8,0,0,0,0,0,0,0,0
743567,000003C3,false,Rx,0,8,45,10,31,30,36,0,0,0
743588,000000FF,false,Rx,0,8,CB,10,0,0,0,0,2,0
743605,000003E0,false,Rx,0,8,66,20,1,0,54,3,0,0
744565,0000011B,false,Rx,0,8,68,2E,6B,5,80,8,A8,2
744584,0000012B,false,Rx,0,8,2F,D4,6B,6,0,0,8,0
744602,0000011C,false,Rx,0,8,0,5,20,0,22,0,1,1
745569,0000012C,false,Rx,0,8,0,0,1,0,0,64,0,0
745589,000001F1,false,Rx,0,8,FF,DE,E6,1,0,0,28,0
745607,000003E5,false,Rx,0,8,37,80,1,0,0,0,0,0
745625,000001F2,false,Rx,0,8,0,0,0,0,0,0,0,0
746565,000003E6,false,Rx,0,8,67,90,0,0,0,0,0,0
746585,0000041A,false,Rx,0,8,8D,D0,12,0,0,0,0,0
747568,0000041B,false,Rx,0,8,70,D0,0,0,0,0,0,0
747589,0000041C,false,Rx,0,8,48,0,E0,0,0,0,0,0
747607,422,false,Rx,0,8,9D,70,1,0,0,0,4,0
747631,432,false,Rx,0,8,3,20,2,0,0,0,0,0
748565,435,false,Rx,0,8,26,C0,0,40,0,0,0,0
748584,442,false,Rx,0,8,CE,20,11,81,0,0,0,0
748602,444,false,Rx,0,8,D5,20,20,50,55,50,0,0
749569,445,false,Rx,0,8,C6,C0,0,0,0,0,0,18
749590,464,false,Rx,0,8,D5,20,F0,FF,38,7F,5,0
751564,146,false,Rx,0,8,FC,93,32,10,4,1,0,0
752570,147,false,Rx,0,8,0,4,7D,0,40,0,0,0
752590,148,false,Rx,0,8,0,0,0,0,0,90,40,5
752608,149,false,Rx,0,8,0,0,0,0,0,0,0,0
753569,000003AA,false,Rx,0,8,FF,0,B0,0,54,0,0,0
754574,495,false,Rx,0,8,49,0,0,0,0,0,0,0
754594,487,false,Rx,0,8,0,0,0,0,0,0,0,0
754611,642,false,Rx,0,8,FF,FF,FF,FF,FF,FF,0,0
756571,0000010B,false,Rx,0,8,0F,90,7A,0,0,0,0,5
756592,0000010C,false,Rx,0,8,FF,F9,E7,1F,46,45,46,46
756610,0000010D,false,Rx,0,8,10,3,0,0,0,0,1,35
756627,0000010E,false,Rx,0,8,0,0,0A,0,0,C0,AB,57
757564,000001B1,false,Rx,0,8,F9,0E,32,0,72,0,0,0
757589,000001B2,false,Rx,0,8,23,0,4,0F,0F,7,52,10
757607,000001B3,false,Rx,0,8,10,2C,0,0,87,91,96,90
757624,000001B4,false,Rx,0,8,95,91,17,0,0,40,1,0
763565,0000036F,false,Rx,0,8,28,31,1,0,0,0,0,0
763586,0000037F,false,Rx,0,8,32,C0,52,24,41,2,0,0
763604,380,false,Rx,0,8,AD,D7,FF,0,0,0,0,1
765566,000001A1,false,Rx,0,8,38,C0,36,FE,F7,7F,64,0
765587,000001A2,false,Rx,0,8,0,0,0,0,0,8,0,0
765604,000001A3,false,Rx,0,8,FF,F3,3F,0,0,0,0,0
765622,000001A4,false,Rx,0,8,FE,7,0,0,0,0,0,0
766626,000003B0,false,Rx,0,8,72,37,FF,C7,0,0,3,C0
769447,000003B1,false,Rx,0,8,9B,3C,FF,40,0,0,20,0
769535,448,false,Rx,0,8,0,C0,0,0,0,0,0,0
772589,0000019B,false,Rx,0,8,CF,0B,78,0,0,E4,0,0
772619,0000019C,false,Rx,0,8,40,20,0,0,0,0,0B,9
772636,0000019D,false,Rx,0,8,0,10,0,1,0,0,0,0
773566,0000019E,false,Rx,0,8,15,0,0,0,0,32,0,0
775565,000001E1,false,Rx,0,8,E6,AA,16,2,0,0,0,0
775586,000001E2,false,Rx,0,8,0,0,0,0,0,0,0,0
778564,000003B2,false,Rx,0,8,36,15,FF,2,29,2F,34,0
781565,121,false,Rx,0,8,50,9D,7B,0,0,0,0,5
781587,122,false,Rx,0,8,FF,D9,67,1F,46,46,46,46
781611,123,false,Rx,0,8,11,3,0,0,0,0,1,35
781628,124,false,Rx,0,8,0,0,0A,0,0,0,20,40
782566,427,false,Rx,0,8,1D,86,FF,0,80,0A,0,0
786571,36,false,Rx,0,8,1B,FA,7D,51,0,0,25,1
786593,37,false,Rx,0,8,0,0,0,10,0,40,0,0
786611,38,false,Rx,0,8,4,0,0,0,90,38,96,D4
787566,39,false,Rx,0,8,0,0,0,0,0,0,0,0
789571,61,false,Rx,0,8,C6,D0,83,0,0,0,0,0
789593,62,false,Rx,0,8,2,2,0,2,40,FF,0,FF
790575,63,false,Rx,0,8,0,0,5,0,0,8,FD,0
790595,64,false,Rx,0,8,0,0,0,4,FF,FA,0,0
790613,000000A1,false,Rx,0,8,6D,1D,83,1A,0,0,0,0
790630,561,false,Rx,0,8,63,2,0,0,0,0,FF,FF
791567,000000A2,false,Rx,0,8,0,0,0,0,0,0,0,0
791586,000000A3,false,Rx,0,8,0,40,1,0,0,0,0,0
792566,0000042A,false,Rx,0,8,F4,DE,FF,1,0,10,0,0
794565,0000011B,false,Rx,0,8,AA,F4,70,5,80,8,A8,2
794587,0000012B,false,Rx,0,8,ED,0E,70,6,0,0,8,0
794604,0000011C,false,Rx,0,8,0,5,20,0,22,0,1,1
795567,0000012C,false,Rx,0,8,0,0,1,0,0,64,0,0
795586,000001FB,false,Rx,0,8,50,22,0B,0,0,0,0,0
795604,000004A3,false,Rx,0,8,80,0,48,0B,3E,0,0,0
795621,000001FC,false,Rx,0,8,0,0,0,0,0,0,0,0
796566,000004A4,false,Rx,0,8,FF,FF,FF,0,0,0,0,0
796588,000001FD,false,Rx,0,8,0,1A,3,0,0,0,0,0
796605,000001FE,false,Rx,0,8,0,0,0,0,0,0,0,0
806573,0000010B,false,Rx,0,8,86,69,7F,0,0,0,0,5
806602,0000010C,false,Rx,0,8,FF,F9,E7,1F,46,44,46,46
806621,0000010D,false,Rx,0,8,10,3,0,0,0,0,1,35
806639,0000010E,false,Rx,0,8,0,0,0A,0,0,C0,AB,57
807582,000002C1,false,Rx,0,8,33,4D,87,21,0,41,0,AA
807607,000002C2,false,Rx,0,8,18,0,0,0,0,0,0,0
808565,000002C3,false,Rx,0,8,0,0,0,0,0,0,0,0
808588,000002C4,false,Rx,0,8,0,0,0,0,0,0,0,0
822598,0000019B,false,Rx,0,8,B0,27,7D,0,0,E4,0,0
822638,0000019C,false,Rx,0,8,40,20,0,0,0,0,0B,9
822656,0000019D,false,Rx,0,8,0,10,0,1,0,0,0,0
823603,0000019E,false,Rx,0,8,15,0,0,0,0,32,0,0
825589,000001AB,false,Rx,0,8,E6,2C,87,50,70,38,0,0
825624,401,false,Rx,0,8,A9,30,10,0,0,4,0,0
826778,000001AC,false,Rx,0,8,0,28,0,0,0,0,0,0
828213,316,false,Rx,0,8,3E,32,74,34,14,80,0A,0
828238,317,false,Rx,0,8,0,0,5,0,0,0,0,0
828256,000003CB,false,Rx,0,8,36,14,0,F4,0,0,0,0
828281,0000033B,false,Rx,0,8,4F,3B,0D,0,0,0,0,0
828299,000003CC,false,Rx,0,8,36,31,34,30,33,34,31,0
828317,0000033D,false,Rx,0,8,0,0,0,0,0,0,0,0
829965,473,false,Rx,0,8,5F,24,0,25,0,0,0,78
830018,0000033E,false,Rx,0,8,0,0,0,0,0,0,0,0
830036,474,false,Rx,0,8,93,44,0,0,0,0,0,14
831355,000002FF,false,Rx,0,8,E2,1,0,F1,3F,0,0,0
831389,121,false,Rx,0,8,1F,A4,80,0,0,0,0,5
831524,122,false,Rx,0,8,FF,D9,67,1F,46,46,46,46
832914,123,false,Rx,0,8,11,3,0,0,0,0,1,35
832966,124,false,Rx,0,8,0,0,0A,0,0,0,20,40
834592,161,false,Rx,0,8,DC,E3,3A,3,0,0,0,2
834627,162,false,Rx,0,8,FF,FC,1,0,0,0,0,0
836813,36,false,Rx,0,8,6D,B6,82,51,0,0,25,1
836853,37,false,Rx,0,8,0,0,0,10,0,40,0,0
836872,38,false,Rx,0,8,4,0,0,0,90,38,96,D4
836890,39,false,Rx,0,8,0,0,0,0,0,0,0,0
838842,000002E6,false,Rx,0,8,78,FB,0A,1,0,0,0,15
838880,256,false,Rx,0,8,B0,E0,0A,15,40,0,C0,0
839282,000002E7,false,Rx,0,8,0A,0,0,0,0,0,0,0
839307,257,false,Rx,0,8,0,93,41,13,86,7,0,93
839324,000002E8,false,Rx,0,8,0,0,0,0,0,0,0,0
839342,258,false,Rx,0,8,0B,70,1E,0,10,15,0,28
839580,61,false,Rx,0,8,7E,D1,88,0,0,0,0,0
840606,259,false,Rx,0,8,3A,5,89,3C,4C,2,0,0
840645,62,false,Rx,0,8,2,2,0,2,40,FF,0,FF
840681,000002E9,false,Rx,0,8,0,0,0,0,0,0,0,0
840698,63,false,Rx,0,8,0,0,5,0,0,8,FD,0
841089,64,false,Rx,0,8,0,0,0,4,FF,FA,0,0
841113,000000A1,false,Rx,0,8,51,EC,88,1A,0,0,0,0
841583,000000A2,false,Rx,0,8,0,0,0,0,0,0,0,0
841608,91,false,Rx,0,8,8,86,0B,0,0,0,0,0
842563,92,false,Rx,0,8,0,0,0,0,0,0,0,0
842582,93,false,Rx,0,8,0,0,0,0,0,0,0,0
842601,94,false,Rx,0,8,0,0,0,0,0,0,0,0
842619,000000A3,false,Rx,0,8,0,40,1,0,0,0,0,0
844711,0000011B,false,Rx,0,8,5C,DC,75,5,80,8,A8,2
845917,0000012B,false,Rx,0,8,1B,26,75,6,0,0,8,0
845943,0000011C,false,Rx,0,8,0,5,20,0,22,0,1,1
845961,0000012C,false,Rx,0,8,0,0,1,0,0,64,0,0
849597,000002BF,false,Rx,0,8,FF,FF,FF,0,0,0,0,0
849635,000001E6,false,Rx,0,8,6,E6,16,2,0,0,0,0
849652,0000047F,false,Rx,0,8,FF,FF,FF,FF,FF,FF,F3,FF
849669,000001BB,false,Rx,0,8,B5,65,16,2,0,0,0,0A
849687,653,false,Rx,0,8,0A,19,3,1,2,2A,0,0
850601,000001BC,false,Rx,0,8,32,0,0,0,2,0,0,0
850634,000001BD,false,Rx,0,8,0,0,0,0,0,0,0,0
850652,000001E7,false,Rx,0,8,0,0,22,3,20,1,0,0
852233,146,false,Rx,0,8,83,BF,37,10,4,1,0,0
852269,147,false,Rx,0,8,0,4,7D,0,40,0,0,0
852287,148,false,Rx,0,8,0,0,0,0,0,90,40,5
852650,149,false,Rx,0,8,0,0,0,0,0,0,0,0
856591,0000010B,false,Rx,0,8,C9,50,84,0,0,0,0,5
856628,0000010C,false,Rx,0,8,FF,F9,E7,1F,46,44,46,46
856653,0000010D,false,Rx,0,8,10,3,0,0,0,0,1,35
856670,0000010E,false,Rx,0,8,0,0,0A,0,0,C0,AB,57
856688,000001B1,false,Rx,0,8,86,22,37,0,72,0,0,0
857602,000001B2,false,Rx,0,8,23,0,4,0F,0F,7,52,10
857635,000001B3,false,Rx,0,8,10,2C,0,0,87,91,96,90
857653,000001B4,false,Rx,0,8,95,91,17,0,0,40,1,0
860589,475,false,Rx,0,8,12,0,0,0,0,0,0,0
860624,496,false,Rx,0,8,12,0,0,0,0,0,0,0
863610,0000036F,false,Rx,0,8,20,41,1,0,0,0,0,0
863651,0000037F,false,Rx,0,8,8B,D0,52,24,41,2,0,0
865267,000001A1,false,Rx,0,8,35,6,3B,FE,F7,7F,64,0
865302,000000C5,false,Rx,0,8,0,0,0,0,0,0,0,0
865320,111,false,Rx,0,8,81,7D,7B,1,0,0,0,0
865350,000001A2,false,Rx,0,8,0,0,0,0,0,8,0,0
865367,112,false,Rx,0,8,0,0,0,0,0,0,0,0
865545,000001A3,false,Rx,0,8,FF,F3,3F,0,0,0,0,0
866845,113,false,Rx,0,8,0,0,0,0,0,0,0,0
866893,000001A4,false,Rx,0,8,FE,7,0,0,0,0,0,0
866911,114,false,Rx,0,8,0,0,0,0,0,0,0,0
866929,244,false,Rx,0,8,FF,FF,FF,FF,FF,FF,FF,FF
867274,0000041F,false,Rx,0,8,0,0C,0,0,0,0,0,0
867294,000004B4,false,Rx,0,8,0,0,0,0,0,0,0,0
867312,000004B5,false,Rx,0,8,8,0,F0,7,0,0,0,0
867583,000004B7,false,Rx,0,8,8,0,F0,7,0,0,0,0
868844,000004CA,false,Rx,0,8,0,0,0,0,0,0,0,0
870131,000004CC,false,Rx,0,8,8,0,0,6,0,0,3,0
870163,000004CE,false,Rx,0,8,14,1,FF,FF,FF,FF,FF,FF
870184,000004D7,false,Rx,0,8,23,1,0,0,0,0,0,0
870202,000004D8,false,Rx,0,8,41,10,F0,F0,40,F2,1E,CC
870219,000004DD,false,Rx,0,8,0,0,FE,0,4,0,0,0
870583,000004EA,false,Rx,0,8,67,0,0,89,0,0,0,0
870640,000004EB,false,Rx,0,8,10,80,32,35,80,0,0,0
872391,000004EC,false,Rx,0,8,0,0,0,0,0,0,0,0
872437,000004ED,false,Rx,0,8,0,0,0,0,0,FF,FF,1F
872455,000004EE,false,Rx,0,8,FF,FF,0,0,0,0,0,0
872473,000004EF,false,Rx,0,8,60,0,60,0,29,14,0,0
872491,000004F0,false,Rx,0,8,4A,10,32,35,58,1A,18,2
872861,000004F1,false,Rx,0,8,0,C0,0,0,0,0,0,0
872917,0000019C,false,Rx,0,8,40,20,0,0,0,0,0B,9
872939,000004F2,false,Rx,0,8,2,FF,DD,FF,3,1,0,0
873580,0000019D,false,Rx,0,8,0,10,0,1,0,0,0,0
873609,000004F3,false,Rx,0,8,0,0,0,0,F0,0,0,0
874563,0000019E,false,Rx,0,8,15,0,0,0,0,32,0,0
874587,000004F9,false,Rx,0,8,E0,FF,FF,FF,FF,FF,FF,FF
874605,0000063D,false,Rx,0,8,0,80,0,0,0,0,0,0
874622,0000063E,false,Rx,0,8,FF,FF,FF,FF,FF,FF,FF,FF
876417,0000063F,false,Rx,0,8,0,10,0,C4,FF,0,0,0
876451,640,false,Rx,0,8,FF,FF,FF,0,FF,FF,FF,0
876468,641,false,Rx,0,8,FF,FF,FF,FF,0F,FF,FF,FF
876500,646,false,Rx,0,8,0,0,0,80,1,0,0,0
876518,0000030B,false,Rx,0,8,BD,54,0D,0,4,0,0,0
876536,0000030D,false,Rx,0,8,0,0,0,0,FF,0,0,0
876811,0000030E,false,Rx,0,8,0,0,38,5,21,0,0,1A
881594,121,false,Rx,0,8,60,88,85,0,0,0,0,5
881633,122,false,Rx,0,8,FF,D9,67,1F,46,46,46,46
881651,123,false,Rx,0,8,11,3,0,0,0,0,1,35
881669,124,false,Rx,0,8,0,0,0A,0,0,0,20,40
883585,405,false,Rx,0,8,BD,30,0,0,0,1,0,0
883619,413,false,Rx,0,8,6F,30,0,0,0,0,0,0
883637,410,false,Rx,0,8,4B,80,59,3C,16,6B,FF,FF
883655,414,false,Rx,0,8,F0,10,0,0,28,0,0,0
885213,411,false,Rx,0,8,A8,1,50,50,0,0,44,4
885249,416,false,Rx,0,8,55,0,0,0,0,0,0,0
885267,412,false,Rx,0,8,6D,60,0,0,0,0,0,0
885284,417,false,Rx,0,8,5F,20,0,0,0,0,0,0
885302,0000048F,false,Rx,0,8,AD,10,41,0,5,0,0,0
885705,419,false,Rx,0,8,B6,40,8F,D6,79,86,90,0
886588,36,false,Rx,0,8,12,9A,87,51,0,0,25,1
886613,37,false,Rx,0,8,0,0,0,10,0,40,0,0
886630,38,false,Rx,0,8,4,0,0,0,90,38,96,D4
888017,39,false,Rx,0,8,0,0,0,0,0,0,0,0
889608,563,false,Rx,0,8,65,2,0,0,0,0,FF,FF
890001,61,false,Rx,0,8,1,FD,8D,0,0,0,0,0
890058,62,false,Rx,0,8,2,2,0,2,40,FF,0,FF
890080,63,false,Rx,0,8,0,0,5,0,0,8,FD,0
891212,64,false,Rx,0,8,0,0,0,4,FF,FA,0,0
891246,000000A1,false,Rx,0,8,5E,7,8D,1A,0,0,0,0
891264,000000A2,false,Rx,0,8,0,0,0,0,0,0,0,0
892450,000000A3,false,Rx,0,8,0,40,1,0,0,0,0,0
894593,0000011B,false,Rx,0,8,46,A5,7A,5,80,8,A8,2
894633,0000012B,false,Rx,0,8,1,5F,7A,6,0,0,8,0
894652,0000011C,false,Rx,0,8,0,5,20,0,22,0,1,1
895976,0000012C,false,Rx,0,8,0,0,1,0,0,64,0,0
896013,000001F1,false,Rx,0,8,E5,A7,E9,1,0,0,28,0
896031,151,false,Rx,0,8,4F,FA,0D,A0,C8,0,28,19
896049,000001F2,false,Rx,0,8,0,0,0,0,0,0,0,0
896067,152,false,Rx,0,8,16,18,18,0,0B,0,0,0
896085,236,false,Rx,0,8,ED,24,0D,0,6E,3C,34,6C
896587,153,false,Rx,0,8,0,0,0,0,0,0,0,0
896611,000001F6,false,Rx,0,8,7C,D9,0D,0,0,0,0,0E
897611,154,false,Rx,0,8,0,0,0,0,0,0,0,0
897644,000001F7,false,Rx,0,8,0B,0,0,0,0,0,0,0
897662,000002FB,false,Rx,0,8,72,7F,0D,4,5F,1A,CC,CC
898070,000001F8,false,Rx,0,8,0,0,0,0,0,0,0,0
898090,000002FC,false,Rx,0,8,2,0,16,19,0,0,8E,BF
898108,000001F9,false,Rx,0,8,0,0,A0,C8,14,0,0,0
898579,000002FD,false,Rx,0,8,0,0,0,0,0,1C,0E,EA
898611,237,false,Rx,0,8,0,15,BA,0,0,AA,1E,0
899835,000002FE,false,Rx,0,8,0,0,72,1,0,28,0,0
899869,238,false,Rx,0,8,0,0,5F,0,0,0,0,0
899900,326,false,Rx,0,8,86,87,0D,0,0,0,0,0
899918,239,false,Rx,0,8,0,0,0,0,1,0,0,0
900263,327,false,Rx,0,8,0,0,0,0,5,0,0,0
900290,0000025B,false,Rx,0,8,1E,8C,0D,40,40,20,0,0
900308,328,false,Rx,0,8,0,0,0,0,0,0,0,0
900583,0000025C,false,Rx,0,8,0,0,0B,0,34,89,19,0
901568,329,false,Rx,0,8,A0,0,0,0,0,0,0,0
901598,0000025D,false,Rx,0,8,0,C8,0,0,0,80,C0,70
901616,331,false,Rx,0,8,95,C8,0D,F1,C8,A0,2C,97
901633,0000025E,false,Rx,0,8,4,7,0E,1,0,0,0,0
901651,332,false,Rx,0,8,94,2,0,0,0,0,0,0
903180,382,false,Rx,0,8,F1,7A,1,0,0,1,8,0
903215,333,false,Rx,0,8,0,0,0,1C,0C,40,20,A0
903233,334,false,Rx,0,8,C8,0,0,0,AC,70,1D,90
905796,0000010B,false,Rx,0,8,C4,96,89,0,0,0,0,5
906592,0000010C,false,Rx,0,8,FF,F9,E7,1F,46,44,46,46
906626,0000010D,false,Rx,0,8,10,3,0,0,0,0,1,35
906653,0000010E,false,Rx,0,8,0,0,0A,0,0,C0,AB,57
907001,000002AB,false,Rx,0,8,84,AB,0E,0C,0C,0,0,0
907022,000002AC,false,Rx,0,8,0,FF,FF,0,0,40,0,50
908469,000002AD,false,Rx,0,8,0,1,0,40,FF,FF,FF,0F
908504,000002AE,false,Rx,0,8,1,0,FF,3F,1,1,0,0
908522,000002B6,false,Rx,0,8,F6,DA,0E,1,0,0,0,40
908948,000002B7,false,Rx,0,8,8,2,F0,0,0,4,0,0
908976,251,false,Rx,0,8,62,1A,0D,0,0,0,0,0
908995,252,false,Rx,0,8,0,0,0,0,3,0,0,0
909013,000002B9,false,Rx,0,8,0A,0,0,0,0,0,0,0
909732,253,false,Rx,0,8,0,0,0,51,51,0,80,44
909757,000002E1,false,Rx,0,8,A7,8E,0E,0,0,0,0,40
909774,396,false,Rx,0,8,57,D1,86,0F,8,1,0,2
910570,000002E2,false,Rx,0,8,FD,0,0,0,0,14,0,4
910593,397,false,Rx,0,8,1D,0,0,0,0,0,0,0
910611,000002E3,false,Rx,0,8,0,0,0,0,0,0,72,1
910634,398,false,Rx,0,8,0,0,0,0,0,0,0,0
911567,000002E4,false,Rx,0,8,2,0,0,0,0,0,0,0
917564,383,false,Rx,0,8,12,ED,1,0,2,0,0,0
922565,0000019B,false,Rx,0,8,B9,47,87,0,0,E4,0,0
922587,0000019C,false,Rx,0,8,40,20,0,0,0,0,0B,9
922604,0000019D,false,Rx,0,8,0,10,0,1,0,0,0,0
923567,0000019E,false,Rx,0,8,15,0,0,0,0,32,0,0
923588,419,false,Rx,0,8,49,50,8E,D6,79,86,90,0
923606,000002D6,false,Rx,0,8,7B,ED,86,0,0,0,0,0
923624,000002EB,false,Rx,0,8,C6,2A,86,8,8,1,0,2
924566,000002D7,false,Rx,0,8,0,0,0,0,3,0,0,0
924588,000002EC,false,Rx,0,8,2,0,0,0,0,0,0,0
924606,000002D8,false,Rx,0,8,0,0,0,0,0,0,38,45
924624,000002ED,false,Rx,0,8,0,0,0,0,0,0,0,0
925567,000001E1,false,Rx,0,8,FC,D3,19,2,0,0,0,0
925588,000002D9,false,Rx,0,8,0,0,0,0,0,0,0,0
925605,000001E2,false,Rx,0,8,0,0,0,0,0,0,0,0
925623,000002EE,false,Rx,0,8,0,0,0,0,0,0,0,0
926572,000001AB,false,Rx,0,8,2E,D5,8C,50,70,38,0,0
926594,226,false,Rx,0,8,DE,A3,E9,FF,43,E1,5,42
926612,000001AC,false,Rx,0,8,0,28,0,0,0,0,0,0
926629,227,false,Rx,0,8,2,70,E1,8,0,F2,17,4
927568,000003A1,false,Rx,0,8,77,47,97,0,FF,FF,FF,FF
927590,415,false,Rx,0,8,40,13,10,0,8,1,0,0
927608,000003A2,false,Rx,0,8,0,0,0,0,0,0,0,0
927625,356,false,Rx,0,8,F1,FD,87,0,0,0,0,0
928569,357,false,Rx,0,8,0,0,0,0,0,4B,4D,48
928591,358,false,Rx,0,8,35,41,45,4D,52,37,33,4F
928609,359,false,Rx,0,8,51,4F,34,52,4A,35,33,0
931564,121,false,Rx,0,8,E1,FC,8A,0,0,0,0,5
931591,122,false,Rx,0,8,FF,D9,67,1F,46,46,46,46
931609,123,false,Rx,0,8,11,3,0,0,0,0,1,35
931627,124,false,Rx,0,8,0,0,0A,0,0,0,20,40
934565,161,false,Rx,0,8,2A,CB,3F,3,0,0,0,2
935565,162,false,Rx,0,8,FF,FC,1,0,0,0,0,0
936566,36,false,Rx,0,8,AA,9B,8C,51,0,0,25,1
936585,37,false,Rx,0,8,0,0,0,10,0,40,0,0
936602,38,false,Rx,0,8,4,0,0,0,90,38,96,D4
937566,39,false,Rx,0,8,0,0,0,0,0,0,0,0
938565,000003B6,false,Rx,0,8,E5,CE,85,0,0,0,0,46
939567,384,false,Rx,0,8,E9,DC,2,0,0,FF,0,21
939588,000003B7,false,Rx,0,8,46,0,0,0,0,0,0,0
939605,000003B8,false,Rx,0,8,0C,3,0,0,0,0,69,0E
939623,61,false,Rx,0,8,45,4D,92,0,0,0,0,0
940565,000003B9,false,Rx,0,8,0,0,0,0,0,0,0,0
940585,62,false,Rx,0,8,2,2,0,2,40,FF,0,FF
940603,63,false,Rx,0,8,0,0,5,0,0,8,FD,0
940620,64,false,Rx,0,8,0,0,0,4,FF,FA,0,0
941567,000000A1,false,Rx,0,8,3D,6A,92,1A,0,0,0,0
941588,000000A2,false,Rx,0,8,0,0,0,0,0,0,0,0
941606,000000A3,false,Rx,0,8,0,40,1,0,0,0,0,0
941623,91,false,Rx,0,8,FB,18,0C,0,0,0,0,0
942566,394,false,Rx,0,8,2A,22,1A,49,0,0,0,0
942589,92,false,Rx,0,8,0,0,0,0,0,0,0,0
942607,000003C3,false,Rx,0,8,45,10,31,30,36,0,0,0
942624,93,false,Rx,0,8,0,0,0,0,0,0,0,0
943566,000003E0,false,Rx,0,8,66,20,1,0,54,3,0,0
943585,94,false,Rx,0,8,0,0,0,0,0,0,0,0
943603,000000FF,false,Rx,0,8,CB,10,0,0,0,0,2,0
944635,000003E5,false,Rx,0,8,37,80,1,0,0,0,0,0
944669,0000011B,false,Rx,0,8,B0,8D,7F,5,80,8,A8,2
945754,0000012B,false,Rx,0,8,F7,77,7F,6,0,0,8,0
946174,0000011C,false,Rx,0,8,0,5,20,0,22,0,1,1
946215,0000012C,false,Rx,0,8,0,0,1,0,0,64,0,0
946253,000003E6,false,Rx,0,8,67,90,0,0,0,0,0,0
946270,0000041A,false,Rx,0,8,8D,D0,12,0,0,0,0,0
946288,0000041B,false,Rx,0,8,70,D0,0,0,0,0,0,0
946593,0000041C,false,Rx,0,8,48,0,E0,0,0,0,0,0
947564,422,false,Rx,0,8,9D,70,1,0,0,0,4,0
947585,432,false,Rx,0,8,3,20,2,0,0,0,0,0
947602,435,false,Rx,0,8,26,C0,0,40,0,0,0,0
948565,442,false,Rx,0,8,CE,20,11,81,0,0,0,0
948592,444,false,Rx,0,8,D5,20,20,50,55,50,0,0
948610,445,false,Rx,0,8,C6,C0,0,0,0,0,0,18
949563,464,false,Rx,0,8,D5,20,F0,FF,38,7F,5,0
951560,146,false,Rx,0,8,3B,BE,3C,10,4,1,0,0
952562,147,false,Rx,0,8,0,4,7D,0,40,0,0,0
952583,148,false,Rx,0,8,0,0,0,0,0,90,40,5
952601,149,false,Rx,0,8,0,0,0,0,0,0,0,0
953563,000003AA,false,Rx,0,8,FF,0,B0,0,54,0,0,0
954568,495,false,Rx,0,8,49,0,0,0,0,0,0,0
954587,487,false,Rx,0,8,0,0,0,0,0,0,0,0
954605,642,false,Rx,0,8,FF,FF,FF,FF,FF,FF,0,0
955567,645,false,Rx,0,8,C7,35,6,79,E0,32,56,0
956567,0000010B,false,Rx,0,8,37,8,8E,0,0,0,0,5
956590,0000010C,false,Rx,0,8,FF,F9,E7,1F,46,44,46,46
956608,0000010D,false,Rx,0,8,10,3,0,0,0,0,1,35
956626,0000010E,false,Rx,0,8,0,0,0A,0,0,C0,AB,57
957565,000001B1,false,Rx,0,8,3E,23,3C,0,72,0,0,0
957590,000001B2,false,Rx,0,8,23,0,4,0F,0F,7,52,10
957607,000001B3,false,Rx,0,8,10,2C,0,0,87,91,96,90
957625,000001B4,false,Rx,0,8,95,91,17,0,0,40,1,0
963563,0000036F,false,Rx,0,8,99,51,1,0,0,0,0,0
963593,419,false,Rx,0,8,49,50,8E,D6,79,86,90,0
963610,0000037F,false,Rx,0,8,5D,E0,52,24,41,2,0,0
963628,380,false,Rx,0,8,AD,D7,FF,0,0,0,0,1
965563,000001A1,false,Rx,0,8,94,79,40,FE,F7,7F,64,0
965589,000001A2,false,Rx,0,8,0,0,0,0,0,8,0,0
965607,000001A3,false,Rx,0,8,FF,F3,3F,0,0,0,0,0
965624,000001A4,false,Rx,0,8,FE,7,0,0,0,0,0,0
967566,000003B0,false,Rx,0,8,72,37,FF,C7,0,0,3,C0
968567,000003B1,false,Rx,0,8,9B,3C,FF,40,0,0,20,0
969567,448,false,Rx,0,8,0,C0,0,0,0,0,0,0
972562,0000019B,false,Rx,0,8,1,46,8C,0,0,E4,0,0
972584,0000019C,false,Rx,0,8,40,20,0,0,0,0,0B,9
972601,0000019D,false,Rx,0,8,0,10,0,1,0,0,0,0
973564,0000019E,false,Rx,0,8,15,0,0,0,0,32,0,0
978562,000003B2,false,Rx,0,8,36,15,FF,2,29,2F,34,0
981563,121,false,Rx,0,8,9E,D0,8F,0,0,0,0,5
981595,122,false,Rx,0,8,FF,D9,67,1F,46,46,46,46
981613,123,false,Rx,0,8,11,3,0,0,0,0,1,35
981630,124,false,Rx,0,8,0,0,0A,0,0,0,20,40
982564,427,false,Rx,0,8,1D,86,FF,0,80,0A,0,0
986562,36,false,Rx,0,8,62,99,91,51,0,0,25,1
986584,37,false,Rx,0,8,0,0,0,10,0,40,0,0
986601,38,false,Rx,0,8,4,0,0,0,90,38,96,D4
987568,39,false,Rx,0,8,0,0,0,0,0,0,0,0
989505,565,false,Rx,0,8,66,2,0,0,0,0,FF,FF
989918,61,false,Rx,0,8,3A,61,97,0,0,0,0,0
989943,62,false,Rx,0,8,2,2,0,2,40,FF,0,FF
989961,63,false,Rx,0,8,0,0,5,0,0,8,FD,0
991035,64,false,Rx,0,8,0,0,0,4,FF,FA,0,0
991070,000000A1,false,Rx,0,8,32,81,97,1A,0,0,0,0
991454,000000A2,false,Rx,0,8,0,0,0,0,0,0,0,0
991494,000000A3,false,Rx,0,8,0,40,1,0,0,0,0,0
993076,0000042A,false,Rx,0,8,F4,DE,FF,1,0,10,0,0
994635,0000012B,false,Rx,0,8,78,6F,84,6,0,0,8,0
994675,0000011B,false,Rx,0,8,3F,95,84,5,80,8,A8,2
994694,0000012C,false,Rx,0,8,0,0,1,0,0,64,0,0
996255,0000011C,false,Rx,0,8,0,5,20,0,22,0,1,1
996666,000001FB,false,Rx,0,8,E5,E5,0D,0,0,0,0,0
996693,000001FC,false,Rx,0,8,0,0,0,0,0,0,0,0
996715,000004A3,false,Rx,0,8,80,0,48,0B,3E,0,0,0
996733,000001FD,false,Rx,0,8,0,1A,3,0,0,0,0,0
996751,000001FE,false,Rx,0,8,0,0,0,0,0,0,0,0
1000011,000001E6,false,Rx,0,8,1C,9F,19,2,0,0,0,0
1000047,000001BB,false,Rx,0,8,85,48,19,2,0,0,0,0A
1000066,000001BC,false,Rx,0,8,32,0,0,0,2,0,0,0
1000437,000001BD,false,Rx,0,8,0,0,0,0,0,0,0,0
1000464,000001E7,false,Rx,0,8,0,0,22,3,20,1,0,0
1003593,419,false,Rx,0,8,49,50,8E,D6,79,86,90,0
1006600,0000010B,false,Rx,0,8,FF,0A,93,0,0,0,0,5
1006639,0000010C,false,Rx,0,8,FF,F9,E7,1F,46,44,46,46
1006659,0000010D,false,Rx,0,8,10,3,0,0,0,0,1,35
1006676,0000010E,false,Rx,0,8,0,0,0A,0,0,C0,AB,57
1007641,000002C1,false,Rx,0,8,B2,39,88,21,0,41,0,AA
1007673,000002C2,false,Rx,0,8,18,0,0,0,0,0,0,0
1009220,000002C3,false,Rx,0,8,0,0,0,0,0,0,0,0
1009256,000002C4,false,Rx,0,8,0,0,0,0,0,0,0,0
1022593,0000019B,false,Rx,0,8,C9,44,91,0,0,E4,0,0
1022633,0000019C,false,Rx,0,8,40,20,0,0,0,0,0B,9
1022651,0000019D,false,Rx,0,8,0,10,0,1,0,0,0,0
1023602,0000019E,false,Rx,0,8,15,0,0,0,0,32,0,0
1025791,000001AB,false,Rx,0,8,57,CF,91,50,70,38,0,0
1027070,000001AC,false,Rx,0,8,0,28,0,0,0,0,0,0
1027151,000002FF,false,Rx,0,8,E2,1,0,F1,3F,0,0,0
1027293,401,false,Rx,0,8,A9,30,10,0,0,4,0,0
1027313,316,false,Rx,0,8,1A,9A,75,34,14,80,0A,0
1027331,317,false,Rx,0,8,0,0,5,0,0,0,0,0
1027349,0000033B,false,Rx,0,8,C3,89,0F,0,0,0,0,0
1027366,0000033C,false,Rx,0,8,0,0,0,0,F0,0,0,0
1027804,473,false,Rx,0,8,5F,24,0,25,0,0,0,78
1027835,0000033D,false,Rx,0,8,0,0,0,0,0,0,0,0
1028945,474,false,Rx,0,8,93,44,0,0,0,0,0,14
1028980,0000033E,false,Rx,0,8,0,0,0,0,0,0,0,0
1030975,121,false,Rx,0,8,E3,15,94,0,0,0,0,5
1031382,122,false,Rx,0,8,FF,D9,67,1F,46,46,46,46
1031407,123,false,Rx,0,8,11,3,0,0,0,0,1,35
1032921,124,false,Rx,0,8,0,0,0A,0,0,0,20,40
1034341,161,false,Rx,0,8,D4,DB,44,3,0,0,0,2
1034376,162,false,Rx,0,8,FF,FC,1,0,0,0,0,0
1036181,36,false,Rx,0,8,91,7,96,51,0,0,25,1
1036225,37,false,Rx,0,8,0,0,0,10,0,40,0,0
1036700,38,false,Rx,0,8,4,0,0,0,90,38,96,D4
1037820,39,false,Rx,0,8,0,0,0,0,0,0,0,0
1038580,000002E6,false,Rx,0,8,CD,3C,0C,1,0,0,0,15
1038604,256,false,Rx,0,8,47,15,0C,15,40,0,E0,0
1038623,000002E7,false,Rx,0,8,0A,0,0,0,0,0,0,0
1039676,257,false,Rx,0,8,0,93,41,17,86,7,0,93
1039709,000002E8,false,Rx,0,8,0,0,0,0,0,0,0,0
1039727,258,false,Rx,0,8,0B,70,1E,0,10,15,0,28
1039744,61,false,Rx,0,8,82,60,9C,0,0,0,0,0
1041398,259,false,Rx,0,8,4C,5,8A,3C,4C,2,0,0
1041425,62,false,Rx,0,8,2,2,0,2,40,FF,0,FF
1041443,000002E9,false,Rx,0,8,0,0,0,0,0,0,0,0
1041460,63,false,Rx,0,8,0,0,5,0,0,8,FD,0
1041478,64,false,Rx,0,8,0,0,0,4,FF,FA,0,0
1041562,91,false,Rx,0,8,BD,41,0D,0,0,0,0,0
1042768,92,false,Rx,0,8,0,0,0,0,0,0,0,0
1043164,93,false,Rx,0,8,0,0,0,0,0,0,0,0
1044376,94,false,Rx,0,8,0,0,0,0,0,0,0,0
1044430,000000A3,false,Rx,0,8,0,40,1,0,0,0,0,0
1044448,000001F1,false,Rx,0,8,13,8F,EC,1,0,0,28,0
1044466,000001F2,false,Rx,0,8,0,0,0,0,0,0,0,0
1044611,0000011B,false,Rx,0,8,4C,AC,89,5,80,8,A8,2
1045564,0000012B,false,Rx,0,8,0B,56,89,6,0,0,8,0
1045587,0000011C,false,Rx,0,8,0,5,20,0,22,0,1,1
1045605,0000012C,false,Rx,0,8,0,0,1,0,0,64,0,0
1049591,000002BF,false,Rx,0,8,FF,FF,FF,0,0,0,0,0
1050138,0000047F,false,Rx,0,8,FF,FF,FF,FF,FF,FF,F3,FF
1050157,653,false,Rx,0,8,0A,19,3,1,2,2A,0,0
1051603,146,false,Rx,0,8,2F,6,41,10,4,1,0,0
1051644,147,false,Rx,0,8,0,4,7D,0,40,0,0,0
1052829,148,false,Rx,0,8,0,0,0,0,0,90,40,5
1052863,149,false,Rx,0,8,0,0,0,0,0,0,0,0
1056590,0000010B,false,Rx,0,8,47,0B,98,0,0,0,0,5
1056626,0000010C,false,Rx,0,8,FF,F9,E7,1F,46,44,46,46
1056645,0000010D,false,Rx,0,8,10,3,0,0,0,0,1,35
1056663,0000010E,false,Rx,0,8,0,0,0A,0,0,C0,AB,57
1056688,000001B1,false,Rx,0,8,2A,9B,41,0,72,0,0,0
1057616,000001B2,false,Rx,0,8,23,0,4,0F,0F,7,52,10
1057648,000001B3,false,Rx,0,8,10,2C,0,0,87,91,96,90
1057667,000001B4,false,Rx,0,8,95,91,17,0,0,40,1,0
1060438,475,false,Rx,0,8,12,0,0,0,0,0,0,0
1060474,496,false,Rx,0,8,12,0,0,0,0,0,0,0
1062958,0000036F,false,Rx,0,8,4F,61,1,0,0,0,0,0
1064341,0000037F,false,Rx,0,8,4D,0,52,24,41,2,0,0
1064376,111,false,Rx,0,8,72,E3,7C,1,0,0,0,0
1064743,112,false,Rx,0,8,0,0,0,0,0,0,0,0
1064767,000001A1,false,Rx,0,8,EB,55,45,FE,F7,7F,64,0
1065696,113,false,Rx,0,8,0,0,0,0,0,0,0,0
1065724,000001A2,false,Rx,0,8,0,0,0,0,0,8,0,0
1065743,000000C5,false,Rx,0,8,0,0,0,0,0,0,0,0
1065761,114,false,Rx,0,8,0,0,0,0,0,0,0,0
1067384,000001A3,false,Rx,0,8,FF,F3,3F,0,0,0,0,0
1067419,244,false,Rx,0,8,FF,FF,FF,FF,FF,FF,FF,FF
1067449,000001A4,false,Rx,0,8,FE,7,0,0,0,0,0,0
1067824,000003E4,false,Rx,0,8,FE,0,0,0,0,0,0,0
1067863,000004B4,false,Rx,0,8,0,0,0,0,0,0,0,0
1069106,000004B7,false,Rx,0,8,8,0,F0,7,0,0,0,0
1069174,000004CA,false,Rx,0,8,0,0,0,0,0,0,0,0
1069192,000004CC,false,Rx,0,8,8,0,0,6,0,0,3,0
1069210,000004CE,false,Rx,0,8,14,1,FF,FF,FF,FF,FF,FF
1069228,000004D7,false,Rx,0,8,23,1,0,0,0,0,0,0
1070482,000004D8,false,Rx,0,8,41,10,F0,F0,40,F2,1E,CC
1070646,000004DF,false,Rx,0,8,FF,3,0C,3F,0,0,0,0
1070666,000004E7,false,Rx,0,8,0,30,0,0,0,0,69,0
1070684,000004E8,false,Rx,0,8,FF,FF,FF,5,FF,FF,FF,0
1070702,000004E9,false,Rx,0,8,12,0,0,34,0,0,50,0
1070720,000004EA,false,Rx,0,8,67,0,0,89,0,0,0,0
1070737,000004EB,false,Rx,0,8,10,80,32,35,80,0,0,0
1071653,000004EC,false,Rx,0,8,0,0,0,0,0,0,0,0
1071710,000004ED,false,Rx,0,8,0,0,0,0,0,FF,FF,1F
1071729,000004EE,false,Rx,0,8,FF,FF,0,0,0,0,0,0
1072921,000004EF,false,Rx,0,8,60,0,60,0,29,14,0,0
1073402,0000019B,false,Rx,0,8,3A,DA,96,0,0,E4,0,0
1073532,640,false,Rx,0,8,FF,FF,FF,0,FF,FF,FF,0
1075971,0000019E,false,Rx,0,8,15,0,0,0,0,32,0,0
1077117,0000030C,false,Rx,0,8,0,0,0E,0,2C,0,A0,0F
1081164,121,false,Rx,0,8,EE,D3,99,0,0,0,0,5
1081199,122,false,Rx,0,8,FF,D9,67,1F,46,46,46,46
1081745,123,false,Rx,0,8,11,3,0,0,0,0,1,35
1081772,124,false,Rx,0,8,0,0,0A,0,0,0,20,40
1083073,405,false,Rx,0,8,BD,30,0,0,0,1,0,0
1083115,413,false,Rx,0,8,6F,30,0,0,0,0,0,0
1085814,410,false,Rx,0,8,4B,80,59,3C,16,6B,FF,FF
1087086,414,false,Rx,0,8,F0,10,0,0,28,0,0,0
1087511,411,false,Rx,0,8,A8,1,50,50,0,0,44,4
1088511,416,false,Rx,0,8,55,0,0,0,0,0,0,0
1088529,412,false,Rx,0,8,6D,60,0,0,0,0,0,0
1089633,566,false,Rx,0,8,16,2,0,0,0,0,FF,FF
1089661,36,false,Rx,0,8,9C,C1,9B,51,0,0,25,1
1089679,61,false,Rx,0,8,E1,FB,A1,0,0,0,0,0
1090101,62,false,Rx,0,8,2,2,0,2,40,FF,0,FF
1090131,63,false,Rx,0,8,0,0,5,0,0,8,FD,0
1090150,64,false,Rx,0,8,0,0,0,4,FF,FA,0,0
1091138,000000A1,false,Rx,0,8,CD,F3,A1,1A,0,0,0,0
1091171,000000A2,false,Rx,0,8,0,0,0,0,0,0,0,0
1092767,000000A3,false,Rx,0,8,0,40,1,0,0,0,0,0
1094766,0000011B,false,Rx,0,8,D3,C4,8E,5,80,8,A8,2
1094913,0000012B,false,Rx,0,8,94,3E,8E,6,0,0,8,0
1094945,0000011C,false,Rx,0,8,0,5,20,0,22,0,1,1
1094963,0000012C,false,Rx,0,8,0,0,1,0,0,64,0,0
1096480,000001F6,false,Rx,0,8,F0,6B,0F,0,0,0,0,0E
1096519,151,false,Rx,0,8,C3,48,0F,A0,C8,0,28,19
1096770,000001F7,false,Rx,0,8,0B,0,0,0,0,0,0,0
1096795,152,false,Rx,0,8,16,18,18,0,0B,0,0,0
1096813,000001F8,false,Rx,0,8,0,0,0,0,0,0,0,0
1096831,000001F9,false,Rx,0,8,0,0,A0,C8,14,0,0,0
1097574,154,false,Rx,0,8,0,0,0,0,0,0,0,0
1097603,236,false,Rx,0,8,61,96,0F,0,6E,3C,34,6C
1097621,000002FB,false,Rx,0,8,9F,61,0F,4,5F,1A,CC,CC
1097639,237,false,Rx,0,8,0,15,BA,0,0,AA,1E,0
1098590,000002FC,false,Rx,0,8,3,0,16,19,0,0,8E,BF
1098618,238,false,Rx,0,8,0,0,5F,0,0,0,0,0
1098636,000002FD,false,Rx,0,8,0,0,0,0,0,1C,0E,EA
1098654,239,false,Rx,0,8,0,0,0,0,1,0,0,0
1099952,000002FE,false,Rx,0,8,0,0,72,1,0,28,0,0
1099986,0000025B,false,Rx,0,8,7C,6E,0F,40,40,20,0,0
1100004,326,false,Rx,0,8,0A,35,0F,0,0,0,0,0
1100022,0000025C,false,Rx,0,8,0,0,0B,0,34,89,19,0
1100051,327,false,Rx,0,8,0,0,0,0,5,0,0,0
1100069,0000025D,false,Rx,0,8,0,C8,0,0,0,80,C0,70
1101344,328,false,Rx,0,8,0,0,0,0,0,0,0,0
1101379,0000025E,false,Rx,0,8,13,7,0E,2,0,0,0,0
1101397,329,false,Rx,0,8,A0,0,0,0,0,0,0,0
1101415,382,false,Rx,0,8,F1,7A,1,0,0,1,8,0
1101433,331,false,Rx,0,8,19,7A,0F,F1,C8,A0,2C,97
1101832,332,false,Rx,0,8,94,2,0,0,0,0,0,0
1101857,333,false,Rx,0,8,0,0,0,1C,0C,40,20,A0
1102827,334,false,Rx,0,8,C8,0,0,0,AC,70,1D,90
1106005,000004E8,false,Rx,0,8,FF,FF,FF,5,FF,FF,FF,0
1106040,0000010B,false,Rx,0,8,38,27,9D,0,0,0,0,5
1106058,0000010C,false,Rx,0,8,FF,F9,E7,1F,46,44,46,46
1106569,0000010D,false,Rx,0,8,10,3,0,0,0,0,1,35
1106592,0000010E,false,Rx,0,8,0,0,0A,0,0,C0,AB,57
1107677,000002AB,false,Rx,0,8,86,42,10,0C,0C,0,0,0
1107704,000002AC,false,Rx,0,8,0,FF,FF,0,0,40,0,50
1107722,000002AD,false,Rx,0,8,0,1,0,40,FF,FF,FF,0F
1107739,000002AE,false,Rx,0,8,1,0,FF,3F,1,1,0,0
1108895,000002B6,false,Rx,0,8,F4,33,10,1,0,0,0,40
1108930,251,false,Rx,0,8,64,74,0F,0,0,0,0,0
1109358,000002B7,false,Rx,0,8,8,2,F0,0,0,4,0,0
1109384,252,false,Rx,0,8,0,0,0,0,3,0,0,0
1109401,000002B8,false,Rx,0,8,AA,11,11,0,0,0,0,0
1109419,253,false,Rx,0,8,0,0,0,51,51,0,80,44
1109437,000002B9,false,Rx,0,8,0A,0,0,0,0,0,0,0
1109573,396,false,Rx,0,8,F5,15,87,0F,8,1,0,2
1110570,000002E1,false,Rx,0,8,A5,67,10,0,0,0,0,40
1110592,397,false,Rx,0,8,4,0,0,0,0,0,0,0
1110610,000002E2,false,Rx,0,8,FD,0,0,0,0,14,0,4
1110628,398,false,Rx,0,8,0,0,0,0,0,0,0,0
1112133,000002E3,false,Rx,0,8,0,0,0,0,0,0,72,1
1112167,000002E4,false,Rx,0,8,2,0,0,0,0,0,0,0
1117592,383,false,Rx,0,8,12,ED,1,0,2,0,0,0
1122587,0000019B,false,Rx,0,8,37,1C,9B,0,0,E4,0,0
1122627,0000019C,false,Rx,0,8,40,20,0,0,0,0,0B,9
1122647,0000019D,false,Rx,0,8,0,10,0,1,0,0,0,0
1123635,0000019E,false,Rx,0,8,15,0,0,0,0,32,0,0
1123666,419,false,Rx,0,8,4D,60,8E,D6,75,86,90,0
1123685,000002D6,false,Rx,0,8,3D,B4,87,0,0,0,0,0
1123702,000002EB,false,Rx,0,8,A9,FD,87,9,8,1,0,2
1124798,000002D7,false,Rx,0,8,0,0,0,0,3,0,0,0
1125180,000002EC,false,Rx,0,8,2,0,0,0,0,0,0,0
1125201,000002D8,false,Rx,0,8,0,0,0,0,0,0,38,45
1125219,000002ED,false,Rx,0,8,0,0,0,0,0,0,0,0
1125237,000002D9,false,Rx,0,8,0,0,0,0,0,0,0,0
1125255,000002EE,false,Rx,0,8,0,0,0,0,0,0,0,0
1125284,000001AB,false,Rx,0,8,C8,A7,96,50,70,38,0,0
1126467,226,false,Rx,0,8,B7,E3,EB,FF,43,E1,5,42
1126503,000001AC,false,Rx,0,8,0,28,0,0,0,0,0,0
1126536,227,false,Rx,0,8,2,70,E1,8,0,F2,17,4
1126716,000003A1,false,Rx,0,8,6D,3E,98,0,FF,FF,FF,FF
1126735,000003A2,false,Rx,0,8,0,0,0,0,0,0,0,0
1128437,356,false,Rx,0,8,70,89,88,0,0,0,0,0
1128472,357,false,Rx,0,8,0,0,0,0,0,4B,4D,48
1128490,358,false,Rx,0,8,35,41,45,4D,52,37,33,4F
1128852,359,false,Rx,0,8,51,4F,34,52,4A,35,33,0
1131418,121,false,Rx,0,8,1D,4D,9E,0,0,0,0,5
1131453,122,false,Rx,0,8,FF,D9,67,1F,46,46,46,46
1131837,123,false,Rx,0,8,11,3,0,0,0,0,1,35
1131866,124,false,Rx,0,8,0,0,0A,0,0,0,20,40
1134590,161,false,Rx,0,8,A7,E2,49,3,0,0,0,2
1134633,162,false,Rx,0,8,FF,FC,1,0,0,0,0,0
1136633,36,false,Rx,0,8,4A,9D,A0,51,0,0,25,1
1136672,37,false,Rx,0,8,0,0,0,10,0,40,0,0
1136690,38,false,Rx,0,8,4,0,0,0,90,38,96,D4
1138250,39,false,Rx,0,8,0,0,0,0,0,0,0,0
1138318,384,false,Rx,0,8,E9,DC,2,0,0,FF,0,21
1139925,000003B6,false,Rx,0,8,2F,25,86,0,0,0,0,46
1140006,000003B7,false,Rx,0,8,46,0,0,0,0,0,0,0
1140025,000003B8,false,Rx,0,8,0C,3,0,0,0,0,69,0E
1140043,61,false,Rx,0,8,12,65,A6,0,0,0,0,0
1140060,000003B9,false,Rx,0,8,0,0,0,0,0,0,0,0
1140078,62,false,Rx,0,8,2,2,0,2,40,FF,0,FF
1140109,63,false,Rx,0,8,0,0,5,0,0,8,FD,0
1141028,64,false,Rx,0,8,0,0,0,4,FF,FA,0,0
1141063,000000A1,false,Rx,0,8,C4,76,A6,1A,0,0,0,0
1141080,000000A2,false,Rx,0,8,0,0,0,0,0,0,0,0
1142371,000000A3,false,Rx,0,8,0,40,1,0,0,0,0,0
1142406,91,false,Rx,0,8,77,AA,0E,0,0,0,0,0
1142440,92,false,Rx,0,8,0,0,0,0,0,0,0,0
1142854,93,false,Rx,0,8,0,0,0,0,0,0,0,0
1142880,94,false,Rx,0,8,0,0,0,0,0,0,0,0
1142898,000000FF,false,Rx,0,8,CB,10,0,0,0,0,2,0
1142916,394,false,Rx,0,8,2A,22,1A,49,0,0,0,0
1142951,000003C3,false,Rx,0,8,45,10,31,30,36,0,0,0
1143930,000003E0,false,Rx,0,8,66,20,1,0,54,3,0,0
1145248,0000012B,false,Rx,0,8,ED,24,93,6,0,0,8,0
1145283,0000011B,false,Rx,0,8,AA,DE,93,5,80,8,A8,2
1147118,000003E5,false,Rx,0,8,37,80,1,0,0,0,0,0
1147153,000003E6,false,Rx,0,8,67,90,0,0,0,0,0,0
1147171,0000041A,false,Rx,0,8,8D,D0,12,0,0,0,0,0
1149067,432,false,Rx,0,8,3,20,2,0,0,0,0,0
1149118,435,false,Rx,0,8,26,C0,0,40,0,0,0,0
1149136,442,false,Rx,0,8,CE,20,11,81,0,0,0,0
1149154,444,false,Rx,0,8,D5,20,20,50,55,50,0,0
1149171,445,false,Rx,0,8,C6,C0,0,0,0,0,0,18
1149189,000001BB,false,Rx,0,8,8A,A3,1C,2,0,0,0,0A
1150448,464,false,Rx,0,8,D5,20,F0,FF,38,7F,5,0
1150483,000001BC,false,Rx,0,8,32,0,0,0,2,0,0,0
1150501,000001BD,false,Rx,0,8,0,0,0,0,0,0,0,0
1150519,000001E7,false,Rx,0,8,0,0,22,3,20,1,0,0
1151802,146,false,Rx,0,8,DC,98,46,10,4,1,0,0
1151837,147,false,Rx,0,8,0,4,7D,0,40,0,0,0
1153268,148,false,Rx,0,8,0,0,0,0,0,90,40,5
1153303,149,false,Rx,0,8,0,0,0,0,0,0,0,0
1153755,000003AA,false,Rx,0,8,FF,0,B0,0,54,0,0,0
1154751,495,false,Rx,0,8,49,0,0,0,0,0,0,0
1156161,487,false,Rx,0,8,0,0,0,0,0,0,0,0
1156199,642,false,Rx,0,8,FF,FF,FF,FF,FF,FF,0,0
1156217,0000010B,false,Rx,0,8,D7,0E,A2,0,0,0,0,5
1156234,0000010C,false,Rx,0,8,FF,F9,E7,1F,46,44,46,46
1156674,0000010D,false,Rx,0,8,10,3,0,0,0,0,1,35
1156700,0000010E,false,Rx,0,8,0,0,0A,0,0,C0,AB,57
1158065,000001B1,false,Rx,0,8,D9,5,46,0,72,0,0,0
1158102,000001B2,false,Rx,0,8,23,0,4,0F,0F,7,52,10
1158120,000001B3,false,Rx,0,8,10,2C,0,0,87,91,96,90
1158137,000001B4,false,Rx,0,8,95,91,17,0,0,40,1,0
1163588,0000036F,false,Rx,0,8,F6,71,1,0,0,0,0,0
1163616,419,false,Rx,0,8,4D,60,8E,D6,75,86,90,0
1163634,0000037F,false,Rx,0,8,F4,10,52,24,41,2,0,0
1163651,380,false,Rx,0,8,AD,D7,FF,0,0,0,0,1
1165566,000001A1,false,Rx,0,8,6A,21,4A,FE,F7,7F,64,0
1165588,000001A2,false,Rx,0,8,0,0,0,0,0,8,0,0
1165606,000001A3,false,Rx,0,8,FF,F3,3F,0,0,0,0,0
1165624,000001A4,false,Rx,0,8,FE,7,0,0,0,0,0,0
1166563,643,false,Rx,0,8,0,FC,FF,FF,FF,FF,3,0
1166586,000003B0,false,Rx,0,8,72,37,FF,C7,0,0,3,C0
1168565,000003B1,false,Rx,0,8,9B,3C,FF,40,0,0,20,0
1169564,448,false,Rx,0,8,0,C0,0,0,0,0,0,0
1172565,0000019B,false,Rx,0,8,E1,40,A0,0,0,E4,0,0
1172585,0000019C,false,Rx,0,8,40,20,0,0,0,0,0B,9
1172603,0000019D,false,Rx,0,8,0,10,0,1,0,0,0,0
1173570,0000019E,false,Rx,0,8,15,0,0,0,0,32,0,0
1178564,000003B2,false,Rx,0,8,36,15,FF,2,29,2F,34,0
1181565,121,false,Rx,0,8,7E,D6,A3,0,0,0,0,5
1181592,122,false,Rx,0,8,FF,D9,67,1F,46,46,46,46
1181609,123,false,Rx,0,8,11,3,0,0,0,0,1,35
1181627,124,false,Rx,0,8,0,0,0A,0,0,0,20,40
1182562,427,false,Rx,0,8,1D,86,FF,0,80,0A,0,0
1183566,516,false,Rx,0,8,61,2,0,0,0,0,FF,FF
1186563,36,false,Rx,0,8,35,B1,A5,51,0,0,25,1
1186582,37,false,Rx,0,8,0,0,0,10,0,40,0,0
1186600,38,false,Rx,0,8,4,0,0,0,90,38,96,D4
1187564,39,false,Rx,0,8,0,0,0,0,0,0,0,0
1188564,419,false,Rx,0,8,BA,70,8E,D6,71,86,90,0
1189563,61,false,Rx,0,8,1F,A3,AB,0,0,0,0,0
1189586,62,false,Rx,0,8,2,2,0,2,40,FF,0,FF
1190563,63,false,Rx,0,8,0,0,5,0,0,8,FD,0
1190587,64,false,Rx,0,8,0,0,0,4,FF,FA,0,0
1190605,000000A1,false,Rx,0,8,F2,35,AB,1A,0,0,0,0
1190622,000000A2,false,Rx,0,8,0,0,0,0,0,0,0,0
1191564,000000A3,false,Rx,0,8,0,40,1,0,0,0,0,0
1192564,0000042A,false,Rx,0,8,F4,DE,FF,1,0,10,0,0
1194575,000001F1,false,Rx,0,8,5E,67,EF,1,0,0,28,0
1194596,0000011B,false,Rx,0,8,62,27,98,5,80,8,A8,2
1194613,0000012B,false,Rx,0,8,25,DD,98,6,0,0,8,0
1195571,0000011C,false,Rx,0,8,0,5,20,0,22,0,1,1
1195597,0000012C,false,Rx,0,8,0,0,1,0,0,64,0,0
1195615,000001F2,false,Rx,0,8,0,0,0,0,0,0,0,0
1195633,000001FB,false,Rx,0,8,69,57,0F,0,0,0,0,0
1196564,000001FC,false,Rx,0,8,0,0,0,0,0,0,0,0
1196589,000001FD,false,Rx,0,8,0,1A,3,0,0,0,0,0
1196607,000001FE,false,Rx,0,8,0,0,0,0,0,0,0,0
1197564,000004A3,false,Rx,0,8,80,0,48,0B,3E,0,0,0
1197590,000004A4,false,Rx,0,8,FF,FF,FF,0,0,0,0,0
1206591,0000010B,false,Rx,0,8,A8,22,A7,0,0,0,0,5
1206631,0000010C,false,Rx,0,8,FF,F9,E7,1F,46,44,46,46
1206649,0000010D,false,Rx,0,8,10,3,0,0,0,0,1,35
1206667,0000010E,false,Rx,0,8,0,0,0A,0,0,C0,AB,57
1207671,000002C1,false,Rx,0,8,F4,60,89,21,0,41,0,AA
1207726,000002C2,false,Rx,0,8,18,0,0,0,0,0,0,0
1207744,000002C3,false,Rx,0,8,0,0,0,0,0,0,0,0
1208569,000002C4,false,Rx,0,8,0,0,0,0,0,0,0,0
1222591,0000019B,false,Rx,0,8,9E,6C,A5,0,0,E4,0,0
1222630,0000019C,false,Rx,0,8,40,20,0,0,0,0,0B,9
1222648,0000019D,false,Rx,0,8,0,10,0,1,0,0,0,0
1223599,0000019E,false,Rx,0,8,15,0,0,0,0,32,0,0
1225641,000001E1,false,Rx,0,8,47,13,1F,2,0,0,0,0
1225680,000001AB,false,Rx,0,8,BB,9E,9B,50,70,38,0,0
1225699,000001AC,false,Rx,0,8,0,28,0,0,0,0,0,0
1225716,000002FF,false,Rx,0,8,E2,1,0,F1,3F,0,0,0
1225734,000001E2,false,Rx,0,8,0,0,0,0,0,0,0,0
1226733,316,false,Rx,0,8,57,72,76,34,14,80,0A,0
1226770,401,false,Rx,0,8,A9,30,10,0,0,4,0,0
1226788,317,false,Rx,0,8,0,0,5,0,0,0,0,0
1226806,472,false,Rx,0,8,5C,EC,0,40,8,41,0,45
1226832,0000033B,false,Rx,0,8,C1,60,11,0,0,0,0,0
1228262,473,false,Rx,0,8,5F,24,0,25,0,0,0,78
1228316,0000033C,false,Rx,0,8,0,0,0,0,F0,0,0,0
1228334,474,false,Rx,0,8,93,44,0,0,0,0,0,14
1228351,0000033D,false,Rx,0,8,0,0,0,0,0,0,0,0
1229326,0000033E,false,Rx,0,8,0,0,0,0,0,0,0,0
1229408,419,false,Rx,0,8,BA,70,8E,D6,71,86,90,0
1231799,121,false,Rx,0,8,C6,D7,A8,0,0,0,0,5
1233316,122,false,Rx,0,8,FF,D9,67,1F,46,46,46,46
1233388,123,false,Rx,0,8,11,3,0,0,0,0,1,35
1233407,124,false,Rx,0,8,0,0,0A,0,0,0,20,40
1234306,161,false,Rx,0,8,38,8A,4E,3,0,0,0,2
1234353,162,false,Rx,0,8,FF,FC,1,0,0,0,0,0
1236875,36,false,Rx,0,8,B4,C5,AA,51,0,0,25,1
1236910,37,false,Rx,0,8,0,0,0,10,0,40,0,0
1238369,38,false,Rx,0,8,4,0,0,0,90,38,96,D4
1238438,39,false,Rx,0,8,0,0,0,0,0,0,0,0
1238457,000002E6,false,Rx,0,8,41,8E,0E,1,0,0,0,15
1238484,256,false,Rx,0,8,8E,C8,0E,15,40,0,E0,0
1238502,000002E7,false,Rx,0,8,0A,0,0,0,0,0,0,0
1239968,257,false,Rx,0,8,0,93,41,17,86,7,0,93
1242468,000002E8,false,Rx,0,8,0,0,0,0,0,0,0,0
1242510,258,false,Rx,0,8,0B,70,1E,0,10,15,0,28
1242528,61,false,Rx,0,8,62,66,B0,0,0,0,0,0
1242638,259,false,Rx,0,8,4D,5,8A,3C,4C,2,0,0
1242656,000002E9,false,Rx,0,8,0,0,0,0,0,0,0,0
1242688,94,false,Rx,0,8,0,0,0,0,0,0,0,0
1242705,000000A2,false,Rx,0,8,0,0,0,0,0,0,0,0
1243571,000000A3,false,Rx,0,8,0,40,1,0,0,0,0,0
1244608,0000011B,false,Rx,0,8,94,0F,9D,5,80,8,A8,2
1244780,0000012B,false,Rx,0,8,D3,F5,9D,6,0,0,8,0
1244798,0000011C,false,Rx,0,8,0,5,20,0,22,0,1,1
1246232,0000012C,false,Rx,0,8,0,0,1,0,0,64,0,0
1249589,000002BF,false,Rx,0,8,FF,FF,FF,0,0,0,0,0
1249626,0000047F,false,Rx,0,8,FF,FF,FF,FF,FF,FF,F3,FF
1249644,653,false,Rx,0,8,0A,19,3,1,2,2A,0,0
1251778,146,false,Rx,0,8,D1,5E,4B,10,4,1,0,0
1251819,147,false,Rx,0,8,0,4,7D,0,40,0,0,0
1252568,148,false,Rx,0,8,0,0,0,0,0,90,40,5
1252591,149,false,Rx,0,8,0,0,0,0,0,0,0,0
1256609,0000010B,false,Rx,0,8,10,23,AC,0,0,0,0,5
1256646,0000010C,false,Rx,0,8,FF,F9,E7,1F,46,44,46,46
1256665,0000010D,false,Rx,0,8,10,3,0,0,0,0,1,35
1256682,0000010E,false,Rx,0,8,0,0,0A,0,0,C0,AB,57
1257647,000001B1,false,Rx,0,8,D4,C3,4B,0,72,0,0,0
1257682,000001B2,false,Rx,0,8,23,0,4,0F,0F,7,52,10
1258890,000001B3,false,Rx,0,8,10,2C,0,0,87,91,96,90
1258922,000001B4,false,Rx,0,8,95,91,17,0,0,40,1,0
1260420,475,false,Rx,0,8,12,0,0,0,0,0,0,0
1260456,496,false,Rx,0,8,12,0,0,0,0,0,0,0
1263068,0000036F,false,Rx,0,8,5F,81,1,0,0,0,0,0
1263114,0000037F,false,Rx,0,8,22,20,52,24,41,2,0,0
1265008,111,false,Rx,0,8,34,BA,7D,1,0,0,0,0
1265417,112,false,Rx,0,8,0,0,0,0,0,0,0,0
1265442,000001A1,false,Rx,0,8,15,0D,4F,FE,F7,7F,64,0
1265459,113,false,Rx,0,8,0,0,0,0,0,0,0,0
1265477,000001A2,false,Rx,0,8,0,0,0,0,0,8,0,0
1265495,114,false,Rx,0,8,0,0,0,0,0,0,0,0
1266507,000001A3,false,Rx,0,8,FF,F3,3F,0,0,0,0,0
1266907,000001A4,false,Rx,0,8,FE,7,0,0,0,0,0,0
1266940,000000C5,false,Rx,0,8,0,0,0,0,0,0,0,0
1266962,244,false,Rx,0,8,FF,FF,FF,FF,FF,FF,FF,FF
1266980,000004B4,false,Rx,0,8,0,0,0,0,0,0,0,0
1268390,000004B5,false,Rx,0,8,8,0,F0,7,0,0,0,0
1268436,000004B7,false,Rx,0,8,8,0,F0,7,0,0,0,0
1268454,000004CA,false,Rx,0,8,0,0,0,0,0,0,0,0
1268472,000004CC,false,Rx,0,8,8,0,0,6,0,0,3,0
1268489,000004CE,false,Rx,0,8,14,1,FF,FF,FF,FF,FF,FF
1268507,419,false,Rx,0,8,BA,70,8E,D6,71,86,90,0
1269780,000004D7,false,Rx,0,8,23,1,0,0,0,0,0,0
1269815,000004D8,false,Rx,0,8,41,10,F0,F0,40,F2,1E,CC
1269833,000004DD,false,Rx,0,8,0,0,FE,0,4,0,0,0
1269851,000004DF,false,Rx,0,8,FF,3,0C,3F,0,0,0,0
1269869,000004E7,false,Rx,0,8,0,30,0,0,0,0,69,0
1271317,000004E8,false,Rx,0,8,FF,FF,FF,5,FF,FF,FF,0
1271352,000004E9,false,Rx,0,8,12,0,0,34,0,0,50,0
1271370,000004EA,false,Rx,0,8,67,0,0,89,0,0,0,0
1271388,000004EB,false,Rx,0,8,10,80,32,35,80,0,0,0
1271406,000004EC,false,Rx,0,8,0,0,0,0,0,0,0,0
1271775,000004EE,false,Rx,0,8,FF,FF,0,0,0,0,0,0
1271798,000004EF,false,Rx,0,8,60,0,60,0,29,14,0,0
1272735,0000063D,false,Rx,0,8,0,80,0,0,0,0,0,0
1273586,0000063F,false,Rx,0,8,0,10,0,C4,FF,0,0,0
1273613,0000019D,false,Rx,0,8,0,10,0,1,0,0,0,0
1274716,640,false,Rx,0,8,FF,FF,FF,0,FF,FF,FF,0
1274743,0000019E,false,Rx,0,8,15,0,0,0,0,32,0,0
1274760,641,false,Rx,0,8,FF,FF,FF,FF,0F,FF,FF,FF
1274778,646,false,Rx,0,8,0,0,0,80,1,0,0,0
1276340,0000030B,false,Rx,0,8,C2,73,11,0,4,0,0,0
1276375,0000030C,false,Rx,0,8,0,0,0E,0,2C,0,A0,0F
1276816,0000030D,false,Rx,0,8,0,0,0,0,FF,0,0,0
1276842,0000030E,false,Rx,0,8,0,0,38,5,21,0,0,FE
1281610,121,false,Rx,0,8,B9,FB,AD,0,0,0,0,5
1281647,122,false,Rx,0,8,FF,D9,67,1F,46,46,46,46
1281665,123,false,Rx,0,8,11,3,0,0,0,0,1,35
1282606,124,false,Rx,0,8,0,0,0A,0,0,0,20,40
1282640,561,false,Rx,0,8,63,2,0,0,0,0,FF,FF
1283629,405,false,Rx,0,8,BD,30,0,0,0,1,0,0
1284026,413,false,Rx,0,8,6F,30,0,0,0,0,0,0
1284045,410,false,Rx,0,8,4B,80,59,3C,16,6B,FF,FF
1285160,414,false,Rx,0,8,F0,10,0,0,28,0,0,0
1285179,411,false,Rx,0,8,A8,1,50,50,0,0,44,4
1285196,416,false,Rx,0,8,55,0,0,0,0,0,0,0
1285214,412,false,Rx,0,8,6D,60,0,0,0,0,0,0
1285232,417,false,Rx,0,8,5F,20,0,0,0,0,0,0
1286301,36,false,Rx,0,8,CB,E9,AF,51,0,0,25,1
1287536,37,false,Rx,0,8,0,0,0,10,0,40,0,0
1287803,38,false,Rx,0,8,4,0,0,0,90,38,96,D4
1287821,39,false,Rx,0,8,0,0,0,0,0,0,0,0
1289680,61,false,Rx,0,8,1D,4A,B5,0,0,0,0,0
1289733,62,false,Rx,0,8,2,2,0,2,40,FF,0,FF
1291160,63,false,Rx,0,8,0,0,5,0,0,8,FD,0
1291195,64,false,Rx,0,8,0,0,0,4,FF,FA,0,0
1292427,000000A1,false,Rx,0,8,92,6F,B5,1A,0,0,0,0
1292469,000000A2,false,Rx,0,8,0,0,0,0,0,0,0,0
1292487,000000A3,false,Rx,0,8,0,40,1,0,0,0,0,0
1293930,419,false,Rx,0,8,BA,70,8E,D6,71,86,90,0
1295381,0000011B,false,Rx,0,8,90,13,A2,5,80,8,A8,2
1295416,0000012B,false,Rx,0,8,D7,E9,A2,6,0,0,8,0
1295435,0000011C,false,Rx,0,8,0,5,20,0,22,0,1,1
1295467,0000012C,false,Rx,0,8,0,0,1,0,0,64,0,0
1295842,000001F6,false,Rx,0,8,F2,82,11,0,0,0,0,0E
1295875,151,false,Rx,0,8,C1,A1,11,A0,C8,0,28,19
1295896,000001F7,false,Rx,0,8,0B,0,0,0,0,0,0,0
1297428,152,false,Rx,0,8,16,18,18,0,0B,0,0,0
1297463,000001F8,false,Rx,0,8,0,0,0,0,0,0,0,0
1297481,153,false,Rx,0,8,0,0,0,0,0,0,0,0
1297498,000001F9,false,Rx,0,8,0,0,A0,C8,14,0,0,0
1297516,154,false,Rx,0,8,0,0,0,0,0,0,0,0
1297534,000002FB,false,Rx,0,8,9D,88,11,4,5F,1A,CC,CC
1297687,237,false,Rx,0,8,0,15,BA,0,0,AA,1E,0
1299030,000002FC,false,Rx,0,8,3,0,16,19,0,0,8E,BF
1299081,238,false,Rx,0,8,0,0,5F,0,0,0,0,0
1299120,000002FD,false,Rx,0,8,0,0,0,0,0,1C,0E,EA
1299138,239,false,Rx,0,8,0,0,0,0,1,0,0,0
1300384,000001E6,false,Rx,0,8,A7,5F,1F,2,0,0,0,0
1300450,0000025B,false,Rx,0,8,6A,72,11,40,40,20,0,0
1300469,000001BB,false,Rx,0,8,8F,FA,1F,2,0,0,0,0A
1300487,0000025C,false,Rx,0,8,0,0,0B,0,34,89,19,0
1300505,000001BC,false,Rx,0,8,32,0,0,0,2,0,0,0
1300522,0000025D,false,Rx,0,8,0,C8,0,0,0,80,C0,70
1301838,0000025E,false,Rx,0,8,AC,7,0E,0F,0,0,0,0
1301873,000001E7,false,Rx,0,8,0,0,22,3,20,1,0,0
1301892,000002FE,false,Rx,0,8,0,0,72,1,0,28,0,0
1301910,382,false,Rx,0,8,F1,7A,1,0,0,1,8,0
1304365,334,false,Rx,0,8,C8,0,0,0,AC,70,1D,90
1306095,0000010B,false,Rx,0,8,D8,21,B1,0,0,0,0,5
1306153,0000010C,false,Rx,0,8,FF,F9,E7,1F,46,44,46,46
1306171,0000010D,false,Rx,0,8,10,3,0,0,0,0,1,35
1307265,0000010E,false,Rx,0,8,0,0,0A,0,0,C0,AB,57
1307302,000002AB,false,Rx,0,8,0A,F0,12,0C,0C,0,0,0
1307722,000002AC,false,Rx,0,8,0,FF,FF,0,0,40,0,50
1307761,000002AD,false,Rx,0,8,0,1,0,40,FF,FF,FF,0F
1309044,000002AE,false,Rx,0,8,1,0,FF,3F,1,1,0,0
1310149,000002B6,false,Rx,0,8,78,81,12,1,0,0,0,40
1310177,485,false,Rx,0,8,0,40,11,2,0,0,0,0
1310195,251,false,Rx,0,8,4,2E,11,0,0,0,0,0
1311533,398,false,Rx,0,8,0,0,0,0,0,0,0,0
1317592,383,false,Rx,0,8,12,ED,1,0,2,0,0,0
1322587,0000019B,false,Rx,0,8,60,34,AF,0,0,E4,0,0
1322624,0000019C,false,Rx,0,8,40,20,0,0,0,0,0B,9
1322643,0000019D,false,Rx,0,8,0,10,0,1,0,0,0,0
1323609,0000019E,false,Rx,0,8,15,0,0,0,0,32,0,0
1323640,000002D6,false,Rx,0,8,BC,C0,88,0,0,0,0,0
1323659,000002EB,false,Rx,0,8,72,EE,88,9,8,1,0,2
1324850,000002D7,false,Rx,0,8,0,0,0,0,3,0,0,0
1325036,000002EC,false,Rx,0,8,12,0,0,0,0,0,0,0
1325054,000002D8,false,Rx,0,8,0,0,0,0,0,0,38,45
1325072,000002ED,false,Rx,0,8,0,0,0,0,0,0,0,0
1325090,000002D9,false,Rx,0,8,0,0,0,0,0,0,0,0
1325108,000001AB,false,Rx,0,8,6D,2,A0,50,70,38,0,0
1327384,000002EE,false,Rx,0,8,0,0,0,0,0,0,0,0
1327473,000001AC,false,Rx,0,8,0,28,0,0,0,0,0,0
1327492,226,false,Rx,0,8,0C,23,ED,FF,43,E1,5,42
1327510,000003A1,false,Rx,0,8,49,96,99,0,FF,FF,FF,FF
1327527,227,false,Rx,0,8,2,70,E1,8,0,F2,17,4
1327808,000003A2,false,Rx,0,8,0,0,0,0,0,0,0,0
1327834,357,false,Rx,0,8,0,0,0,0,0,4B,4D,48
1327852,358,false,Rx,0,8,35,41,45,4D,52,37,33,4F
1329419,359,false,Rx,0,8,51,4F,34,52,4A,35,33,0
1330986,121,false,Rx,0,8,FD,4B,B2,0,0,0,0,5
1332408,122,false,Rx,0,8,FF,D9,67,1F,46,46,46,46
1332794,123,false,Rx,0,8,11,3,0,0,0,0,1,35
1332820,124,false,Rx,0,8,0,0,0A,0,0,0,20,40
1335163,161,false,Rx,0,8,41,90,53,3,0,0,0,2
1335198,162,false,Rx,0,8,FF,FC,1,0,0,0,0,0
1336660,36,false,Rx,0,8,B6,2C,B4,51,0,0,25,1
1336697,37,false,Rx,0,8,0,0,0,10,0,40,0,0
1336716,38,false,Rx,0,8,4,0,0,0,90,38,96,D4
1337993,39,false,Rx,0,8,0,0,0,0,0,0,0,0
1339354,000003B6,false,Rx,0,8,69,7C,87,0,0,0,0,46
1339389,384,false,Rx,0,8,E9,DC,2,0,0,FF,0,21
1339422,000003B7,false,Rx,0,8,46,0,0,0,0,0,0,0
1339440,000003B8,false,Rx,0,8,0C,3,0,0,0,0,69,0E
1339458,61,false,Rx,0,8,9C,3E,BA,0,0,0,0,0
1340929,000003B9,false,Rx,0,8,0,0,0,0,0,0,0,0
1340979,62,false,Rx,0,8,2,2,0,2,40,FF,0,FF
1340997,63,false,Rx,0,8,0,0,5,0,0,8,FD,0
1341365,64,false,Rx,0,8,0,0,0,4,FF,FA,0,0
1341390,000000A1,false,Rx,0,8,A2,42,BA,1A,0,0,0,0
1341408,000000A2,false,Rx,0,8,0,0,0,0,0,0,0,0
1341426,000000A3,false,Rx,0,8,0,40,1,0,0,0,0,0
1342808,91,false,Rx,0,8,75,43,10,0,0,0,0,0
1342844,92,false,Rx,0,8,0,0,0,0,0,0,0,0
1342862,93,false,Rx,0,8,0,0,0,0,0,0,0,0
1342880,394,false,Rx,0,8,2A,22,1A,49,0,0,0,0
1342897,94,false,Rx,0,8,0,0,0,0,0,0,0,0
1342915,000003C3,false,Rx,0,8,45,10,31,30,36,0,0,0
1344000,000000FF,false,Rx,0,8,CB,10,0,0,0,0,2,0
1344034,000003E0,false,Rx,0,8,66,20,1,0,54,3,0,0
1346630,000001F1,false,Rx,0,8,27,7D,F2,1,0,0,28,0
1346713,0000011B,false,Rx,0,8,66,3B,A7,5,80,8,A8,2
1347945,0000012B,false,Rx,0,8,21,C1,A7,6,0,0,8,0
1348005,0000011C,false,Rx,0,8,0,5,20,0,22,0,1,1
1348023,0000012C,false,Rx,0,8,0,0,1,0,0,64,0,0
1348442,000003E5,false,Rx,0,8,37,80,1,0,0,0,0,0
1348480,0000041A,false,Rx,0,8,8D,D0,12,0,0,0,0,0
1348498,0000041B,false,Rx,0,8,70,D0,0,0,0,0,0,0
1348516,432,false,Rx,0,8,3,20,2,0,0,0,0,0
1348534,435,false,Rx,0,8,26,C0,0,40,0,0,0,0
1352573,442,false,Rx,0,8,CE,20,11,81,0,0,0,0
1352634,444,false,Rx,0,8,D5,20,20,50,55,50,0,0
1352652,445,false,Rx,0,8,C6,C0,0,0,0,0,0,18
1352670,464,false,Rx,0,8,D5,20,F0,FF,38,7F,5,0
1352688,146,false,Rx,0,8,AC,9B,50,10,4,1,0,0
1353791,147,false,Rx,0,8,0,4,7D,0,40,0,0,0
1354197,000003AA,false,Rx,0,8,FF,0,B0,0,54,0,0,0
1355523,495,false,Rx,0,8,49,0,0,0,0,0,0,0
1355789,0000010B,false,Rx,0,8,2B,BF,B6,0,0,0,0,5
1357121,0000010C,false,Rx,0,8,FF,F9,E7,1F,46,44,46,46
1360105,487,false,Rx,0,8,0,0,0,0,0,0,0,0
1360141,642,false,Rx,0,8,FF,FF,FF,FF,FF,FF,0,0
1363149,0000036F,false,Rx,0,8,E6,91,1,0,0,0,0,0
1363184,0000037F,false,Rx,0,8,9B,30,52,24,41,2,0,0
1364660,380,false,Rx,0,8,AD,D7,FF,0,0,0,0,1
1364714,000001A1,false,Rx,0,8,68,C8,54,FE,F7,7F,64,0
1366051,000001A2,false,Rx,0,8,0,0,0,0,0,8,0,0
1366100,000001A3,false,Rx,0,8,FF,F3,3F,0,0,0,0,0
1366119,000001A4,false,Rx,0,8,FE,7,0,0,0,0,0,0
1367089,000003B0,false,Rx,0,8,72,37,FF,C7,0,0,3,C0
1368704,000003B1,false,Rx,0,8,9B,3C,FF,40,0,0,20,0
1370128,448,false,Rx,0,8,0,C0,0,0,0,0,0,0
1372619,0000019B,false,Rx,0,8,1D,F1,B4,0,0,E4,0,0
1372656,0000019C,false,Rx,0,8,40,20,0,0,0,0,0B,9
1372674,0000019D,false,Rx,0,8,0,10,0,1,0,0,0,0
1373589,0000019E,false,Rx,0,8,15,0,0,0,0,32,0,0
1374616,563,false,Rx,0,8,65,2,0,0,0,0,FF,FF
1376018,000001E1,false,Rx,0,8,2A,4F,22,2,0,0,0,0
1376053,000001E2,false,Rx,0,8,0,0,0,0,0,0,0,0
1378643,000003B2,false,Rx,0,8,36,15,FF,2,29,2F,34,0
1381585,121,false,Rx,0,8,82,67,B7,0,0,0,0,5
1381630,122,false,Rx,0,8,FF,D9,67,1F,46,46,46,46
1381649,123,false,Rx,0,8,11,3,0,0,0,0,1,35
1381666,124,false,Rx,0,8,0,0,0A,0,0,0,20,40
1382612,427,false,Rx,0,8,1D,86,FF,0,80,0A,0,0
1383612,419,false,Rx,0,8,E4,80,8E,D6,6D,86,90,0
1386608,36,false,Rx,0,8,BB,EA,B9,51,0,0,25,1
1386648,37,false,Rx,0,8,0,0,0,10,0,40,0,0
1386667,38,false,Rx,0,8,4,0,0,0,90,38,96,D4
1387598,39,false,Rx,0,8,0,0,0,0,0,0,0,0
1389591,61,false,Rx,0,8,E3,12,BF,0,0,0,0,0
1389627,62,false,Rx,0,8,2,2,0,2,40,FF,0,FF
1390738,63,false,Rx,0,8,0,0,5,0,0,8,FD,0
1391133,64,false,Rx,0,8,0,0,0,4,FF,FA,0,0
1391170,000000A1,false,Rx,0,8,AD,A9,BF,1A,0,0,0,0
1391190,000000A2,false,Rx,0,8,0,0,0,0,0,0,0,0
1391208,000000A3,false,Rx,0,8,0,40,1,0,0,0,0,0
1392591,0000042A,false,Rx,0,8,F4,DE,FF,1,0,10,0,0
1394835,0000011B,false,Rx,0,8,AE,C2,AC,5,80,8,A8,2
1394876,0000012B,false,Rx,0,8,E9,38,AC,6,0,0,8,0
1394894,0000011C,false,Rx,0,8,0,5,20,0,22,0,1,1
1395631,0000012C,false,Rx,0,8,0,0,1,0,0,64,0,0
1395663,000001FB,false,Rx,0,8,6B,BE,11,0,0,0,0,0
1395681,000001FC,false,Rx,0,8,0,0,0,0,0,0,0,0
1396574,000001FD,false,Rx,0,8,0,1A,3,0,0,0,0,0
1396597,000001FE,false,Rx,0,8,0,0,0,0,0,0,0,0
1399604,000004A3,false,Rx,0,8,80,0,48,0B,3E,0,0,0
1400591,000004A4,false,Rx,0,8,FF,FF,FF,0,0,0,0,0
1406635,0000010B,false,Rx,0,8,26,79,BB,0,0,0,0,5
1406672,0000010C,false,Rx,0,8,FF,F9,E7,1F,46,44,46,46
1408288,0000010D,false,Rx,0,8,10,3,0,0,0,0,1,35
1408315,0000010E,false,Rx,0,8,0,0,0A,0,0,C0,AB,57
1408333,000002C1,false,Rx,0,8,3E,8B,8A,21,0,41,0,AA
1408351,000002C2,false,Rx,0,8,18,0,0,0,0,0,0,0
1408368,000002C3,false,Rx,0,8,0,0,0,0,0,0,0,0
1422589,0000019B,false,Rx,0,8,10,37,B9,0,0,E4,0,0
1422627,0000019C,false,Rx,0,8,40,20,0,0,0,0,0B,9
1422646,0000019D,false,Rx,0,8,0,10,0,1,0,0,0,0
1423567,0000019E,false,Rx,0,8,15,0,0,0,0,32,0,0
1423588,419,false,Rx,0,8,E4,80,8E,D6,6D,86,90,0
1425564,000001AB,false,Rx,0,8,9B,2A,A5,50,70,38,0,0
1425594,000001AC,false,Rx,0,8,0,28,0,0,0,0,0,0
1425612,000002FF,false,Rx,0,8,E2,1,0,F1,3F,0,0,0
1425630,316,false,Rx,0,8,73,DA,77,34,14,80,0A,0
1426975,472,false,Rx,0,8,5C,EC,0,40,8,41,0,45
1427216,317,false,Rx,0,8,0,0,5,0,0,0,0,0
1428573,401,false,Rx,0,8,A9,30,10,0,0,4,0,0
1428612,473,false,Rx,0,8,5F,24,0,25,0,0,0,78
1428631,0000033B,false,Rx,0,8,4D,D2,13,0,0,0,0,0
1428648,474,false,Rx,0,8,93,44,0,0,0,0,0,14
1428666,0000033C,false,Rx,0,8,0,0,0,0,F0,0,0,0
1428683,0000033D,false,Rx,0,8,0,0,0,0,0,0,0,0
1431645,121,false,Rx,0,8,3A,66,BC,0,0,0,0,5
1431730,122,false,Rx,0,8,FF,D9,67,1F,46,46,46,46
1431748,123,false,Rx,0,8,11,3,0,0,0,0,1,35
1432684,124,false,Rx,0,8,0,0,0A,0,0,0,20,40
1434650,161,false,Rx,0,8,89,69,58,3,0,0,0,2
1434675,162,false,Rx,0,8,FF,FC,1,0,0,0,0,0
1436566,36,false,Rx,0,8,48,74,BE,51,0,0,25,1
1436588,37,false,Rx,0,8,0,0,0,10,0,40,0,0
1436605,38,false,Rx,0,8,4,0,0,0,90,38,96,D4
1437569,39,false,Rx,0,8,0,0,0,0,0,0,0,0
1438562,000002E6,false,Rx,0,8,43,67,10,1,0,0,0,15
1438584,256,false,Rx,0,8,14,83,10,15,40,0,C0,0
1438601,000002E7,false,Rx,0,8,0A,0,0,0,0,0,0,0
1439568,257,false,Rx,0,8,0,93,41,14,86,7,0,93
1439588,000002E8,false,Rx,0,8,0,0,0,0,0,0,0,0
1439606,258,false,Rx,0,8,0B,70,1E,0,10,15,0,28
1439624,61,false,Rx,0,8,42,6D,C4,0,0,0,0,0
1440567,259,false,Rx,0,8,3D,5,8A,3C,4C,2,0,0
1440588,62,false,Rx,0,8,2,2,0,2,40,FF,0,FF
1440606,000002E9,false,Rx,0,8,0,0,0,0,0,0,0,0
1440624,63,false,Rx,0,8,0,0,5,0,0,8,FD,0
1441569,64,false,Rx,0,8,0,0,0,4,FF,FA,0,0
1441588,000000A1,false,Rx,0,8,9,89,C4,1A,0,0,0,0
1441606,000000A2,false,Rx,0,8,0,0,0,0,0,0,0,0
1441624,91,false,Rx,0,8,33,1A,11,0,0,0,0,0
1442567,92,false,Rx,0,8,0,0,0,0,0,0,0,0
1442589,93,false,Rx,0,8,0,0,0,0,0,0,0,0
1442607,94,false,Rx,0,8,0,0,0,0,0,0,0,0
1442624,000000A3,false,Rx,0,8,0,40,1,0,0,0,0,0
1444566,0000011B,false,Rx,0,8,D7,D8,B1,5,80,8,A8,2
1444595,0000012B,false,Rx,0,8,90,22,B1,6,0,0,8,0
1445569,0000011C,false,Rx,0,8,0,5,20,0,22,0,1,1
1445588,0000012C,false,Rx,0,8,0,0,1,0,0,64,0,0
1449571,000002BF,false,Rx,0,8,FF,FF,FF,0,0,0,0,0
1449599,000001E6,false,Rx,0,8,CA,3,22,2,0,0,0,0
1449617,0000047F,false,Rx,0,8,FF,FF,FF,FF,FF,FF,F3,FF
1449635,000001BB,false,Rx,0,8,4C,79,22,2,0,0,0,0A
1449652,653,false,Rx,0,8,0A,19,3,1,2,2A,0,0
1450569,000001BC,false,Rx,0,8,32,0,0,0,2,0,0,0
1450590,000001BD,false,Rx,0,8,0,0,0,0,0,0,0,0
1450607,000001E7,false,Rx,0,8,0,0,22,3,20,1,0,0
1451567,146,false,Rx,0,8,D3,B7,55,10,4,1,0,0
1453459,147,false,Rx,0,8,0,4,7D,0,40,0,0,0
1453494,148,false,Rx,0,8,0,0,0,0,0,90,40,5
1453512,149,false,Rx,0,8,0,0,0,0,0,0,0,0
1456587,0000010B,false,Rx,0,8,87,6,C0,0,0,0,0,5
1459047,0000010C,false,Rx,0,8,FF,F9,E7,1F,46,44,46,46
1459595,0000010D,false,Rx,0,8,10,3,0,0,0,0,1,35
1459638,0000010E,false,Rx,0,8,0,0,0A,0,0,C0,AB,57
1459656,000001B1,false,Rx,0,8,D6,2A,55,0,72,0,0,0
1459674,000001B2,false,Rx,0,8,23,0,4,0F,0F,7,52,10
1460598,475,false,Rx,0,8,12,0,0,0,0,0,0,0
1460626,496,false,Rx,0,8,12,0,0,0,0,0,0,0
1463990,0000036F,false,Rx,0,8,30,A1,1,0,0,0,0,0
1464174,419,false,Rx,0,8,E4,80,8E,D6,6D,86,90,0
1464192,0000037F,false,Rx,0,8,93,40,52,24,41,2,0,0
1464210,111,false,Rx,0,8,FE,51,7E,1,0,0,0,0
1464586,112,false,Rx,0,8,0,0,0,0,0,0,0,0
1465564,000001A1,false,Rx,0,8,65,0E,59,FE,F7,7F,64,0
1465585,113,false,Rx,0,8,0,0,0,0,0,0,0,0
1465603,000001A2,false,Rx,0,8,0,0,0,0,0,8,0,0
1465628,114,false,Rx,0,8,0,0,0,0,0,0,0,0
1465646,000001A3,false,Rx,0,8,FF,F3,3F,0,0,0,0,0
1466719,000001A4,false,Rx,0,8,FE,7,0,0,0,0,0,0
1468679,565,false,Rx,0,8,66,2,0,0,0,0,FF,FF
1470080,000000C5,false,Rx,0,8,0,0,0,0,0,0,0,0
1470115,244,false,Rx,0,8,FF,FF,FF,FF,FF,FF,FF,FF
1470133,0000041F,false,Rx,0,8,0,0C,0,0,0,0,0,0
1470502,000004B4,false,Rx,0,8,0,0,0,0,0,0,0,0
1470535,000004B5,false,Rx,0,8,8,0,F0,7,0,0,0,0
1470683,000004B7,false,Rx,0,8,8,0,F0,7,0,0,0,0
1471571,000004CA,false,Rx,0,8,0,0,0,0,0,0,0,0
1471592,000004CC,false,Rx,0,8,8,0,0,6,0,0,3,0
1471610,000004CE,false,Rx,0,8,14,1,FF,FF,FF,FF,FF,FF
1471634,000004D7,false,Rx,0,8,23,1,0,0,0,0,0,0
1472969,000004D8,false,Rx,0,8,41,10,F0,F0,40,F2,1E,CC
1473016,0000019B,false,Rx,0,8,E3,A9,BE,0,0,E4,0,0
1473034,000004DD,false,Rx,0,8,0,0,FE,0,4,0,0,0
1473051,0000019C,false,Rx,0,8,40,20,0,0,0,0,0B,9
1473069,000004DF,false,Rx,0,8,FF,3,0C,3F,0,0,0,0
1473584,0000019D,false,Rx,0,8,0,10,0,1,0,0,0,0
1473610,000004E7,false,Rx,0,8,0,30,0,0,0,0,69,0
1473628,0000019E,false,Rx,0,8,15,0,0,0,0,32,0,0
1475705,000004E8,false,Rx,0,8,FF,FF,FF,5,FF,FF,FF,0
1475740,000004E9,false,Rx,0,8,12,0,0,34,0,0,50,0
1475759,000004EA,false,Rx,0,8,67,0,0,89,0,0,0,0
1475776,000004EB,false,Rx,0,8,10,80,32,35,80,0,0,0
1475794,000004EC,false,Rx,0,8,0,0,0,0,0,0,0,0
1475811,000004EF,false,Rx,0,8,60,0,60,0,29,14,0,0
1476592,0000030B,false,Rx,0,8,4E,C1,13,0,4,0,0,0
1476621,0000063D,false,Rx,0,8,0,80,0,0,0,0,0,0
1476639,0000030C,false,Rx,0,8,0,0,0E,0,2C,0,A0,0F
1477596,0000063E,false,Rx,0,8,FF,FF,FF,FF,FF,FF,FF,FF
1477624,0000030D,false,Rx,0,8,0,0,0,0,FF,0,0,0
1477642,0000063F,false,Rx,0,8,0,10,0,C4,FF,0,0,0
1477668,0000030E,false,Rx,0,8,0,0,38,5,21,0,0,FE
1477686,640,false,Rx,0,8,FF,FF,FF,0,FF,FF,FF,0
1478615,641,false,Rx,0,8,FF,FF,FF,FF,0F,FF,FF,FF
1478647,646,false,Rx,0,8,0,0,0,80,1,0,0,0
1481587,121,false,Rx,0,8,2E,DE,C1,0,0,0,0,5
1481627,122,false,Rx,0,8,FF,D9,67,1F,46,46,46,46
1481645,123,false,Rx,0,8,11,3,0,0,0,0,1,35
1481663,124,false,Rx,0,8,0,0,0A,0,0,0,20,40
1483565,405,false,Rx,0,8,BD,30,0,0,0,1,0,0
1483594,413,false,Rx,0,8,6F,30,0,0,0,0,0,0
1483612,410,false,Rx,0,8,4B,80,59,3C,16,6B,FF,FF
1483630,414,false,Rx,0,8,F0,10,0,0,28,0,0,0
1484773,411,false,Rx,0,8,A8,1,50,50,0,0,44,4
1484809,416,false,Rx,0,8,55,0,0,0,0,0,0,0
1484827,412,false,Rx,0,8,6D,60,0,0,0,0,0,0
1485111,417,false,Rx,0,8,5F,20,0,0,0,0,0,0
1485130,418,false,Rx,0,8,19,70,0,0,12,0C,0,0
1488040,36,false,Rx,0,8,5C,CC,C3,51,0,0,25,1
1488160,37,false,Rx,0,8,0,0,0,10,0,40,0,0
1488178,38,false,Rx,0,8,4,0,0,0,90,38,96,D4
1488196,39,false,Rx,0,8,0,0,0,0,0,0,0,0
1488214,419,false,Rx,0,8,13,90,8E,D6,69,86,90,0
1489590,61,false,Rx,0,8,4F,AB,C9,0,0,0,0,0
1489619,62,false,Rx,0,8,2,2,0,2,40,FF,0,FF
1490980,63,false,Rx,0,8,0,0,5,0,0,8,FD,0
1491018,64,false,Rx,0,8,0,0,0,4,FF,FA,0,0
1491037,000000A1,false,Rx,0,8,3F,CA,C9,1A,0,0,0,0
1492060,000000A2,false,Rx,0,8,0,0,0,0,0,0,0,0
1492132,000000A3,false,Rx,0,8,0,40,1,0,0,0,0,0
1494584,000001F1,false,Rx,0,8,B8,15,F5,1,0,0,28,0
1494612,0000011B,false,Rx,0,8,48,B0,B6,5,80,8,A8,2
1494630,151,false,Rx,0,8,4D,13,13,A0,C8,0,28,19
1496110,0000011C,false,Rx,0,8,0,5,20,0,22,0,1,1
1496145,0000012B,false,Rx,0,8,0F,4A,B6,6,0,0,8,0
1496163,000001F2,false,Rx,0,8,0,0,0,0,0,0,0,0
1496181,0000012C,false,Rx,0,8,0,0,1,0,0,64,0,0
1496199,000001F6,false,Rx,0,8,7E,30,13,0,0,0,0,0E
1496608,000001F7,false,Rx,0,8,0B,0,0,0,0,0,0,0
1497898,153,false,Rx,0,8,0,0,0,0,0,0,0,0
1497924,000001F8,false,Rx,0,8,0,0,0,0,0,0,0,0
1497956,154,false,Rx,0,8,0,0,0,0,0,0,0,0
1497973,000001F9,false,Rx,0,8,0,0,A0,C8,14,0,0,0
1497991,236,false,Rx,0,8,EF,CD,13,0,6E,3C,34,6C
1498008,237,false,Rx,0,8,0,15,BA,0,0,AA,1E,0
1498956,000002FC,false,Rx,0,8,3,0,16,19,0,0,8E,BF
