Time Stamp,ID,Extended,Dir,Bus,LEN,D1,D2,D3,D4,D5,D6,D7,D8
5940630,00000162,false,Rx,0,8,FF,FC,01,00,00,00,00,00,
5942593,0000010B,false,Rx,0,8,71,51,8F,00,00,00,00,05,
5942630,0000010C,false,Rx,0,8,FF,F9,E7,1F,46,44,46,46,
5942648,0000010D,false,Rx,0,8,10,03,00,00,00,00,01,35,
5943569,000002C1,false,Rx,0,8,E3,AF,BB,21,00,41,00,A7,
5943588,0000010E,false,Rx,0,8,00,00,0A,00,00,C0,AB,57,
5943606,000002C2,false,Rx,0,8,09,00,00,00,00,00,00,00,
5943624,000002C3,false,Rx,0,8,00,00,00,00,00,00,00,00,
5944569,000002C4,false,Rx,0,8,00,00,00,00,00,00,00,00,
5950564,0000011B,false,Rx,0,8,1B,3D,85,05,80,08,A8,02,
5950585,0000012B,false,Rx,0,8,5C,C7,85,06,00,00,08,00,
5950602,0000011C,false,Rx,0,8,00,05,20,00,22,00,01,01,
5950620,0000012C,false,Rx,0,8,00,00,01,00,00,64,00,00,
5953565,000004A3,false,Rx,0,8,80,00,48,0B,3E,00,00,00,
5954567,000004A4,false,Rx,0,8,FF,FF,FF,00,00,00,00,00,
5955565,0000019B,false,Rx,0,8,47,1F,8D,00,00,E4,00,00,
5956566,0000019C,false,Rx,0,8,40,20,00,00,00,00,0B,09,
5956586,0000019D,false,Rx,0,8,00,10,00,01,00,00,00,00,
5956603,0000019E,false,Rx,0,8,15,00,00,00,00,32,00,00,
5959565,0000033B,false,Rx,0,8,24,AF,75,00,00,00,00,00,
5959593,0000033C,false,Rx,0,8,00,00,00,00,F0,00,00,00,
5959611,0000033D,false,Rx,0,8,00,00,00,00,00,00,00,00,
5960571,0000033E,false,Rx,0,8,00,00,00,00,00,00,00,00,
5964565,00000121,false,Rx,0,8,DA,60,90,00,00,00,00,05,
5964589,00000122,false,Rx,0,8,FF,D9,67,1F,46,46,46,46,
5964606,00000123,false,Rx,0,8,11,03,00,00,00,00,01,35,
5964624,00000124,false,Rx,0,8,00,00,0A,00,00,00,20,40,
5967564,0000036F,false,Rx,0,8,81,C1,01,00,00,00,00,00,
5968567,0000037F,false,Rx,0,8,9B,30,52,24,41,02,00,00,
5969573,000001A1,false,Rx,0,8,5E,92,43,FE,F7,7F,64,00,
5970642,000001A2,false,Rx,0,8,00,00,00,00,00,08,00,00,
5970666,000001A3,false,Rx,0,8,FF,F3,3F,00,00,00,00,00,
5970684,000001A4,false,Rx,0,8,FE,07,00,00,00,00,00,00,
5971574,00000036,false,Rx,0,8,A8,72,92,51,00,00,25,01,
5972563,00000037,false,Rx,0,8,00,00,00,10,00,40,00,00,
5972585,00000038,false,Rx,0,8,04,00,00,00,90,38,96,D4,
5972603,00000039,false,Rx,0,8,00,00,00,00,00,00,00,00,
5973573,00000419,false,Rx,0,8,58,20,9E,D6,CD,79,8F,00,
5973595,000002E6,false,Rx,0,8,13,6F,72,01,00,00,00,15,
5973613,00000256,false,Rx,0,8,A8,A1,72,15,00,00,F0,00,
5973630,000002E7,false,Rx,0,8,0A,00,00,00,00,00,00,00,
5974567,00000257,false,Rx,0,8,00,8B,42,17,86,07,00,8B,
5974588,000002E8,false,Rx,0,8,00,00,00,00,00,00,00,00,
5974606,00000258,false,Rx,0,8,09,70,1E,00,10,15,00,1C,
5974624,000002E9,false,Rx,0,8,00,00,00,00,00,00,00,00,
5975566,00000259,false,Rx,0,8,3E,05,8A,3C,28,02,00,00,
5976565,00000061,false,Rx,0,8,BB,15,98,00,00,00,00,00,
5976585,00000062,false,Rx,0,8,02,02,00,02,40,FF,00,FF,
5977567,000002BF,false,Rx,0,8,FF,FF,FF,00,00,00,00,00,
5977589,00000063,false,Rx,0,8,00,00,05,00,00,08,FD,00,
5977606,0000047F,false,Rx,0,8,FF,FF,FF,FF,FF,FF,F3,FF,
5977624,00000064,false,Rx,0,8,00,00,00,04,FF,FA,00,00,
5978681,00000653,false,Rx,0,8,0A,19,03,01,02,2A,00,00,
5978708,000000A1,false,Rx,0,8,02,AC,98,1A,00,00,00,00,
5978727,000000A2,false,Rx,0,8,00,00,00,00,00,00,00,00,
5978744,000000A3,false,Rx,0,8,00,40,01,00,00,00,00,00,
5984594,000001E6,false,Rx,0,8,41,07,E6,02,00,00,00,00,
5984630,000001BB,false,Rx,0,8,F7,96,E6,02,00,00,00,0A,
5984648,000001BC,false,Rx,0,8,32,00,00,00,02,00,00,00,
5986203,000001BD,false,Rx,0,8,00,00,00,00,00,00,00,00,
5986238,000001E7,false,Rx,0,8,00,00,22,03,20,01,00,00,
5987952,00000091,false,Rx,0,8,63,12,73,00,00,00,00,00,
5987989,00000092,false,Rx,0,8,00,00,00,00,00,00,00,00,
5988009,00000093,false,Rx,0,8,00,00,00,00,00,00,00,00,
5988027,00000405,false,Rx,0,8,BD,30,00,00,00,01,00,00,
5988044,00000094,false,Rx,0,8,00,00,00,00,00,00,00,00,
5988592,00000410,false,Rx,0,8,A4,70,58,3C,16,6B,FF,FF,
5988629,00000413,false,Rx,0,8,F5,10,00,41,00,00,00,00,
5988647,00000411,false,Rx,0,8,A8,01,50,50,00,00,44,04,
5989571,00000414,false,Rx,0,8,F0,10,00,00,28,00,00,00,
5989591,00000412,false,Rx,0,8,6D,60,00,00,00,00,00,00,
5989617,00000416,false,Rx,0,8,55,00,00,00,00,00,00,00,
5989636,00000417,false,Rx,0,8,06,10,00,00,00,01,00,00,
5990571,00000418,false,Rx,0,8,19,70,00,00,12,0C,00,00,
5992193,0000010B,false,Rx,0,8,0C,94,94,00,00,00,00,05,
5992604,0000010C,false,Rx,0,8,FF,F9,E7,1F,46,44,46,46,
5992629,0000010D,false,Rx,0,8,10,03,00,00,00,00,01,35,
5993581,0000010E,false,Rx,0,8,00,00,0A,00,00,C0,AB,57,
5997044,00000146,false,Rx,0,8,F1,55,3F,10,04,01,00,00,
5997086,00000147,false,Rx,0,8,00,04,7D,00,40,00,00,00,
5997104,00000148,false,Rx,0,8,00,00,00,00,00,90,40,05,
5997121,00000149,false,Rx,0,8,00,00,00,00,00,00,00,00,
5997139,00000475,false,Rx,0,8,12,00,00,00,00,00,00,00,
5997704,00000496,false,Rx,0,8,12,00,00,00,00,00,00,00,
5997753,00000419,false,Rx,0,8,16,30,9E,D6,D1,79,8F,00,
5999644,000001B1,false,Rx,0,8,97,8D,3F,00,72,00,00,00,
5999679,000001B2,false,Rx,0,8,23,00,04,0F,0F,07,52,10,
5999698,000001AB,false,Rx,0,8,8F,6C,85,50,70,38,00,00,
5999715,000002FF,false,Rx,0,8,E2,01,00,F1,3F,00,00,00,
6000691,0000011B,false,Rx,0,8,01,44,8A,05,80,08,A8,02,
6000729,0000012B,false,Rx,0,8,46,BE,8A,06,00,00,08,00,
6000748,0000011C,false,Rx,0,8,00,05,20,00,22,00,01,01,
6000765,0000012C,false,Rx,0,8,00,00,01,00,00,64,00,00,
6000783,000001AC,false,Rx,0,8,00,28,00,00,00,00,00,00,
6001672,00000316,false,Rx,0,8,20,7D,A7,34,14,80,0A,00,
6001695,000001B3,false,Rx,0,8,10,2C,00,00,87,90,96,90,
6001713,00000111,false,Rx,0,8,E4,A9,AF,01,00,00,00,00,
6001730,000001B4,false,Rx,0,8,95,91,17,00,00,40,01,00,
6002666,00000112,false,Rx,0,8,00,00,00,00,00,00,00,00,
6002688,00000317,false,Rx,0,8,00,00,05,00,00,00,00,00,
6002706,00000113,false,Rx,0,8,00,00,00,00,00,00,00,00,
6002723,00000472,false,Rx,0,8,5C,EC,00,40,08,41,00,45,
6004701,00000114,false,Rx,0,8,00,00,00,00,00,00,00,00,
6004737,00000473,false,Rx,0,8,5F,24,00,25,00,00,00,78,
6004755,00000474,false,Rx,0,8,93,44,00,00,00,00,00,14,
6006123,0000019B,false,Rx,0,8,03,AF,92,00,00,E4,00,00,
6006157,0000019C,false,Rx,0,8,40,20,00,00,00,00,0B,09,
6006176,0000019D,false,Rx,0,8,00,10,00,01,00,00,00,00,
6007346,0000019E,false,Rx,0,8,15,00,00,00,00,32,00,00,
6009594,0000030B,false,Rx,0,8,34,38,75,00,04,00,00,00,
6010563,0000030C,false,Rx,0,8,00,00,0E,00,2C,00,A0,0F,
6010587,0000030D,false,Rx,0,8,00,00,00,00,48,00,00,00,
6010604,0000030E,false,Rx,0,8,00,00,38,05,21,00,00,00,
6013626,00000121,false,Rx,0,8,A5,4C,95,00,00,00,00,05,
6014597,00000122,false,Rx,0,8,FF,D9,67,1F,46,46,46,46,
6014630,00000123,false,Rx,0,8,11,03,00,00,00,00,01,35,
6014648,00000124,false,Rx,0,8,00,00,0A,00,00,00,20,40,
6021589,00000036,false,Rx,0,8,D7,5E,97,51,00,00,25,01,
6022591,00000037,false,Rx,0,8,00,00,00,10,00,40,00,00,
6022624,00000038,false,Rx,0,8,04,00,00,00,90,38,96,D4,
6022922,00000039,false,Rx,0,8,00,00,00,00,00,00,00,00,
6025208,000000C5,false,Rx,0,8,00,00,00,00,00,00,00,00,
6025618,00000236,false,Rx,0,8,86,B0,75,00,6E,3C,34,6C,
6026721,00000244,false,Rx,0,8,FF,FF,FF,FF,FF,FF,FF,FF,
6026745,00000237,false,Rx,0,8,00,15,BA,00,00,AA,1E,00,
6026762,00000151,false,Rx,0,8,24,6E,75,A0,C8,00,28,19,
6026791,000001F6,false,Rx,0,8,BD,72,75,00,00,00,00,0D,
6026809,00000152,false,Rx,0,8,16,18,18,00,0B,00,00,00,
6026827,00000062,false,Rx,0,8,02,02,00,02,40,FF,00,FF,
6027582,00000154,false,Rx,0,8,00,00,00,00,00,00,00,00,
6027610,00000063,false,Rx,0,8,00,00,05,00,00,08,FD,00,
6027628,000001F8,false,Rx,0,8,00,00,00,00,00,00,00,00,
6028565,00000064,false,Rx,0,8,00,00,00,04,FF,FA,00,00,
6028584,000001F9,false,Rx,0,8,00,00,A0,C8,14,00,00,00,
6028602,000000A1,false,Rx,0,8,0D,47,9D,1A,00,00,00,00,
6028619,00000238,false,Rx,0,8,00,00,5F,00,00,00,00,00,
6029888,000000A2,false,Rx,0,8,00,00,00,00,00,00,00,00,
6029921,00000239,false,Rx,0,8,00,00,00,00,01,00,00,00,
6030311,000000A3,false,Rx,0,8,00,40,01,00,00,00,00,00,
6030343,0000025B,false,Rx,0,8,A2,AA,75,40,40,20,00,00,
6031588,000002FB,false,Rx,0,8,1A,8A,75,04,5F,1A,CC,CC,
6032554,0000025C,false,Rx,0,8,00,00,0B,00,34,89,19,00,
6032625,000001E1,false,Rx,0,8,BB,32,E9,02,00,00,00,00,
6032659,0000025D,false,Rx,0,8,00,C8,00,00,00,80,C0,70,
6032677,000001E2,false,Rx,0,8,00,00,00,00,00,00,00,00,
6032694,0000025E,false,Rx,0,8,36,07,0E,05,00,00,00,00,
6033066,000001F2,false,Rx,0,8,00,00,00,00,00,00,00,00,
6034332,000003A1,false,Rx,0,8,26,D1,CA,00,FF,FF,FF,FF,
6034392,00000326,false,Rx,0,8,ED,13,75,00,00,00,00,00,
6034410,000003A2,false,Rx,0,8,00,00,00,00,00,00,00,00,
6034427,00000327,false,Rx,0,8,00,00,00,00,05,00,00,00,
6034445,000004B4,false,Rx,0,8,00,00,00,00,00,00,00,00,
6034463,00000329,false,Rx,0,8,A0,00,00,00,00,00,00,00,
6035416,000004B7,false,Rx,0,8,08,00,F0,07,00,00,00,00,
6035452,00000331,false,Rx,0,8,FE,5C,75,F1,C8,A0,2C,97,
6036658,000004CA,false,Rx,0,8,00,00,00,00,00,00,00,00,
6036732,00000332,false,Rx,0,8,94,02,00,00,00,00,00,00,
6038054,00000334,false,Rx,0,8,C8,00,00,00,AC,70,1D,90,
6039391,000004E8,false,Rx,0,8,FF,FF,FF,05,FF,FF,FF,00,
6040840,000004EE,false,Rx,0,8,FF,FF,00,00,00,00,00,00,
6041278,00000161,false,Rx,0,8,99,33,47,03,00,00,00,02,
6041571,0000063E,false,Rx,0,8,FF,FF,FF,FF,FF,FF,FF,FF,
6043155,0000063F,false,Rx,0,8,00,10,00,C4,FF,00,00,00,
6043202,00000640,false,Rx,0,8,FF,FF,FF,00,FF,FF,FF,00,
6043219,0000010B,false,Rx,0,8,01,52,99,00,00,00,00,05,
6043237,000002AB,false,Rx,0,8,EF,3F,76,0C,0C,00,00,00,
6043255,0000010C,false,Rx,0,8,FF,F9,E7,1F,46,44,46,46,
6043273,0000010D,false,Rx,0,8,10,03,00,00,00,00,01,35,
6044702,000002AD,false,Rx,0,8,00,01,00,40,FF,FF,FF,0F,
6044737,0000010E,false,Rx,0,8,00,00,0A,00,00,C0,AB,57,
6044755,000002AE,false,Rx,0,8,01,00,FF,3F,01,01,00,00,
6044773,00000382,false,Rx,0,8,F1,7A,01,00,00,01,08,00,
6044791,000002B6,false,Rx,0,8,9D,4E,76,01,00,00,00,40,
6044808,00000251,false,Rx,0,8,A1,75,75,00,00,00,00,00,
6045939,000002B7,false,Rx,0,8,08,02,F0,00,00,04,00,00,
6045974,00000252,false,Rx,0,8,00,00,00,00,03,00,00,00,
6045992,000002B8,false,Rx,0,8,AA,11,11,00,00,00,00,00,
6046010,00000253,false,Rx,0,8,00,00,00,52,52,00,80,44,
6046027,000002B9,false,Rx,0,8,0A,00,00,00,00,00,00,00,
6047688,00000396,false,Rx,0,8,59,67,BA,0F,08,01,00,02,
6047742,000002E1,false,Rx,0,8,CC,1A,76,00,00,00,00,40,
6049025,00000397,false,Rx,0,8,0C,00,00,00,00,00,00,00,
6049075,000002E2,false,Rx,0,8,FD,00,00,00,00,14,00,04,
6049594,000003E5,false,Rx,0,8,37,80,01,00,00,00,00,00,
6049616,0000041A,false,Rx,0,8,BB,A0,12,00,50,01,00,00,
6051346,000003E6,false,Rx,0,8,67,90,00,00,00,00,00,00,
6051381,0000011B,false,Rx,0,8,F7,6C,8F,05,80,08,A8,02,
6051399,0000012B,false,Rx,0,8,B0,96,8F,06,00,00,08,00,
6051417,0000011C,false,Rx,0,8,00,05,20,00,22,00,01,01,
6051434,0000012C,false,Rx,0,8,00,00,01,00,00,64,00,00,
6051704,00000422,false,Rx,0,8,9D,70,01,00,00,00,04,00,
6052566,00000432,false,Rx,0,8,03,20,02,00,00,00,00,00,
6052587,00000435,false,Rx,0,8,26,C0,00,40,00,00,00,00,
6052604,00000442,false,Rx,0,8,CE,20,11,81,00,00,00,00,
6053568,00000444,false,Rx,0,8,D5,20,20,50,55,50,00,00,
6053588,00000445,false,Rx,0,8,C6,C0,00,00,00,00,00,18,
6053606,00000464,false,Rx,0,8,D5,20,F0,FF,38,7F,05,00,
6055780,0000019B,false,Rx,0,8,7C,83,97,00,00,E4,00,00,
6055829,0000019C,false,Rx,0,8,40,20,00,00,00,00,0B,09,
6056598,000002D6,false,Rx,0,8,5E,2F,BA,00,00,00,00,00,
6056625,0000019D,false,Rx,0,8,00,10,00,01,00,00,00,00,
6056642,000002D7,false,Rx,0,8,00,00,00,00,03,00,00,00,
6057566,0000019E,false,Rx,0,8,15,00,00,00,00,32,00,00,
6057587,000002D8,false,Rx,0,8,00,00,00,00,00,00,38,45,
6057604,000002EB,false,Rx,0,8,E3,E8,BA,08,08,01,00,02,
6057622,000002D9,false,Rx,0,8,00,00,00,00,00,00,00,00,
6058882,000002EC,false,Rx,0,8,02,00,00,00,00,00,00,00,
6058902,000002ED,false,Rx,0,8,00,00,00,00,00,00,00,00,
6058919,000002EE,false,Rx,0,8,00,00,00,00,00,00,00,00,
6060559,00000356,false,Rx,0,8,D4,3F,BB,00,00,00,00,00,
6060584,00000357,false,Rx,0,8,00,00,00,00,00,4B,4D,48,
6060602,00000358,false,Rx,0,8,35,41,45,4D,52,37,33,4F,
6060626,00000359,false,Rx,0,8,51,4F,34,52,4A,35,33,00,
6062896,00000383,false,Rx,0,8,12,ED,01,00,02,00,00,00,
6063750,00000121,false,Rx,0,8,24,38,9A,00,00,00,00,05,
6064852,00000122,false,Rx,0,8,FF,D9,67,1F,46,46,46,46,
6064887,00000123,false,Rx,0,8,11,03,00,00,00,00,01,35,
6064905,00000124,false,Rx,0,8,00,00,0A,00,00,00,20,40,
6066384,000004E8,false,Rx,0,8,FF,FF,FF,05,FF,FF,FF,00,
6068593,0000036F,false,Rx,0,8,38,D1,01,00,00,00,00,00,
6068628,0000037F,false,Rx,0,8,93,40,52,24,41,02,00,00,
6071323,000001A1,false,Rx,0,8,E6,93,48,FE,F7,7F,64,00,
6071362,000001A2,false,Rx,0,8,00,00,00,00,00,08,00,00,
6071411,000001A3,false,Rx,0,8,FF,F3,3F,00,00,00,00,00,
6071563,000001A4,false,Rx,0,8,FE,07,00,00,00,00,00,00,
6071581,00000036,false,Rx,0,8,6F,5F,9C,51,00,00,25,01,
6072694,00000037,false,Rx,0,8,00,00,00,10,00,40,00,00,
6073100,00000038,false,Rx,0,8,04,00,00,00,90,38,96,D4,
6073124,00000039,false,Rx,0,8,00,00,00,00,00,00,00,00,
6074574,000003B6,false,Rx,0,8,C0,0C,B9,00,00,00,00,46,
6074596,000003B7,false,Rx,0,8,46,00,00,00,00,00,00,00,
6074613,000003B8,false,Rx,0,8,0C,03,00,00,00,00,69,0E,
6074631,000003B9,false,Rx,0,8,00,00,00,00,00,00,00,00,
6076565,000004F0,false,Rx,0,8,4A,10,2F,27,58,1A,18,02,
6076587,00000061,false,Rx,0,8,2B,10,A2,00,00,00,00,00,
6076605,00000062,false,Rx,0,8,02,02,00,02,40,FF,00,FF,
6077567,00000063,false,Rx,0,8,00,00,05,00,00,08,FD,00,
6077587,00000064,false,Rx,0,8,00,00,00,04,FF,FA,00,00,
6077605,000000A1,false,Rx,0,8,C8,AA,A2,1A,00,00,00,00,
6077623,000000A2,false,Rx,0,8,00,00,00,00,00,00,00,00,
6078568,000000A3,false,Rx,0,8,00,40,01,00,00,00,00,00,
6078590,00000419,false,Rx,0,8,16,30,9E,D6,D1,79,8F,00,
6083606,00000384,false,Rx,0,8,E9,DC,02,00,00,FF,00,21,
6087599,00000091,false,Rx,0,8,90,8C,74,00,00,00,00,00,
6087638,000003AA,false,Rx,0,8,FF,00,B0,00,54,00,00,00,
6087656,00000092,false,Rx,0,8,00,00,00,00,00,00,00,00,
6087673,00000093,false,Rx,0,8,00,00,00,00,00,00,00,00,
6088622,00000094,false,Rx,0,8,00,00,00,00,00,00,00,00,
6088655,00000495,false,Rx,0,8,49,00,00,00,00,00,00,00,
6092646,0000010B,false,Rx,0,8,04,19,9E,00,00,00,00,05,
6092684,0000010C,false,Rx,0,8,FF,F9,E7,1F,46,45,46,46,
6092702,0000010D,false,Rx,0,8,10,03,00,00,00,00,01,35,
6093636,0000010E,false,Rx,0,8,00,00,0A,00,00,C0,AB,57,
6096599,00000146,false,Rx,0,8,50,2A,44,10,04,01,00,00,
6096641,00000147,false,Rx,0,8,00,04,7D,00,40,00,00,00,
6096659,00000148,false,Rx,0,8,00,00,00,00,00,90,40,05,
6096676,00000149,false,Rx,0,8,00,00,00,00,00,00,00,00,
6099715,000001AB,false,Rx,0,8,95,15,8A,50,70,38,00,00,
6099755,000001AC,false,Rx,0,8,00,28,00,00,00,00,00,00,
6099773,000001B1,false,Rx,0,8,36,F2,44,00,72,00,00,00,
6099791,00000226,false,Rx,0,8,00,2D,4F,FF,43,E1,05,42,
6099809,0000011B,false,Rx,0,8,35,B6,94,05,80,08,A8,02,
6101948,0000012B,false,Rx,0,8,72,4C,94,06,00,00,08,00,
6102031,0000011C,false,Rx,0,8,00,05,20,00,22,00,01,01,
6103227,0000012C,false,Rx,0,8,00,00,01,00,00,64,00,00,
6103309,000001B2,false,Rx,0,8,23,00,04,0F,0F,07,52,10,
6103329,00000227,false,Rx,0,8,02,70,E1,08,00,F2,17,04,
6104457,000001B3,false,Rx,0,8,10,2C,00,00,87,90,96,90,
6104625,000001FD,false,Rx,0,8,00,1A,03,00,00,00,00,00,
6104647,000001FE,false,Rx,0,8,00,00,00,00,00,00,00,00,
6105920,0000034B,false,Rx,0,8,23,CB,F2,31,D8,0D,05,01,
6106329,0000034C,false,Rx,0,8,00,00,00,00,00,00,00,00,
6106359,0000034D,false,Rx,0,8,00,00,00,00,00,00,00,00,
6106378,0000019B,false,Rx,0,8,C4,82,9C,00,00,E4,00,00,
6106395,0000034E,false,Rx,0,8,00,00,00,00,00,00,00,00,
6106412,0000019C,false,Rx,0,8,40,20,00,00,00,00,0B,09,
6106578,0000019D,false,Rx,0,8,00,10,00,01,00,00,00,00,
6107897,0000019E,false,Rx,0,8,15,00,00,00,00,32,00,00,
6107933,00000380,false,Rx,0,8,AD,D7,FF,00,00,00,00,01,
6110597,000003B0,false,Rx,0,8,72,37,FF,C7,00,00,03,C0,
6110639,00000448,false,Rx,0,8,10,20,00,00,00,00,00,00,
6113595,000003B1,false,Rx,0,8,9B,3C,FF,40,00,00,20,00,
6113634,00000121,false,Rx,0,8,5B,14,9F,00,00,00,00,05,
6115067,00000122,false,Rx,0,8,FF,D9,67,1F,46,46,46,46,
6115101,00000123,false,Rx,0,8,11,03,00,00,00,00,01,35,
6115119,00000124,false,Rx,0,8,00,00,0A,00,00,00,20,40,
6116438,00000487,false,Rx,0,8,00,00,00,00,00,00,00,00,
6116473,000004F0,false,Rx,0,8,4A,10,2F,27,58,1A,18,02,
6116491,00000642,false,Rx,0,8,FF,FF,FF,FF,FF,FF,00,00,
6121591,00000036,false,Rx,0,8,0C,C4,A1,51,00,00,25,01,
6122601,00000037,false,Rx,0,8,00,00,00,10,00,40,00,00,
6122636,00000038,false,Rx,0,8,04,00,00,00,90,38,96,D4,
6123716,00000039,false,Rx,0,8,00,00,00,00,00,00,00,00,
6123736,000003B2,false,Rx,0,8,36,15,FF,02,29,2F,34,00,
6126971,00000061,false,Rx,0,8,54,3C,A7,00,00,00,00,00,
6127009,00000062,false,Rx,0,8,02,02,00,02,40,FF,00,FF,
6127027,00000063,false,Rx,0,8,00,00,05,00,00,08,FD,00,
6127045,00000064,false,Rx,0,8,00,00,00,04,FF,FA,00,00,
6127625,000000A1,false,Rx,0,8,C7,41,A7,1A,00,00,00,00,
6127654,000000A2,false,Rx,0,8,00,00,00,00,00,00,00,00,
6129635,00000427,false,Rx,0,8,1D,86,FF,00,80,0A,00,00,
6129670,000000A3,false,Rx,0,8,00,40,01,00,00,00,00,00,
6131629,00000566,false,Rx,0,8,16,02,00,00,00,00,FF,FF,
6132570,0000042A,false,Rx,0,8,F4,DE,FF,01,00,10,00,00,
6132589,00000401,false,Rx,0,8,A9,30,10,00,00,04,00,00,
6134575,000001E6,false,Rx,0,8,5B,7E,E9,02,00,00,00,00,
6134603,000001BB,false,Rx,0,8,C7,BB,E9,02,00,00,00,0A,
6134620,000001BC,false,Rx,0,8,32,00,00,00,02,00,00,00,
6135584,000001BD,false,Rx,0,8,00,00,00,00,00,00,00,00,
6135609,000001E7,false,Rx,0,8,00,00,22,03,20,01,00,00,
6137580,00000415,false,Rx,0,8,40,13,10,00,08,01,00,00,
6140153,00000161,false,Rx,0,8,51,CA,4C,03,00,00,00,02,
6140190,00000162,false,Rx,0,8,FF,FC,01,00,00,00,00,00,
6142581,0000010B,false,Rx,0,8,91,57,A3,00,00,00,00,05,
6142609,0000010C,false,Rx,0,8,FF,F9,E7,1F,46,44,46,46,
6142628,0000010D,false,Rx,0,8,10,03,00,00,00,00,01,35,
6144035,000002C1,false,Rx,0,8,92,D5,BC,21,00,41,00,A7,
6144070,0000010E,false,Rx,0,8,00,00,0A,00,00,C0,AB,57,
6144088,000002C2,false,Rx,0,8,0A,00,00,00,00,00,00,00,
6144106,00000419,false,Rx,0,8,50,40,9E,D6,D5,79,8F,00,
6145179,000002C3,false,Rx,0,8,00,00,00,00,00,00,00,00,
6145206,000002C4,false,Rx,0,8,00,00,00,00,00,00,00,00,
6145636,000004E8,false,Rx,0,8,FF,FF,FF,05,FF,FF,FF,00,
6150586,0000011B,false,Rx,0,8,46,8F,99,05,80,08,A8,02,
6150625,0000012B,false,Rx,0,8,01,75,99,06,00,00,08,00,
6150643,0000011C,false,Rx,0,8,00,05,20,00,22,00,01,01,
6150661,0000012C,false,Rx,0,8,00,00,01,00,00,64,00,00,
6155599,000004A3,false,Rx,0,8,80,00,48,0B,3E,00,00,00,
6156599,0000019B,false,Rx,0,8,A7,19,A1,00,00,E4,00,00,
6156631,000004A4,false,Rx,0,8,FF,FF,FF,00,00,00,00,00,
6156661,0000019C,false,Rx,0,8,40,20,00,00,00,00,0B,09,
6156679,0000019D,false,Rx,0,8,00,10,00,01,00,00,00,00,
6156697,0000019E,false,Rx,0,8,15,00,00,00,00,32,00,00,
6159588,0000033B,false,Rx,0,8,A8,1D,77,00,00,00,00,00,
6159625,0000033C,false,Rx,0,8,00,00,00,00,F0,00,00,00,
6159650,0000033D,false,Rx,0,8,00,00,00,00,00,00,00,00,
6160568,0000033E,false,Rx,0,8,00,00,00,00,00,00,00,00,
6163704,00000121,false,Rx,0,8,8D,48,A4,00,00,00,00,05,
6164595,00000122,false,Rx,0,8,FF,D9,67,1F,46,46,46,46,
6164628,00000123,false,Rx,0,8,11,03,00,00,00,00,01,35,
6165667,00000124,false,Rx,0,8,00,00,0A,00,00,00,20,40,
6167990,0000036F,false,Rx,0,8,EE,E1,01,00,00,00,00,00,
6168031,0000037F,false,Rx,0,8,2A,50,52,24,41,02,00,00,
6170304,000001A1,false,Rx,0,8,99,BF,4D,FE,F7,7F,64,00,
6170340,000001A2,false,Rx,0,8,00,00,00,00,00,08,00,00,
6170358,000001A3,false,Rx,0,8,FF,F3,3F,00,00,00,00,00,
6170392,000001A4,false,Rx,0,8,FE,07,00,00,00,00,00,00,
6172982,00000036,false,Rx,0,8,FF,5A,A6,51,00,00,25,01,
6173025,00000037,false,Rx,0,8,00,00,00,10,00,40,00,00,
6173043,00000038,false,Rx,0,8,04,00,00,00,90,38,96,D4,
6173089,00000039,false,Rx,0,8,00,00,00,00,00,00,00,00,
6173107,000002E6,false,Rx,0,8,A6,A8,74,01,00,00,00,15,
6174118,00000256,false,Rx,0,8,CC,D1,74,15,00,00,F0,00,
6176932,000002E7,false,Rx,0,8,0A,00,00,00,00,00,00,00,
6177011,00000257,false,Rx,0,8,00,8B,42,18,86,07,00,8B,
6177030,000002E8,false,Rx,0,8,00,00,00,00,00,00,00,00,
6177047,00000258,false,Rx,0,8,09,6F,1E,00,10,15,00,1C,
6177065,000002E9,false,Rx,0,8,00,00,00,00,00,00,00,00,
6177083,00000061,false,Rx,0,8,EC,3D,AC,00,00,00,00,00,
6178141,0000047F,false,Rx,0,8,FF,FF,FF,FF,FF,FF,F3,FF,
6178177,00000064,false,Rx,0,8,00,00,00,04,FF,FA,00,00,
6178195,00000653,false,Rx,0,8,0A,19,03,01,02,2A,00,00,
6178212,000000A1,false,Rx,0,8,FB,B0,AC,1A,00,00,00,00,
6178230,000000A2,false,Rx,0,8,00,00,00,00,00,00,00,00,
6178658,000000A3,false,Rx,0,8,00,40,01,00,00,00,00,00,
6181000,000001E1,false,Rx,0,8,4D,1A,EC,02,00,00,00,00,
6181444,000001E2,false,Rx,0,8,00,00,00,00,00,00,00,00,
6181484,000001F1,false,Rx,0,8,31,20,BC,01,00,00,28,00,
6182642,000001F2,false,Rx,0,8,00,00,00,00,00,00,00,00,
6183980,00000419,false,Rx,0,8,50,40,9E,D6,D5,79,8F,00,
6187627,00000091,false,Rx,0,8,D6,D5,75,00,00,00,00,00,
186666,00000092,false,Rx,0,8,00,00,00,00,00,00,00,00,
186686,00000093,false,Rx,0,8,00,00,00,00,00,00,00,00,
186703,00000405,false,Rx,0,8,BD,30,00,00,00,01,00,00,
187699,00000094,false,Rx,0,8,00,00,00,00,00,00,00,00,
187732,00000410,false,Rx,0,8,A4,70,58,3C,16,6B,FF,FF,
187750,00000413,false,Rx,0,8,F5,10,00,41,00,00,00,00,
187768,00000411,false,Rx,0,8,A8,01,50,50,00,00,44,04,
188573,00000414,false,Rx,0,8,F0,10,00,00,28,00,00,00,
188594,00000412,false,Rx,0,8,6D,60,00,00,00,00,00,00,
188612,00000416,false,Rx,0,8,55,00,00,00,00,00,00,00,
190586,00000417,false,Rx,0,8,06,10,00,00,00,01,00,00,
190621,00000418,false,Rx,0,8,19,70,00,00,12,0C,00,00,
191594,0000010B,false,Rx,0,8,29,56,A8,00,00,00,00,05,
191627,0000010C,false,Rx,0,8,FF,F9,E7,1F,46,44,46,46,
191645,0000010D,false,Rx,0,8,10,03,00,00,00,00,01,35,
192573,0000010E,false,Rx,0,8,00,00,0A,00,00,C0,AB,57,
195566,00000146,false,Rx,0,8,5D,EC,49,10,04,01,00,00,
195587,00000147,false,Rx,0,8,00,04,7D,00,40,00,00,00,
195604,00000148,false,Rx,0,8,00,00,00,00,00,90,40,05,
196568,00000149,false,Rx,0,8,00,00,00,00,00,00,00,00,
196590,00000475,false,Rx,0,8,12,00,00,00,00,00,00,00,
196608,00000496,false,Rx,0,8,12,00,00,00,00,00,00,00,
197576,000001AB,false,Rx,0,8,63,3D,8F,50,70,38,00,00,
198568,000001AC,false,Rx,0,8,00,28,00,00,00,00,00,00,
198588,000001B1,false,Rx,0,8,3B,34,49,00,72,00,00,00,
198606,000002FF,false,Rx,0,8,E2,01,00,F1,3F,00,00,00,
198624,0000012B,false,Rx,0,8,9E,1D,9E,06,00,00,08,00,
199569,0000011B,false,Rx,0,8,D9,E7,9E,05,80,08,A8,02,
199590,0000012C,false,Rx,0,8,00,00,01,00,00,64,00,00,
199607,0000011C,false,Rx,0,8,00,05,20,00,22,00,01,01,
199625,000001B2,false,Rx,0,8,23,00,04,0F,0F,07,52,10,
200569,00000316,false,Rx,0,8,3A,04,A8,34,14,80,0A,00,
200590,000001B3,false,Rx,0,8,10,2C,00,00,87,90,96,90,
200608,00000317,false,Rx,0,8,00,00,05,00,00,00,00,00,
200625,00000111,false,Rx,0,8,A0,19,B0,01,00,00,00,00,
201569,000001B4,false,Rx,0,8,95,91,17,00,00,40,01,00,
201590,00000112,false,Rx,0,8,00,00,00,00,00,00,00,00,
201608,00000472,false,Rx,0,8,5C,EC,00,40,08,41,00,45,
201626,00000113,false,Rx,0,8,00,00,00,00,00,00,00,00,
202568,00000473,false,Rx,0,8,5F,24,00,25,00,00,00,78,
202590,00000114,false,Rx,0,8,00,00,00,00,00,00,00,00,
202608,00000474,false,Rx,0,8,93,44,00,00,00,00,00,14,
204567,0000019B,false,Rx,0,8,54,87,A6,00,00,E4,00,00,
205567,0000019C,false,Rx,0,8,40,20,00,00,00,00,0B,09,
205587,0000019D,false,Rx,0,8,00,10,00,01,00,00,00,00,
205605,0000019E,false,Rx,0,8,15,00,00,00,00,32,00,00,
207567,00000419,false,Rx,0,8,50,40,9E,D6,D5,79,8F,00,
208567,0000030B,false,Rx,0,8,B8,8A,77,00,04,00,00,00,
209568,0000030C,false,Rx,0,8,00,00,0E,00,2C,00,A0,0F,
209590,0000030D,false,Rx,0,8,00,00,00,00,48,00,00,00,
209607,0000030E,false,Rx,0,8,00,00,38,05,21,00,00,00,
213567,00000121,false,Rx,0,8,80,8E,A9,00,00,00,00,05,
213590,00000122,false,Rx,0,8,FF,D9,67,1F,46,46,46,46,
213607,00000123,false,Rx,0,8,11,03,00,00,00,00,01,35,
213624,00000124,false,Rx,0,8,00,00,0A,00,00,00,20,40,
220566,00000036,false,Rx,0,8,F2,9C,AB,51,00,00,25,01,
221567,00000037,false,Rx,0,8,00,00,00,10,00,40,00,00,
221587,00000038,false,Rx,0,8,04,00,00,00,90,38,96,D4,
221604,00000039,false,Rx,0,8,00,00,00,00,00,00,00,00,
223566,00000236,false,Rx,0,8,0A,02,77,00,6E,3C,34,6C,
224566,00000237,false,Rx,0,8,00,15,BA,00,00,AA,1E,00,
224585,00000151,false,Rx,0,8,A8,DC,77,A0,C8,00,28,19,
224603,00000238,false,Rx,0,8,00,00,5F,00,00,00,00,00,
224620,00000152,false,Rx,0,8,16,18,18,00,0B,00,00,00,
225567,000001F6,false,Rx,0,8,31,C0,77,00,00,00,00,0D,
225589,00000153,false,Rx,0,8,00,00,00,00,00,00,00,00,
225607,00000061,false,Rx,0,8,24,3F,B1,00,00,00,00,00,
225624,00000154,false,Rx,0,8,00,00,00,00,00,00,00,00,
226567,00000062,false,Rx,0,8,02,02,00,02,40,FF,00,FF,
226587,000000C5,false,Rx,0,8,00,00,00,00,00,00,00,00,
226605,00000063,false,Rx,0,8,00,00,05,00,00,08,FD,00,
226623,000001F7,false,Rx,0,8,0B,00,00,00,00,00,00,00,
227567,00000064,false,Rx,0,8,00,00,00,04,FF,FA,00,00,
227589,000001F8,false,Rx,0,8,00,00,00,00,00,00,00,00,
227606,000000A1,false,Rx,0,8,9E,B3,B1,1A,00,00,00,00,
227624,000001F9,false,Rx,0,8,00,00,A0,C8,14,00,00,00,
228567,000000A2,false,Rx,0,8,00,00,00,00,00,00,00,00,
228588,00000239,false,Rx,0,8,00,00,00,00,01,00,00,00,
228605,000000A3,false,Rx,0,8,00,40,01,00,00,00,00,00,
228623,00000244,false,Rx,0,8,FF,FF,FF,FF,FF,FF,FF,FF,
229567,0000025B,false,Rx,0,8,03,0F,77,40,40,20,00,00,
229589,000002FB,false,Rx,0,8,96,38,77,04,5F,1A,CC,CC,
229607,0000025C,false,Rx,0,8,00,00,0B,00,34,89,19,00,
229631,000002FC,false,Rx,0,8,04,00,16,19,00,00,86,BF,
229648,0000025D,false,Rx,0,8,00,C8,00,00,00,80,C0,70,
230627,000002FD,false,Rx,0,8,00,00,00,00,00,1C,0D,EA,
230879,0000025E,false,Rx,0,8,AC,07,0E,0F,00,00,00,00,
230899,000002FE,false,Rx,0,8,00,00,72,01,00,28,00,00,
230917,000004B4,false,Rx,0,8,00,00,00,00,00,00,00,00,
230934,00000326,false,Rx,0,8,61,A1,77,00,00,00,00,00,
231992,000004B5,false,Rx,0,8,08,00,F0,07,00,00,00,00,
232028,00000327,false,Rx,0,8,00,00,00,00,05,00,00,00,
232047,000003A1,false,Rx,0,8,02,79,CB,00,FF,FF,FF,FF,
232064,00000328,false,Rx,0,8,00,00,00,00,00,00,00,00,
232597,000003A2,false,Rx,0,8,00,00,00,00,00,00,00,00,
232624,00000329,false,Rx,0,8,A0,00,00,00,00,00,00,00,
232643,000004B7,false,Rx,0,8,08,00,F0,07,00,00,00,00,
233580,00000331,false,Rx,0,8,72,EE,77,F1,C8,A0,2C,97,
233601,000004CA,false,Rx,0,8,00,00,00,00,00,00,00,00,
233619,00000332,false,Rx,0,8,94,02,00,00,00,00,00,00,
233636,000004CC,false,Rx,0,8,08,00,00,06,00,00,03,00,
234569,00000333,false,Rx,0,8,00,00,00,1C,0C,40,20,A0,
234590,000004CE,false,Rx,0,8,14,01,FF,FF,FF,FF,FF,FF,
234608,00000334,false,Rx,0,8,C8,00,00,00,AC,70,1D,90,
234625,000004D7,false,Rx,0,8,23,01,00,00,00,00,00,00,
235569,00000516,false,Rx,0,8,61,02,00,00,00,00,FF,FF,
235590,000004D8,false,Rx,0,8,41,10,F0,F0,40,F2,1E,CC,
235608,000004DD,false,Rx,0,8,00,00,FE,00,04,00,00,00,
235626,000004DF,false,Rx,0,8,FF,03,0C,3F,00,00,00,00,
236567,000004E7,false,Rx,0,8,00,30,00,00,00,00,69,00,
236587,000004E8,false,Rx,0,8,FF,FF,FF,05,FF,FF,FF,00,
236612,000004E9,false,Rx,0,8,12,00,00,34,00,00,50,00,
236629,000004EA,false,Rx,0,8,67,00,00,89,00,00,00,00,
237566,000004EB,false,Rx,0,8,10,80,2F,27,80,00,00,00,
237586,000004EC,false,Rx,0,8,00,00,00,00,00,00,00,00,
237604,000004ED,false,Rx,0,8,00,00,00,00,00,FF,FF,1F,
238574,000004EE,false,Rx,0,8,FF,FF,00,00,00,00,00,00,
238596,000004EF,false,Rx,0,8,60,00,60,00,29,14,00,00,
238613,0000063D,false,Rx,0,8,00,80,00,00,00,00,00,00,
238631,0000063E,false,Rx,0,8,FF,FF,FF,FF,FF,FF,FF,FF,
239569,0000063F,false,Rx,0,8,00,10,00,C4,FF,00,00,00,
239592,00000161,false,Rx,0,8,28,D0,51,03,00,00,00,02,
239609,00000640,false,Rx,0,8,FF,FF,FF,00,FF,FF,FF,00,
239627,00000162,false,Rx,0,8,FF,FC,01,00,00,00,00,00,
240568,00000641,false,Rx,0,8,FF,FF,FF,FF,0F,FF,FF,FF,
240590,00000646,false,Rx,0,8,00,00,00,80,01,00,00,00,
241567,0000010B,false,Rx,0,8,56,7A,AD,00,00,00,00,05,
241587,000002AB,false,Rx,0,8,28,12,78,0C,0C,00,00,00,
242568,0000010C,false,Rx,0,8,FF,F9,E7,1F,46,44,46,46,
242596,000002AC,false,Rx,0,8,00,FF,FF,00,00,40,00,50,
242614,0000010D,false,Rx,0,8,10,03,00,00,00,00,01,35,
242632,000002AD,false,Rx,0,8,00,01,00,40,FF,FF,FF,0F,
242650,0000010E,false,Rx,0,8,00,00,0A,00,00,C0,AB,57,
243575,000002AE,false,Rx,0,8,01,00,FF,3F,01,01,00,00,
243596,00000382,false,Rx,0,8,F1,7A,01,00,00,01,08,00,
243614,000002B6,false,Rx,0,8,5A,63,78,01,00,00,00,40,
243632,00000251,false,Rx,0,8,A7,1B,77,00,00,00,00,00,
244569,000002B7,false,Rx,0,8,08,02,F0,00,00,04,00,00,
244590,00000252,false,Rx,0,8,00,00,00,00,03,00,00,00,
244607,000002B8,false,Rx,0,8,AA,11,11,00,00,00,00,00,
244625,00000253,false,Rx,0,8,00,00,00,52,52,00,80,44,
245569,000002B9,false,Rx,0,8,0A,00,00,00,00,00,00,00,
245590,00000396,false,Rx,0,8,B8,C8,BB,0F,08,02,00,02,
245608,000002E1,false,Rx,0,8,0B,37,78,00,00,00,00,40,
245625,00000397,false,Rx,0,8,31,00,00,00,00,00,00,00,
246569,000002E2,false,Rx,0,8,FD,00,00,00,00,14,00,04,
246590,000000FF,false,Rx,0,8,CB,10,00,00,00,00,02,00,
246608,000002E3,false,Rx,0,8,00,00,00,00,00,00,72,01,
246626,00000398,false,Rx,0,8,00,00,00,00,00,00,00,00,
247568,000002E4,false,Rx,0,8,02,00,00,00,00,00,00,00,
247590,00000394,false,Rx,0,8,2A,22,1A,49,00,00,00,00,
247608,000003C3,false,Rx,0,8,45,10,31,30,36,00,00,00,
247626,000003E0,false,Rx,0,8,66,20,01,00,54,03,00,00,
248568,000003E5,false,Rx,0,8,37,80,01,00,00,00,00,00,
248590,000003E6,false,Rx,0,8,67,90,00,00,00,00,00,00,
248607,0000041A,false,Rx,0,8,BB,A0,12,00,50,01,00,00,
248625,0000041B,false,Rx,0,8,70,D0,00,00,00,00,00,00,
249569,0000041C,false,Rx,0,8,48,00,E0,00,00,00,00,00,
249590,0000011B,false,Rx,0,8,B4,BB,A3,05,80,08,A8,02,
249607,0000012B,false,Rx,0,8,F3,41,A3,06,00,00,08,00,
249625,0000011C,false,Rx,0,8,00,05,20,00,22,00,01,01,
250606,0000012C,false,Rx,0,8,00,00,01,00,00,64,00,00,
250641,00000422,false,Rx,0,8,9D,70,01,00,00,00,04,00,
250659,00000432,false,Rx,0,8,03,20,02,00,00,00,00,00,
251698,00000435,false,Rx,0,8,26,C0,00,40,00,00,00,00,
251733,00000442,false,Rx,0,8,CE,20,11,81,00,00,00,00,
252132,00000444,false,Rx,0,8,D5,20,20,50,55,50,00,00,
252195,00000445,false,Rx,0,8,C6,C0,00,00,00,00,00,18,
252216,00000464,false,Rx,0,8,D5,20,F0,FF,38,7F,05,00,
254569,0000019B,false,Rx,0,8,59,41,AB,00,00,E4,00,00,
255566,0000019C,false,Rx,0,8,40,20,00,00,00,00,0B,09,
255584,000002D6,false,Rx,0,8,18,76,BB,00,00,00,00,00,
255602,0000019D,false,Rx,0,8,00,10,00,01,00,00,00,00,
255620,000002D7,false,Rx,0,8,00,00,00,00,03,00,00,00,
256564,0000019E,false,Rx,0,8,15,00,00,00,00,32,00,00,
256589,000002D8,false,Rx,0,8,00,00,00,00,00,00,38,45,
256607,000002EB,false,Rx,0,8,8C,3F,BB,09,08,01,00,02,
256625,000002D9,false,Rx,0,8,00,00,00,00,00,00,00,00,
257563,000002EC,false,Rx,0,8,02,00,00,00,00,00,00,00,
257587,000002ED,false,Rx,0,8,00,00,00,00,00,00,00,00,
257605,000002EE,false,Rx,0,8,00,00,00,00,00,00,00,00,
259567,00000356,false,Rx,0,8,27,A1,BC,00,00,00,00,00,
259590,00000357,false,Rx,0,8,00,00,00,00,00,4B,4D,48,
259607,00000358,false,Rx,0,8,35,41,45,4D,52,37,33,4F,
259625,00000359,false,Rx,0,8,51,4F,34,52,4A,35,33,00,
261563,00000383,false,Rx,0,8,12,ED,01,00,02,00,00,00,
263560,00000121,false,Rx,0,8,73,10,AE,00,00,00,00,05,
263578,00000122,false,Rx,0,8,FF,D9,67,1F,46,46,46,46,
263595,00000123,false,Rx,0,8,11,03,00,00,00,00,01,35,
263613,00000124,false,Rx,0,8,00,00,0A,00,00,00,20,40,
266563,0000036F,false,Rx,0,8,FE,01,01,00,00,00,00,00,
267560,0000037F,false,Rx,0,8,FC,60,52,24,41,02,00,00,
269561,000001A1,false,Rx,0,8,DD,0F,52,FE,F7,7F,64,00,
269583,000001A2,false,Rx,0,8,00,00,00,00,00,08,00,00,
269600,000001A3,false,Rx,0,8,FF,F3,3F,00,00,00,00,00,
269618,000001A4,false,Rx,0,8,FE,07,00,00,00,00,00,00,
270564,00000036,false,Rx,0,8,8F,59,B0,51,00,00,25,01,
271564,00000037,false,Rx,0,8,00,00,00,10,00,40,00,00,
271584,00000038,false,Rx,0,8,04,00,00,00,90,38,96,D4,
271602,00000039,false,Rx,0,8,00,00,00,00,00,00,00,00,
273562,000003B6,false,Rx,0,8,0A,E7,BA,00,00,00,00,46,
273585,000003B7,false,Rx,0,8,46,00,00,00,00,00,00,00,
273602,000003B8,false,Rx,0,8,0C,03,00,00,00,00,69,0E,
273620,000003B9,false,Rx,0,8,00,00,00,00,00,00,00,00,
275562,00000061,false,Rx,0,8,D7,A1,B6,00,00,00,00,00,
275587,00000062,false,Rx,0,8,02,02,00,02,40,FF,00,FF,
276564,00000063,false,Rx,0,8,00,00,05,00,00,08,FD,00,
276586,00000064,false,Rx,0,8,00,00,00,04,FF,FA,00,00,
276604,000000A1,false,Rx,0,8,97,36,B6,1A,00,00,00,00,
276621,000000A2,false,Rx,0,8,00,00,00,00,00,00,00,00,
277564,000000A3,false,Rx,0,8,00,40,01,00,00,00,00,00,
282563,00000384,false,Rx,0,8,E9,DC,02,00,00,FF,00,21,
283564,000001E6,false,Rx,0,8,AD,56,EC,02,00,00,00,00,
283587,000001BB,false,Rx,0,8,C8,50,EC,02,00,00,00,0A,
283604,000001BC,false,Rx,0,8,32,00,00,00,02,00,00,00,
284563,000001BD,false,Rx,0,8,00,00,00,00,00,00,00,00,
284585,000001E7,false,Rx,0,8,00,00,22,03,20,01,00,00,
286573,00000091,false,Rx,0,8,1C,3E,76,00,00,00,00,00,
286612,000003AA,false,Rx,0,8,FF,00,B0,00,54,00,00,00,
286630,00000092,false,Rx,0,8,00,00,00,00,00,00,00,00,
286648,00000093,false,Rx,0,8,00,00,00,00,00,00,00,00,
287589,00000094,false,Rx,0,8,00,00,00,00,00,00,00,00,
287614,00000495,false,Rx,0,8,49,00,00,00,00,00,00,00,
291569,0000010B,false,Rx,0,8,12,CA,B2,00,00,00,00,05,
291591,0000010C,false,Rx,0,8,FF,F9,E7,1F,46,44,46,46,
291615,0000010D,false,Rx,0,8,10,03,00,00,00,00,01,35,
292574,0000010E,false,Rx,0,8,00,00,0A,00,00,C0,AB,57,
292601,00000419,false,Rx,0,8,3B,50,9E,D6,D9,79,8F,00,
295610,00000146,false,Rx,0,8,AE,72,4E,10,04,01,00,00,
295651,00000147,false,Rx,0,8,00,04,7D,00,40,00,00,00,
295669,00000148,false,Rx,0,8,00,00,00,00,00,90,40,05,
295687,00000149,false,Rx,0,8,00,00,00,00,00,00,00,00,
297910,000001AB,false,Rx,0,8,A1,E7,94,50,70,38,00,00,
297950,000001AC,false,Rx,0,8,00,28,00,00,00,00,00,00,
297968,000001B1,false,Rx,0,8,C8,AA,4E,00,72,00,00,00,
299217,00000226,false,Rx,0,8,34,DF,51,FF,43,E1,05,42,
299253,000001B2,false,Rx,0,8,23,00,04,0F,0F,07,52,10,
299272,00000227,false,Rx,0,8,02,70,E1,08,00,F2,17,04,
300747,0000011B,false,Rx,0,8,7C,42,A8,05,80,08,A8,02,
300772,0000012B,false,Rx,0,8,3B,B8,A8,06,00,00,08,00,
300792,0000011C,false,Rx,0,8,00,05,20,00,22,00,01,01,
300819,0000012C,false,Rx,0,8,00,00,01,00,00,64,00,00,
300837,000001B3,false,Rx,0,8,10,2C,00,00,87,90,96,90,
300854,000001FC,false,Rx,0,8,00,00,00,00,00,00,00,00,
300872,000001FD,false,Rx,0,8,00,1A,03,00,00,00,00,00,
302064,000001FE,false,Rx,0,8,00,00,00,00,00,00,00,00,
305387,0000019B,false,Rx,0,8,24,84,B0,00,00,E4,00,00,
305554,0000019C,false,Rx,0,8,40,20,00,00,00,00,0B,09,
305572,0000019D,false,Rx,0,8,00,10,00,01,00,00,00,00,
305589,0000019E,false,Rx,0,8,15,00,00,00,00,32,00,00,
306724,00000380,false,Rx,0,8,AD,D7,FF,00,00,00,00,01,
309942,000003B0,false,Rx,0,8,72,37,FF,C7,00,00,03,C0,
309984,00000448,false,Rx,0,8,10,20,00,00,00,00,00,00,
313213,000003B1,false,Rx,0,8,9B,3C,FF,40,00,00,20,00,
313250,00000121,false,Rx,0,8,BB,12,B3,00,00,00,00,05,
313268,00000122,false,Rx,0,8,FF,D9,67,1F,46,46,46,46,
313648,00000123,false,Rx,0,8,11,03,00,00,00,00,01,35,
313671,00000124,false,Rx,0,8,00,00,0A,00,00,00,20,40,
317590,00000487,false,Rx,0,8,00,00,00,00,00,00,00,00,
318595,00000642,false,Rx,0,8,FF,FF,FF,FF,FF,FF,00,00,
320732,00000036,false,Rx,0,8,F0,75,B5,51,00,00,25,01,
320769,00000037,false,Rx,0,8,00,00,00,10,00,40,00,00,
321585,00000038,false,Rx,0,8,04,00,00,00,90,38,96,D4,
321609,00000039,false,Rx,0,8,00,00,00,00,00,00,00,00,
321627,000003B2,false,Rx,0,8,36,15,FF,02,29,2F,34,00,
326785,00000061,false,Rx,0,8,DA,67,BB,00,00,00,00,00,
326823,00000062,false,Rx,0,8,02,02,00,02,40,FF,00,FF,
326841,00000063,false,Rx,0,8,00,00,05,00,00,08,FD,00,
326858,00000064,false,Rx,0,8,00,00,00,04,FF,FA,00,00,
326876,000000A1,false,Rx,0,8,A1,75,BB,1A,00,00,00,00,
327921,000000A3,false,Rx,0,8,00,40,01,00,00,00,00,00,
330236,000001E1,false,Rx,0,8,00,F2,EF,02,00,00,00,00,
330284,000001E2,false,Rx,0,8,00,00,00,00,00,00,00,00,
330302,000001F1,false,Rx,0,8,7C,C8,BF,01,00,00,28,00,
330319,000001F2,false,Rx,0,8,00,00,00,00,00,00,00,00,
331398,0000042A,false,Rx,0,8,F4,DE,FF,01,00,10,00,00,
331619,00000401,false,Rx,0,8,A9,30,10,00,00,04,00,00,
332716,00000419,false,Rx,0,8,3B,50,9E,D6,D9,79,8F,00,
334629,00000561,false,Rx,0,8,63,02,00,00,00,00,FF,FF,
338595,00000161,false,Rx,0,8,B7,B8,56,03,00,00,00,02,
339596,00000162,false,Rx,0,8,FF,FC,01,00,00,00,00,00,
341619,0000010B,false,Rx,0,8,6D,E6,B7,00,00,00,00,05,
341657,0000010C,false,Rx,0,8,FF,F9,E7,1F,46,44,46,46,
341675,0000010D,false,Rx,0,8,10,03,00,00,00,00,01,35,
342641,000002C1,false,Rx,0,8,D4,8C,BD,21,00,41,00,A7,
342673,0000010E,false,Rx,0,8,00,00,0A,00,00,C0,AB,57,
342691,000002C2,false,Rx,0,8,0A,00,00,00,00,00,00,00,
342709,000002C3,false,Rx,0,8,00,00,00,00,00,00,00,00,
343865,000002C4,false,Rx,0,8,00,00,00,00,00,00,00,00,
349606,0000011B,false,Rx,0,8,8A,6A,AD,05,80,08,A8,02,
349645,0000012B,false,Rx,0,8,CD,90,AD,06,00,00,08,00,
349664,0000011C,false,Rx,0,8,00,05,20,00,22,00,01,01,
349682,0000012C,false,Rx,0,8,00,00,01,00,00,64,00,00,
354617,0000019B,false,Rx,0,8,5B,A8,B5,00,00,E4,00,00,
355595,0000019C,false,Rx,0,8,40,20,00,00,00,00,0B,09,
355629,0000019D,false,Rx,0,8,00,10,00,01,00,00,00,00,
355647,0000019E,false,Rx,0,8,15,00,00,00,00,32,00,00,
358603,0000033B,false,Rx,0,8,6F,30,79,00,00,00,00,00,
358645,0000033C,false,Rx,0,8,00,00,00,00,F0,00,00,00,
358662,000004A3,false,Rx,0,8,80,00,48,0B,3E,00,00,00,
359602,0000033D,false,Rx,0,8,00,00,00,00,00,00,00,00,
359635,000004A4,false,Rx,0,8,FF,FF,FF,00,00,00,00,00,
359653,0000033E,false,Rx,0,8,00,00,00,00,00,00,00,00,
362760,00000121,false,Rx,0,8,03,13,B8,00,00,00,00,05,
363568,00000122,false,Rx,0,8,FF,D9,67,1F,46,46,46,46,
363589,00000123,false,Rx,0,8,11,03,00,00,00,00,01,35,
363607,00000124,false,Rx,0,8,00,00,0A,00,00,00,20,40,
366612,0000036F,false,Rx,0,8,47,11,01,00,00,00,00,00,
367573,0000037F,false,Rx,0,8,45,70,52,24,41,02,00,00,
370091,000001A1,false,Rx,0,8,A2,23,57,FE,F7,7F,64,00,
370125,000001A2,false,Rx,0,8,00,00,00,00,00,08,00,00,
370144,000001A3,false,Rx,0,8,FF,F3,3F,00,00,00,00,00,
370162,000001A4,false,Rx,0,8,FE,07,00,00,00,00,00,00,
370569,00000036,false,Rx,0,8,71,01,BA,51,00,00,25,01,
371564,00000037,false,Rx,0,8,00,00,00,10,00,40,00,00,
371586,00000038,false,Rx,0,8,04,00,00,00,90,38,96,D4,
371603,00000039,false,Rx,0,8,00,00,00,00,00,00,00,00,
372938,00000419,false,Rx,0,8,3B,50,9E,D6,D9,79,8F,00,
372973,000002E6,false,Rx,0,8,2A,1A,76,01,00,00,00,15,
372991,00000256,false,Rx,0,8,0D,F5,76,15,00,00,10,01,
373009,000002E7,false,Rx,0,8,0A,00,00,00,00,00,00,00,
373027,00000257,false,Rx,0,8,00,8B,42,1A,86,07,00,8B,
373569,000002E8,false,Rx,0,8,00,00,00,00,00,00,00,00,
373601,00000258,false,Rx,0,8,09,71,1E,00,10,15,00,1C,
373618,000002E9,false,Rx,0,8,00,00,00,00,00,00,00,00,
374592,00000259,false,Rx,0,8,49,05,8A,3C,28,02,00,00,
375567,00000061,false,Rx,0,8,7B,18,C0,00,00,00,00,00,
375588,00000062,false,Rx,0,8,02,02,00,02,40,FF,00,FF,
376585,000002BF,false,Rx,0,8,FF,FF,FF,00,00,00,00,00,
376619,00000063,false,Rx,0,8,00,00,05,00,00,08,FD,00,
376637,0000047F,false,Rx,0,8,FF,FF,FF,FF,FF,FF,F3,FF,
376655,00000064,false,Rx,0,8,00,00,00,04,FF,FA,00,00,
376673,00000653,false,Rx,0,8,0A,19,03,01,02,2A,00,00,
377568,000000A1,false,Rx,0,8,05,55,C0,1A,00,00,00,00,
377590,000000A2,false,Rx,0,8,00,00,00,00,00,00,00,00,
377607,000000A3,false,Rx,0,8,00,40,01,00,00,00,00,00,
386598,00000091,false,Rx,0,8,5A,67,77,00,00,00,00,00,
386634,00000092,false,Rx,0,8,00,00,00,00,00,00,00,00,
386652,00000093,false,Rx,0,8,00,00,00,00,00,00,00,00,
386670,00000405,false,Rx,0,8,BD,30,00,00,00,01,00,00,
387635,00000094,false,Rx,0,8,00,00,00,00,00,00,00,00,
387669,00000410,false,Rx,0,8,A4,70,58,3C,16,6B,FF,FF,
387687,00000413,false,Rx,0,8,F5,10,00,41,00,00,00,00,
387705,00000411,false,Rx,0,8,A8,01,50,50,00,00,44,04,
388073,00000414,false,Rx,0,8,F0,10,00,00,28,00,00,00,
388096,00000412,false,Rx,0,8,6D,60,00,00,00,00,00,00,
388580,00000416,false,Rx,0,8,55,00,00,00,00,00,00,00,
388608,0000048F,false,Rx,0,8,AD,10,41,00,05,00,00,00,
389563,00000417,false,Rx,0,8,06,10,00,00,00,01,00,00,
389583,00000418,false,Rx,0,8,19,70,00,00,12,0C,00,00,
391704,0000010B,false,Rx,0,8,D5,E7,BC,00,00,00,00,05,
391744,0000010C,false,Rx,0,8,FF,F9,E7,1F,46,44,46,46,
391763,0000010D,false,Rx,0,8,10,03,00,00,00,00,01,35,
392683,0000010E,false,Rx,0,8,00,00,0A,00,00,C0,AB,57,
394909,00000146,false,Rx,0,8,66,70,53,10,04,01,00,00,
395727,00000147,false,Rx,0,8,00,04,7D,00,40,00,00,00,
395761,00000148,false,Rx,0,8,00,00,00,00,00,90,40,05,
395779,00000149,false,Rx,0,8,00,00,00,00,00,00,00,00,
396578,00000475,false,Rx,0,8,12,00,00,00,00,00,00,00,
396601,00000496,false,Rx,0,8,12,00,00,00,00,00,00,00,
398176,00000419,false,Rx,0,8,3F,60,9E,D6,D5,79,8F,00,
398211,000001AB,false,Rx,0,8,D2,DE,99,50,70,38,00,00,
398229,000001AC,false,Rx,0,8,00,28,00,00,00,00,00,00,
398247,000002FF,false,Rx,0,8,E2,01,00,F1,3F,00,00,00,
398264,000001B1,false,Rx,0,8,00,A8,53,00,72,00,00,00,
399937,000001B2,false,Rx,0,8,23,00,04,0F,0F,07,52,10,
399991,00000317,false,Rx,0,8,00,00,05,00,00,00,00,00,
400010,0000011B,false,Rx,0,8,9A,30,B2,05,80,08,A8,02,
401321,0000012B,false,Rx,0,8,DD,CA,B2,06,00,00,08,00,
401340,0000011C,false,Rx,0,8,00,05,20,00,22,00,01,01,
401358,0000012C,false,Rx,0,8,00,00,01,00,00,64,00,00,
401375,00000472,false,Rx,0,8,5C,EC,00,40,08,41,00,45,
401393,00000111,false,Rx,0,8,E6,40,B1,01,00,00,00,00,
402379,00000474,false,Rx,0,8,93,44,00,00,00,00,00,14,
402413,00000114,false,Rx,0,8,00,00,00,00,00,00,00,00,
404609,0000019B,false,Rx,0,8,DA,DC,BA,00,00,E4,00,00,
405566,0000019C,false,Rx,0,8,40,20,00,00,00,00,0B,09,
405780,0000019D,false,Rx,0,8,00,10,00,01,00,00,00,00,
405814,0000019E,false,Rx,0,8,15,00,00,00,00,32,00,00,
409088,0000030B,false,Rx,0,8,2C,5F,79,00,04,00,00,00,
409127,0000030C,false,Rx,0,8,00,00,0E,00,2C,00,A0,0F,
409146,0000030D,false,Rx,0,8,00,00,00,00,48,00,00,00,
409702,0000030E,false,Rx,0,8,00,00,38,05,21,00,00,FE,
413591,00000121,false,Rx,0,8,7C,3F,BD,00,00,00,00,05,
413633,00000122,false,Rx,0,8,FF,D9,67,1F,46,46,46,46,
413651,00000123,false,Rx,0,8,11,03,00,00,00,00,01,35,
413669,00000124,false,Rx,0,8,00,00,0A,00,00,00,20,40,
420595,00000036,false,Rx,0,8,0E,2D,BF,51,00,00,25,01,
421596,00000037,false,Rx,0,8,00,00,00,10,00,40,00,00,
421628,00000038,false,Rx,0,8,04,00,00,00,90,38,96,D4,
421647,00000039,false,Rx,0,8,00,00,00,00,00,00,00,00,
423569,00000236,false,Rx,0,8,CD,2F,79,00,6E,3C,34,6C,
424572,00000237,false,Rx,0,8,00,15,BA,00,00,AA,1E,00,
424592,00000151,false,Rx,0,8,6F,F1,79,A0,C8,00,28,19,
424610,00000238,false,Rx,0,8,00,00,5F,00,00,00,00,00,
424627,00000152,false,Rx,0,8,16,18,18,00,0B,00,00,00,
426443,000001F6,false,Rx,0,8,F6,ED,79,00,00,00,00,0D,
426623,00000153,false,Rx,0,8,00,00,00,00,00,00,00,00,
426641,00000061,false,Rx,0,8,04,34,C5,00,00,00,00,00,
426659,00000154,false,Rx,0,8,00,00,00,00,00,00,00,00,
426676,00000062,false,Rx,0,8,02,02,00,02,40,FF,00,FF,
426694,000001F8,false,Rx,0,8,00,00,00,00,00,00,00,00,
426724,00000064,false,Rx,0,8,00,00,00,04,FF,FA,00,00,
427861,000001F9,false,Rx,0,8,00,00,A0,C8,14,00,00,00,
427895,000000A1,false,Rx,0,8,0A,BE,C5,1A,00,00,00,00,
428295,00000239,false,Rx,0,8,00,00,00,00,01,00,00,00,
429680,000000A2,false,Rx,0,8,00,00,00,00,00,00,00,00,
429699,0000025B,false,Rx,0,8,D0,D7,79,40,40,20,00,00,
429717,000000A3,false,Rx,0,8,00,40,01,00,00,00,00,00,
429734,000000C5,false,Rx,0,8,00,00,00,00,00,00,00,00,
429752,0000025C,false,Rx,0,8,00,00,0B,00,34,89,19,00,
429770,0000025E,false,Rx,0,8,13,07,0E,02,00,00,00,00,
430991,000002FC,false,Rx,0,8,03,00,16,19,00,00,86,BF,
431031,000004B4,false,Rx,0,8,00,00,00,00,00,00,00,00,
432728,000002FD,false,Rx,0,8,00,00,00,00,00,1C,0D,EA,
432768,000004B5,false,Rx,0,8,08,00,F0,07,00,00,00,00,
432786,000002FE,false,Rx,0,8,00,00,72,01,00,28,00,00,
432816,000004B7,false,Rx,0,8,08,00,F0,07,00,00,00,00,
432833,00000326,false,Rx,0,8,A6,8C,79,00,00,00,00,00,
432851,00000328,false,Rx,0,8,00,00,00,00,00,00,00,00,
432868,00000329,false,Rx,0,8,A0,00,00,00,00,00,00,00,
434154,000001E6,false,Rx,0,8,E0,BE,EF,02,00,00,00,00,
434194,00000331,false,Rx,0,8,B5,C3,79,F1,C8,A0,2C,97,
435462,000001BB,false,Rx,0,8,CD,09,EF,02,00,00,00,0A,
435523,00000332,false,Rx,0,8,94,02,00,00,00,00,00,00,
435636,000001BC,false,Rx,0,8,32,00,00,00,02,00,00,00,
435658,00000333,false,Rx,0,8,00,00,00,1C,0C,40,20,A0,
436982,000004CE,false,Rx,0,8,14,01,FF,FF,FF,FF,FF,FF,
438283,000004E8,false,Rx,0,8,FF,FF,FF,05,FF,FF,FF,00,
439749,000004E9,false,Rx,0,8,12,00,00,34,00,00,50,00,
439793,000004EA,false,Rx,0,8,67,00,00,89,00,00,00,00,
439813,000004EB,false,Rx,0,8,10,80,2F,27,80,00,00,00,
439831,000004EC,false,Rx,0,8,00,00,00,00,00,00,00,00,
439848,000004ED,false,Rx,0,8,00,00,00,00,00,FF,FF,1F,
440574,00000563,false,Rx,0,8,65,02,00,00,00,00,FF,FF,
440601,0000063D,false,Rx,0,8,00,80,00,00,00,00,00,00,
440619,0000063E,false,Rx,0,8,FF,FF,FF,FF,FF,FF,FF,FF,
441566,0000063F,false,Rx,0,8,00,10,00,C4,FF,00,00,00,
441593,00000640,false,Rx,0,8,FF,FF,FF,00,FF,FF,FF,00,
441610,0000010B,false,Rx,0,8,C1,5F,C1,00,00,00,00,05,
441628,000002AB,false,Rx,0,8,A4,A0,7A,0C,0C,00,00,00,
442563,0000010C,false,Rx,0,8,FF,F9,E7,1F,46,44,46,46,
442590,000002AC,false,Rx,0,8,00,FF,FF,00,00,40,00,50,
442608,0000010D,false,Rx,0,8,10,03,00,00,00,00,01,35,
442626,000002AD,false,Rx,0,8,00,01,00,40,FF,FF,FF,0F,
443563,0000010E,false,Rx,0,8,00,00,0A,00,00,C0,AB,57,
443590,000002AE,false,Rx,0,8,01,00,FF,3F,01,01,00,00,
443607,00000382,false,Rx,0,8,F1,7A,01,00,00,01,08,00,
443625,000002B6,false,Rx,0,8,D6,D1,7A,01,00,00,00,40,
444564,00000251,false,Rx,0,8,74,CF,79,00,00,00,00,00,
444590,000002B7,false,Rx,0,8,08,02,F0,00,00,04,00,00,
444607,00000252,false,Rx,0,8,00,00,00,00,03,00,00,00,
444625,000002B8,false,Rx,0,8,AA,11,11,00,00,00,00,00,
446749,00000253,false,Rx,0,8,00,00,00,52,51,00,80,44,
446785,000002B9,false,Rx,0,8,0A,00,00,00,00,00,00,00,
446803,00000396,false,Rx,0,8,8A,23,BC,0F,08,01,00,02,
446820,000002E1,false,Rx,0,8,87,85,7A,00,00,00,00,40,
446851,00000397,false,Rx,0,8,31,00,00,00,00,00,00,00,
446869,000002E3,false,Rx,0,8,00,00,00,00,00,00,72,01,
446887,00000394,false,Rx,0,8,2A,22,1A,49,00,00,00,00,
447607,000002E4,false,Rx,0,8,02,00,00,00,00,00,00,00,
447631,000003C3,false,Rx,0,8,45,10,31,30,36,00,00,00,
447649,00000641,false,Rx,0,8,FF,FF,FF,FF,0F,FF,FF,FF,
448576,000003E0,false,Rx,0,8,66,20,01,00,54,03,00,00,
448599,0000041A,false,Rx,0,8,BB,A0,12,00,50,01,00,00,
448617,000003E5,false,Rx,0,8,37,80,01,00,00,00,00,00,
448634,0000041B,false,Rx,0,8,70,D0,00,00,00,00,00,00,
449570,000003E6,false,Rx,0,8,67,90,00,00,00,00,00,00,
449590,0000011B,false,Rx,0,8,6C,18,B7,05,80,08,A8,02,
449608,0000012B,false,Rx,0,8,2B,E2,B7,06,00,00,08,00,
449625,0000011C,false,Rx,0,8,00,05,20,00,22,00,01,01,
450567,0000012C,false,Rx,0,8,00,00,01,00,00,64,00,00,
450589,0000041C,false,Rx,0,8,48,00,E0,00,00,00,00,00,
450607,00000646,false,Rx,0,8,00,00,00,80,01,00,00,00,
450624,00000422,false,Rx,0,8,9D,70,01,00,00,00,04,00,
451581,00000432,false,Rx,0,8,03,20,02,00,00,00,00,00,
451601,00000435,false,Rx,0,8,26,C0,00,40,00,00,00,00,
451619,00000442,false,Rx,0,8,CE,20,11,81,00,00,00,00,
451637,00000444,false,Rx,0,8,D5,20,20,50,55,50,00,00,
452568,00000445,false,Rx,0,8,C6,C0,00,00,00,00,00,18,
452590,00000464,false,Rx,0,8,D5,20,F0,FF,38,7F,05,00,
454566,0000019B,false,Rx,0,8,A5,F0,BF,00,00,E4,00,00,
455569,0000019C,false,Rx,0,8,40,20,00,00,00,00,0B,09,
455588,000002D6,false,Rx,0,8,EB,E8,BC,00,00,00,00,00,
455606,0000019D,false,Rx,0,8,00,10,00,01,00,00,00,00,
455623,000002D7,false,Rx,0,8,00,00,00,00,03,00,00,00,
456568,0000019E,false,Rx,0,8,15,00,00,00,00,32,00,00,
456588,000002D8,false,Rx,0,8,00,00,00,00,00,00,38,45,
456606,000002EB,false,Rx,0,8,9C,E9,BC,09,08,01,00,02,
456624,000002D9,false,Rx,0,8,00,00,00,00,00,00,00,00,
457567,000002EC,false,Rx,0,8,00,00,00,00,00,00,00,00,
457588,000002ED,false,Rx,0,8,00,00,00,00,00,00,00,00,
457606,000002EE,false,Rx,0,8,00,00,00,00,00,00,00,00,
459566,00000356,false,Rx,0,8,61,F8,BD,00,00,00,00,00,
459587,00000357,false,Rx,0,8,00,00,00,00,00,4B,4D,48,
459604,00000358,false,Rx,0,8,35,41,45,4D,52,37,33,4F,
460565,00000359,false,Rx,0,8,51,4F,34,52,4A,35,33,00,
461566,00000383,false,Rx,0,8,12,ED,01,00,02,00,00,00,
463564,00000121,false,Rx,0,8,E4,35,C2,00,00,00,00,05,
463584,00000122,false,Rx,0,8,FF,D9,67,1F,46,46,46,46,
463601,00000123,false,Rx,0,8,11,03,00,00,00,00,01,35,
463619,00000124,false,Rx,0,8,00,00,0A,00,00,00,20,40,
466566,0000036F,false,Rx,0,8,91,21,01,00,00,00,00,00,
467564,0000037F,false,Rx,0,8,EC,80,52,24,41,02,00,00,
469572,000001A1,false,Rx,0,8,1A,22,5C,FE,F7,7F,64,00,
469592,000001A2,false,Rx,0,8,00,00,00,00,00,08,00,00,
469610,000001A3,false,Rx,0,8,FF,F3,3F,00,00,00,00,00,
470567,000001A4,false,Rx,0,8,FE,07,00,00,00,00,00,00,
470589,00000036,false,Rx,0,8,AF,52,C4,51,00,00,25,01,
471569,00000037,false,Rx,0,8,00,00,00,10,00,40,00,00,
471588,00000038,false,Rx,0,8,04,00,00,00,90,38,96,D4,
471606,00000039,false,Rx,0,8,00,00,00,00,00,00,00,00,
472570,00000419,false,Rx,0,8,4C,70,9D,D6,D5,79,8F,00,
472591,000003B6,false,Rx,0,8,4C,BE,BB,00,00,00,00,46,
473568,000003B7,false,Rx,0,8,46,00,00,00,00,00,00,00,
473590,000003B8,false,Rx,0,8,0C,03,00,00,00,00,69,0E,
473608,000003B9,false,Rx,0,8,00,00,00,00,00,00,00,00,
475566,00000061,false,Rx,0,8,85,40,CA,00,00,00,00,00,
475587,00000062,false,Rx,0,8,02,02,00,02,40,FF,00,FF,
476567,00000063,false,Rx,0,8,00,00,05,00,00,08,FD,00,
476589,00000064,false,Rx,0,8,00,00,00,04,FF,FA,00,00,
476606,000000A1,false,Rx,0,8,3A,93,CA,1A,00,00,00,00,
476624,000000A2,false,Rx,0,8,00,00,00,00,00,00,00,00,
477566,000000A3,false,Rx,0,8,00,40,01,00,00,00,00,00,
479563,000001E1,false,Rx,0,8,79,E8,F2,02,00,00,00,00,
479583,000001E2,false,Rx,0,8,00,00,00,00,00,00,00,00,
480657,000001F1,false,Rx,0,8,39,18,C2,01,00,00,28,00,
480691,000001F2,false,Rx,0,8,00,00,00,00,00,00,00,00,
481745,00000384,false,Rx,0,8,E9,DC,02,00,00,FF,00,21,
486591,00000091,false,Rx,0,8,DB,13,78,00,00,00,00,00,
486618,000003AA,false,Rx,0,8,FF,00,B0,00,54,00,00,00,
486636,00000092,false,Rx,0,8,00,00,00,00,00,00,00,00,
486654,00000093,false,Rx,0,8,00,00,00,00,00,00,00,00,
487563,00000094,false,Rx,0,8,00,00,00,00,00,00,00,00,
487586,00000495,false,Rx,0,8,49,00,00,00,00,00,00,00,
491582,0000010B,false,Rx,0,8,32,C1,C6,00,00,00,00,05,
491611,0000010C,false,Rx,0,8,FF,F9,E7,1F,46,44,46,46,
491629,0000010D,false,Rx,0,8,10,03,00,00,00,00,01,35,
492595,0000010E,false,Rx,0,8,00,00,0A,00,00,C0,AB,57,
495573,00000146,false,Rx,0,8,DE,71,58,10,04,01,00,00,
495594,00000147,false,Rx,0,8,00,04,7D,00,40,00,00,00,
495612,00000148,false,Rx,0,8,00,00,00,00,00,90,40,05,
495630,00000149,false,Rx,0,8,00,00,00,00,00,00,00,00,
497565,000001AB,false,Rx,0,8,4D,B6,9E,50,70,38,00,00,
497587,000001AC,false,Rx,0,8,00,28,00,00,00,00,00,00,
497605,00000226,false,Rx,0,8,5D,9F,53,FF,43,E1,05,42,
498566,000001B1,false,Rx,0,8,B8,A9,58,00,72,00,00,00,
498585,00000227,false,Rx,0,8,02,70,E1,08,00,F2,17,04,
498603,000001B2,false,Rx,0,8,23,00,04,0F,0F,07,52,10,
498621,000001B3,false,Rx,0,8,10,2C,00,00,87,90,96,90,
499567,0000011B,false,Rx,0,8,A4,E1,BC,05,80,08,A8,02,
499588,000001B4,false,Rx,0,8,95,91,17,00,00,40,01,00,
499606,0000011C,false,Rx,0,8,00,05,20,00,22,00,01,01,
499624,0000012B,false,Rx,0,8,E3,1B,BC,06,00,00,08,00,
500566,000001FB,false,Rx,0,8,C5,EE,79,00,00,00,00,00,
500585,0000012C,false,Rx,0,8,00,00,01,00,00,64,00,00,
500603,000001FC,false,Rx,0,8,00,00,00,00,00,00,00,00,
500621,000001FD,false,Rx,0,8,00,1A,03,00,00,00,00,00,
501567,000001FE,false,Rx,0,8,00,00,00,00,00,00,00,00,
504565,0000019B,false,Rx,0,8,04,8F,C4,00,00,E4,00,00,
505567,0000019C,false,Rx,0,8,40,20,00,00,00,00,0B,09,
505587,0000019D,false,Rx,0,8,00,10,00,01,00,00,00,00,
505604,0000019E,false,Rx,0,8,15,00,00,00,00,32,00,00,
506566,00000380,false,Rx,0,8,AD,D7,FF,00,00,00,00,01,
509769,00000448,false,Rx,0,8,10,20,00,00,00,00,00,00,
509805,000003B0,false,Rx,0,8,72,37,FF,C7,00,00,03,C0,
512571,000003B1,false,Rx,0,8,9B,3C,FF,40,00,00,20,00,
512592,00000419,false,Rx,0,8,4C,70,9D,D6,D5,79,8F,00,
512610,00000121,false,Rx,0,8,9B,19,C7,00,00,00,00,05,
513573,00000122,false,Rx,0,8,FF,D9,67,1F,46,46,46,46,
513591,00000123,false,Rx,0,8,11,03,00,00,00,00,01,35,
513609,00000124,false,Rx,0,8,00,00,0A,00,00,00,20,40,
519565,00000487,false,Rx,0,8,00,00,00,00,00,00,00,00,
520565,00000642,false,Rx,0,8,FF,FF,FF,FF,FF,FF,00,00,
520584,00000036,false,Rx,0,8,A2,94,C9,51,00,00,25,01,
521567,00000037,false,Rx,0,8,00,00,00,10,00,40,00,00,
521586,00000038,false,Rx,0,8,04,00,00,00,90,38,96,D4,
521603,00000039,false,Rx,0,8,00,00,00,00,00,00,00,00,
521621,000003B2,false,Rx,0,8,36,15,FF,02,29,2F,34,00,
526122,00000061,false,Rx,0,8,FA,6C,CF,00,00,00,00,00,
526158,00000062,false,Rx,0,8,02,02,00,02,40,FF,00,FF,
526177,00000063,false,Rx,0,8,00,00,05,00,00,08,FD,00,
526210,00000064,false,Rx,0,8,00,00,00,04,FF,FA,00,00,
526228,000000A1,false,Rx,0,8,35,78,CF,1A,00,00,00,00,
526617,000000A2,false,Rx,0,8,00,00,00,00,00,00,00,00,
527638,00000427,false,Rx,0,8,1D,86,FF,00,80,0A,00,00,
527666,000000A3,false,Rx,0,8,00,40,01,00,00,00,00,00,
531593,0000042A,false,Rx,0,8,F4,DE,FF,01,00,10,00,00,
531632,00000401,false,Rx,0,8,A9,30,10,00,00,04,00,00,
534363,00000565,false,Rx,0,8,66,02,00,00,00,00,FF,FF,
538625,00000161,false,Rx,0,8,12,1D,60,03,00,00,00,02,
539594,00000162,false,Rx,0,8,FF,FC,01,00,00,00,00,00,
541576,0000010B,false,Rx,0,8,3F,07,CB,00,00,00,00,05,
541600,0000010C,false,Rx,0,8,FF,F9,E7,1F,46,44,46,46,
541618,0000010D,false,Rx,0,8,10,03,00,00,00,00,01,35,
542918,000002C1,false,Rx,0,8,1E,67,BE,21,00,41,00,A7,
542952,0000010E,false,Rx,0,8,00,00,0A,00,00,C0,AB,57,
542970,000002C2,false,Rx,0,8,0A,00,00,00,00,00,00,00,
542988,000002C3,false,Rx,0,8,00,00,00,00,00,00,00,00,
543006,000002C4,false,Rx,0,8,00,00,00,00,00,00,00,00,
549598,0000011B,false,Rx,0,8,E1,31,C1,05,80,08,A8,02,
549637,0000011C,false,Rx,0,8,00,05,20,00,22,00,01,01,
549656,0000012B,false,Rx,0,8,A6,CB,C1,06,00,00,08,00,
549674,0000012C,false,Rx,0,8,00,00,01,00,00,64,00,00,
554619,0000019B,false,Rx,0,8,09,49,C9,00,00,E4,00,00,
555597,0000019C,false,Rx,0,8,40,20,00,00,00,00,0B,09,
555629,0000019D,false,Rx,0,8,00,10,00,01,00,00,00,00,
555648,0000019E,false,Rx,0,8,15,00,00,00,00,32,00,00,
559794,0000033B,false,Rx,0,8,E3,82,7B,00,00,00,00,00,
559830,0000033C,false,Rx,0,8,00,00,00,00,F0,00,00,00,
559848,0000033D,false,Rx,0,8,00,00,00,00,00,00,00,00,
559865,0000033E,false,Rx,0,8,00,00,00,00,00,00,00,00,
559883,000004A3,false,Rx,0,8,80,00,48,0B,3E,00,00,00,
559901,000004A4,false,Rx,0,8,FF,FF,FF,00,00,00,00,00,
562869,00000121,false,Rx,0,8,23,18,CC,00,00,00,00,05,
562905,00000122,false,Rx,0,8,FF,D9,67,1F,46,46,46,46,
563601,00000123,false,Rx,0,8,11,03,00,00,00,00,01,35,
563628,00000124,false,Rx,0,8,00,00,0A,00,00,00,20,40,
566728,0000036F,false,Rx,0,8,28,31,01,00,00,00,00,00,
567589,0000037F,false,Rx,0,8,55,90,52,24,41,02,00,00,
569574,000001A1,false,Rx,0,8,79,B9,61,FE,F7,7F,64,00,
569604,000001A2,false,Rx,0,8,00,00,00,00,00,08,00,00,
569622,000001A3,false,Rx,0,8,FF,F3,3F,00,00,00,00,00,
569640,000001A4,false,Rx,0,8,FE,07,00,00,00,00,00,00,
570576,00000036,false,Rx,0,8,51,0A,CE,51,00,00,25,01,
571661,00000037,false,Rx,0,8,00,00,00,10,00,40,00,00,
571697,00000038,false,Rx,0,8,04,00,00,00,90,38,96,D4,
571716,00000039,false,Rx,0,8,00,00,00,00,00,00,00,00,
573427,000002E6,false,Rx,0,8,ED,37,78,01,00,00,00,15,
573463,00000256,false,Rx,0,8,78,BE,78,15,00,00,00,01,
573481,000002E7,false,Rx,0,8,0A,00,00,00,00,00,00,00,
573498,00000257,false,Rx,0,8,00,8B,42,19,86,07,00,8B,
573527,000002E8,false,Rx,0,8,00,00,00,00,00,00,00,00,
573905,000002E9,false,Rx,0,8,00,00,00,00,00,00,00,00,
573933,00000259,false,Rx,0,8,45,05,8B,3C,28,02,00,00,
575598,00000061,false,Rx,0,8,87,A9,D4,00,00,00,00,00,
576716,00000062,false,Rx,0,8,02,02,00,02,40,FF,00,FF,
576745,000002BF,false,Rx,0,8,FF,FF,FF,00,00,00,00,00,
576767,00000063,false,Rx,0,8,00,00,05,00,00,08,FD,00,
576784,0000047F,false,Rx,0,8,FF,FF,FF,FF,FF,FF,F3,FF,
576802,00000064,false,Rx,0,8,00,00,00,04,FF,FA,00,00,
576819,00000653,false,Rx,0,8,0A,19,03,01,02,2A,00,00,
577589,000000A1,false,Rx,0,8,5A,C9,D4,1A,00,00,00,00,
577619,000000A2,false,Rx,0,8,00,00,00,00,00,00,00,00,
577638,000000A3,false,Rx,0,8,00,40,01,00,00,00,00,00,
583605,000001E6,false,Rx,0,8,99,A4,F2,02,00,00,00,00,
583647,000001BB,false,Rx,0,8,A8,0A,F2,02,00,00,00,0A,
583665,000001BC,false,Rx,0,8,32,00,00,00,02,00,00,00,
584708,000001BD,false,Rx,0,8,00,00,00,00,00,00,00,00,
584744,000001E7,false,Rx,0,8,00,00,22,03,20,01,00,00,
586575,00000091,false,Rx,0,8,9D,4A,79,00,00,00,00,00,
586606,00000092,false,Rx,0,8,00,00,00,00,00,00,00,00,
586624,00000093,false,Rx,0,8,00,00,00,00,00,00,00,00,
587591,00000094,false,Rx,0,8,00,00,00,00,00,00,00,00,
587969,00000405,false,Rx,0,8,BD,30,00,00,00,01,00,00,
587992,00000413,false,Rx,0,8,F5,10,00,41,00,00,00,00,
588010,00000410,false,Rx,0,8,A4,70,58,3C,16,6B,FF,FF,
588027,00000414,false,Rx,0,8,F0,10,00,00,28,00,00,00,
588045,00000411,false,Rx,0,8,A8,01,50,50,00,00,44,04,
588589,00000416,false,Rx,0,8,55,00,00,00,00,00,00,00,
588610,00000412,false,Rx,0,8,6D,60,00,00,00,00,00,00,
588628,00000417,false,Rx,0,8,06,10,00,00,00,01,00,00,
589627,00000418,false,Rx,0,8,19,70,00,00,12,0C,00,00,
589660,00000419,false,Rx,0,8,4C,70,9D,D6,D5,79,8F,00,
592131,0000010B,false,Rx,0,8,42,C2,D0,00,00,00,00,05,
592168,0000010C,false,Rx,0,8,FF,F9,E7,1F,46,44,46,46,
592187,0000010D,false,Rx,0,8,10,03,00,00,00,00,01,35,
592205,0000010E,false,Rx,0,8,00,00,0A,00,00,C0,AB,57,
596466,00000146,false,Rx,0,8,A1,5D,5D,10,04,01,00,00,
596502,00000147,false,Rx,0,8,00,04,7D,00,40,00,00,00,
596520,00000148,false,Rx,0,8,00,00,00,00,00,90,40,05,
597060,00000149,false,Rx,0,8,00,00,00,00,00,00,00,00,
597108,00000475,false,Rx,0,8,12,00,00,00,00,00,00,00,
597139,000001AB,false,Rx,0,8,20,EA,A3,50,70,38,00,00,
597158,000001AC,false,Rx,0,8,00,28,00,00,00,00,00,00,
597621,00000316,false,Rx,0,8,53,44,AA,34,14,80,0A,00,
598857,00000317,false,Rx,0,8,00,00,05,00,00,00,00,00,
598881,000001B1,false,Rx,0,8,C7,85,5D,00,72,00,00,00,
598899,000003CB,false,Rx,0,8,36,14,00,F4,00,00,00,00,
598916,000001B2,false,Rx,0,8,23,00,04,0F,0F,07,52,10,
598934,000003CC,false,Rx,0,8,36,31,34,30,33,34,31,00,
598951,0000011B,false,Rx,0,8,7E,59,C6,05,80,08,A8,02,
599593,0000012B,false,Rx,0,8,39,A3,C6,06,00,00,08,00,
599617,0000011C,false,Rx,0,8,00,05,20,00,22,00,01,01,
599636,0000012C,false,Rx,0,8,00,00,01,00,00,64,00,00,
600565,000001B3,false,Rx,0,8,10,2C,00,00,87,90,96,90,
600588,00000472,false,Rx,0,8,5C,EC,00,40,08,41,00,45,
600607,00000111,false,Rx,0,8,2C,AB,B2,01,00,00,00,00,
600625,000001B4,false,Rx,0,8,95,91,17,00,00,40,01,00,
602206,00000112,false,Rx,0,8,00,00,00,00,00,00,00,00,
602240,000002FF,false,Rx,0,8,E2,01,00,F1,3F,00,00,00,
602258,00000113,false,Rx,0,8,00,00,00,00,00,00,00,00,
602276,00000473,false,Rx,0,8,5F,24,00,25,00,00,00,78,
602293,00000114,false,Rx,0,8,00,00,00,00,00,00,00,00,
604704,0000019B,false,Rx,0,8,FA,D7,CE,00,00,E4,00,00,
605578,0000019C,false,Rx,0,8,40,20,00,00,00,00,0B,09,
605605,0000019D,false,Rx,0,8,00,10,00,01,00,00,00,00,
605623,0000019E,false,Rx,0,8,15,00,00,00,00,32,00,00,
608587,0000030B,false,Rx,0,8,93,7B,7B,00,04,00,00,00,
609563,0000030C,false,Rx,0,8,00,00,0E,00,2C,00,A0,0F,
609586,0000030D,false,Rx,0,8,00,00,00,00,48,00,00,00,
609603,0000030E,false,Rx,0,8,00,00,38,05,21,00,00,02,
612770,00000121,false,Rx,0,8,EB,1A,D1,00,00,00,00,05,
614246,00000122,false,Rx,0,8,FF,D9,67,1F,46,46,46,46,
614282,00000123,false,Rx,0,8,11,03,00,00,00,00,01,35,
614300,00000124,false,Rx,0,8,00,00,0A,00,00,00,20,40,
620594,00000036,false,Rx,0,8,99,08,D3,51,00,00,25,01,
621760,00000037,false,Rx,0,8,00,00,00,10,00,40,00,00,
621918,00000038,false,Rx,0,8,04,00,00,00,90,38,96,D4,
621936,00000039,false,Rx,0,8,00,00,00,00,00,00,00,00,
623584,00000236,false,Rx,0,8,41,9D,7B,00,6E,3C,34,6C,
624571,00000237,false,Rx,0,8,00,15,BA,00,00,AA,1E,00,
624591,00000151,false,Rx,0,8,E3,43,7B,A0,C8,00,28,19,
624609,00000238,false,Rx,0,8,00,00,5F,00,00,00,00,00,
624627,00000152,false,Rx,0,8,16,18,18,00,0B,00,00,00,
626270,000001F6,false,Rx,0,8,7A,5F,7B,00,00,00,00,0D,
626680,00000153,false,Rx,0,8,00,00,00,00,00,00,00,00,
627831,00000061,false,Rx,0,8,8A,6F,D9,00,00,00,00,00,
627896,00000154,false,Rx,0,8,00,00,00,00,00,00,00,00,
627914,00000062,false,Rx,0,8,02,02,00,02,40,FF,00,FF,
627951,000001F8,false,Rx,0,8,00,00,00,00,00,00,00,00,
627968,00000064,false,Rx,0,8,00,00,00,04,FF,FA,00,00,
627986,000001F9,false,Rx,0,8,00,00,A0,C8,14,00,00,00,
628004,0000025B,false,Rx,0,8,0D,46,7B,40,40,20,00,00,
628578,000000A3,false,Rx,0,8,00,40,01,00,00,00,00,00,
628612,0000025C,false,Rx,0,8,00,00,0B,00,34,89,19,00,
630071,000002FB,false,Rx,0,8,DD,A7,7B,04,5F,1A,CC,CC,
630105,0000025D,false,Rx,0,8,00,C8,00,00,00,80,C0,70,
630140,000001E1,false,Rx,0,8,E6,80,F5,02,00,00,00,00,
630158,0000025E,false,Rx,0,8,02,07,0E,01,00,00,00,00,
630176,000000C5,false,Rx,0,8,00,00,00,00,00,00,00,00,
630193,00000244,false,Rx,0,8,FF,FF,FF,FF,FF,FF,FF,FF,
631820,000001F1,false,Rx,0,8,A6,70,C5,01,00,00,28,00,
631889,000002FC,false,Rx,0,8,04,00,16,19,00,00,86,BF,
631908,000001F2,false,Rx,0,8,00,00,00,00,00,00,00,00,
631925,000002FD,false,Rx,0,8,00,00,00,00,00,1C,0D,EA,
631943,0000041F,false,Rx,0,8,00,0C,00,00,00,00,00,00,
631960,000002FE,false,Rx,0,8,00,00,72,01,00,28,00,00,
633184,00000326,false,Rx,0,8,2A,3E,7B,00,00,00,00,00,
633221,000003A2,false,Rx,0,8,00,00,00,00,00,00,00,00,
633239,00000327,false,Rx,0,8,00,00,00,00,05,00,00,00,
633256,000004B4,false,Rx,0,8,00,00,00,00,00,00,00,00,
633665,00000328,false,Rx,0,8,00,00,00,00,00,00,00,00,
633690,000004B5,false,Rx,0,8,08,00,F0,07,00,00,00,00,
633708,00000329,false,Rx,0,8,A0,00,00,00,00,00,00,00,
634585,000004B7,false,Rx,0,8,08,00,F0,07,00,00,00,00,
634608,00000331,false,Rx,0,8,39,71,7B,F1,C8,A0,2C,97,
634629,000004CA,false,Rx,0,8,00,00,00,00,00,00,00,00,
634646,00000332,false,Rx,0,8,94,02,00,00,00,00,00,00,
636106,000004CC,false,Rx,0,8,08,00,00,06,00,00,03,00,
636141,00000333,false,Rx,0,8,00,00,00,1C,0C,40,20,A0,
636158,000004CE,false,Rx,0,8,14,01,FF,FF,FF,FF,FF,FF,
636651,00000334,false,Rx,0,8,C8,00,00,00,AC,70,1D,90,
636677,000004D7,false,Rx,0,8,23,01,00,00,00,00,00,00,
637608,000004D8,false,Rx,0,8,41,10,F0,F0,40,F2,1E,CC,
637648,000004DD,false,Rx,0,8,00,00,FE,00,04,00,00,00,
637666,000004DF,false,Rx,0,8,FF,03,0C,3F,00,00,00,00,
638043,000004E7,false,Rx,0,8,00,30,00,00,00,00,69,00,
638072,000004E8,false,Rx,0,8,FF,FF,FF,05,FF,FF,FF,00,
638116,000004E9,false,Rx,0,8,12,00,00,34,00,00,50,00,
638135,000004EA,false,Rx,0,8,67,00,00,89,00,00,00,00,
638154,000004EB,false,Rx,0,8,10,80,2F,27,80,00,00,00,
638589,000004EC,false,Rx,0,8,00,00,00,00,00,00,00,00,
639570,000004ED,false,Rx,0,8,00,00,00,00,00,FF,FF,1F,
639593,000004EE,false,Rx,0,8,FF,FF,00,00,00,00,00,00,
639611,00000161,false,Rx,0,8,E4,35,65,03,00,00,00,02,
639628,000004EF,false,Rx,0,8,60,00,60,00,29,14,00,00,
639653,00000162,false,Rx,0,8,FF,FC,01,00,00,00,00,00,
640566,000004F0,false,Rx,0,8,4A,10,2F,27,58,1A,18,02,
640588,000004F1,false,Rx,0,8,00,C0,00,00,00,00,00,00,
640606,000004F2,false,Rx,0,8,02,FF,DD,FF,03,01,00,00,
641573,000004F3,false,Rx,0,8,00,00,00,00,F0,00,00,00,
641596,000004F9,false,Rx,0,8,E0,FF,FF,FF,FF,FF,FF,FF,
641614,0000010B,false,Rx,0,8,3D,EE,D5,00,00,00,00,05,
641632,000002AB,false,Rx,0,8,11,67,7C,0C,0C,00,00,00,
642567,0000010C,false,Rx,0,8,FF,F9,E7,1F,46,44,46,46,
642589,000002AC,false,Rx,0,8,00,FF,FF,00,00,40,00,50,
642607,0000010D,false,Rx,0,8,10,03,00,00,00,00,01,35,
642624,000002AD,false,Rx,0,8,00,01,00,40,FF,FF,FF,0F,
644177,0000010E,false,Rx,0,8,00,00,0A,00,00,C0,AB,57,
644212,000002AE,false,Rx,0,8,01,00,FF,3F,01,01,00,00,
644614,00000382,false,Rx,0,8,F1,7A,01,00,00,01,08,00,
644649,000002B6,false,Rx,0,8,63,16,7C,01,00,00,00,40,
644670,00000251,false,Rx,0,8,92,6F,7B,00,00,00,00,00,
644688,000002B8,false,Rx,0,8,AA,11,11,00,00,00,00,00,
644705,00000253,false,Rx,0,8,00,00,00,52,52,00,80,44,
646299,000002B9,false,Rx,0,8,0A,00,00,00,00,00,00,00,
646333,00000396,false,Rx,0,8,9E,E0,BD,0F,08,01,00,02,
646351,000002E1,false,Rx,0,8,32,42,7C,00,00,00,00,40,
646369,000000FF,false,Rx,0,8,CB,10,00,00,00,00,02,00,
646386,000002E2,false,Rx,0,8,FD,00,00,00,00,14,00,04,
646404,000002E3,false,Rx,0,8,00,00,00,00,00,00,72,01,
646684,00000394,false,Rx,0,8,2A,22,1A,49,00,00,00,00,
648423,000002E4,false,Rx,0,8,02,00,00,00,00,00,00,00,
648458,00000398,false,Rx,0,8,00,00,00,00,00,00,00,00,
648476,000003C3,false,Rx,0,8,45,10,31,30,36,00,00,00,
648506,0000063D,false,Rx,0,8,00,80,00,00,00,00,00,00,
648900,000003E0,false,Rx,0,8,66,20,01,00,54,03,00,00,
648927,0000041B,false,Rx,0,8,70,D0,00,00,00,00,00,00,
648945,000003E6,false,Rx,0,8,67,90,00,00,00,00,00,00,
649587,0000011B,false,Rx,0,8,0D,60,CB,05,80,08,A8,02,
649609,0000012B,false,Rx,0,8,4A,9A,CB,06,00,00,08,00,
649627,0000011C,false,Rx,0,8,00,05,20,00,22,00,01,01,
650567,0000012C,false,Rx,0,8,00,00,01,00,00,64,00,00,
650587,0000041C,false,Rx,0,8,48,00,E0,00,00,00,00,00,
650605,0000063E,false,Rx,0,8,FF,FF,FF,FF,FF,FF,FF,FF,
650622,00000422,false,Rx,0,8,9D,70,01,00,00,00,04,00,
652029,0000063F,false,Rx,0,8,00,10,00,C4,FF,00,00,00,
652063,00000432,false,Rx,0,8,03,20,02,00,00,00,00,00,
652440,00000640,false,Rx,0,8,FF,FF,FF,00,FF,FF,FF,00,
652472,00000435,false,Rx,0,8,26,C0,00,40,00,00,00,00,
652489,00000641,false,Rx,0,8,FF,FF,FF,FF,0F,FF,FF,FF,
652507,00000646,false,Rx,0,8,00,00,00,80,01,00,00,00,
652525,00000444,false,Rx,0,8,D5,20,20,50,55,50,00,00,
652828,00000445,false,Rx,0,8,C6,C0,00,00,00,00,00,18,
653566,00000464,false,Rx,0,8,D5,20,F0,FF,38,7F,05,00,
655337,0000019B,false,Rx,0,8,32,D5,D3,00,00,E4,00,00,
655370,0000019C,false,Rx,0,8,40,20,00,00,00,00,0B,09,
655388,000002D6,false,Rx,0,8,AD,B1,BD,00,00,00,00,00,
655406,0000019D,false,Rx,0,8,00,10,00,01,00,00,00,00,
655571,000002D7,false,Rx,0,8,00,00,00,00,03,00,00,00,
656589,0000019E,false,Rx,0,8,15,00,00,00,00,32,00,00,
656615,000002D8,false,Rx,0,8,00,00,00,00,00,00,38,45,
656634,000002EB,false,Rx,0,8,8D,36,BD,09,08,01,00,02,
656653,000002D9,false,Rx,0,8,00,00,00,00,00,00,00,00,
657569,000002EC,false,Rx,0,8,22,00,00,00,00,00,00,00,
657591,000002ED,false,Rx,0,8,00,00,00,00,00,00,00,00,
657609,000002EE,false,Rx,0,8,00,00,00,00,00,00,00,00,
659044,00000356,false,Rx,0,8,AB,13,BE,00,00,00,00,00,
659077,00000357,false,Rx,0,8,00,00,00,00,00,4B,4D,48,
659590,00000358,false,Rx,0,8,35,41,45,4D,52,37,33,4F,
659617,00000359,false,Rx,0,8,51,4F,34,52,4A,35,33,00,
660888,000004E8,false,Rx,0,8,FF,FF,FF,05,FF,FF,FF,00,
661586,00000383,false,Rx,0,8,12,ED,01,00,02,00,00,00,
663241,00000121,false,Rx,0,8,18,84,D6,00,00,00,00,05,
663276,00000122,false,Rx,0,8,FF,D9,67,1F,46,46,46,46,
663309,00000123,false,Rx,0,8,11,03,00,00,00,00,01,35,
663327,00000124,false,Rx,0,8,00,00,0A,00,00,00,20,40,
666604,0000036F,false,Rx,0,8,20,41,01,00,00,00,00,00,
667570,0000037F,false,Rx,0,8,83,A0,52,24,41,02,00,00,
670137,000001A1,false,Rx,0,8,8A,27,66,FE,F7,7F,64,00,
670174,000001A2,false,Rx,0,8,00,00,00,00,00,08,00,00,
670193,000001A3,false,Rx,0,8,FF,F3,3F,00,00,00,00,00,
670210,000001A4,false,Rx,0,8,FE,07,00,00,00,00,00,00,
671492,00000036,false,Rx,0,8,21,09,D8,51,00,00,25,01,
671526,00000037,false,Rx,0,8,00,00,00,10,00,40,00,00,
671798,00000038,false,Rx,0,8,04,00,00,00,90,38,96,D4,
671818,00000039,false,Rx,0,8,00,00,00,00,00,00,00,00,
672592,000003B6,false,Rx,0,8,BF,20,BC,00,00,00,00,46,
674048,000003B7,false,Rx,0,8,46,00,00,00,00,00,00,00,
674082,000003B8,false,Rx,0,8,0C,03,00,00,00,00,69,0E,
674099,000003B9,false,Rx,0,8,00,00,00,00,00,00,00,00,
675786,00000061,false,Rx,0,8,79,F1,DE,00,00,00,00,00,
675972,00000062,false,Rx,0,8,02,02,00,02,40,FF,00,FF,
675991,00000063,false,Rx,0,8,00,00,05,00,00,08,FD,00,
676008,00000064,false,Rx,0,8,00,00,00,04,FF,FA,00,00,
677103,000000A1,false,Rx,0,8,65,0F,DE,1A,00,00,00,00,
677140,000000A2,false,Rx,0,8,00,00,00,00,00,00,00,00,
677158,000000A3,false,Rx,0,8,00,40,01,00,00,00,00,00,
682598,00000384,false,Rx,0,8,E9,DC,02,00,00,FF,00,21,
686595,00000091,false,Rx,0,8,57,A1,7A,00,00,00,00,00,
686634,000003AA,false,Rx,0,8,FF,00,B0,00,54,00,00,00,
686652,00000092,false,Rx,0,8,00,00,00,00,00,00,00,00,
686670,00000093,false,Rx,0,8,00,00,00,00,00,00,00,00,
687649,00000094,false,Rx,0,8,00,00,00,00,00,00,00,00,
687680,00000495,false,Rx,0,8,49,00,00,00,00,00,00,00,
691619,000004E8,false,Rx,0,8,FF,FF,FF,05,FF,FF,FF,00,
691654,0000010B,false,Rx,0,8,BC,9A,DA,00,00,00,00,05,
691672,0000010C,false,Rx,0,8,FF,F9,E7,1F,46,44,46,46,
691690,0000010D,false,Rx,0,8,10,03,00,00,00,00,01,35,
692575,0000010E,false,Rx,0,8,00,00,0A,00,00,C0,AB,57,
695597,00000146,false,Rx,0,8,4E,74,62,10,04,01,00,00,
695625,00000147,false,Rx,0,8,00,04,7D,00,40,00,00,00,
695643,00000148,false,Rx,0,8,00,00,00,00,00,90,40,05,
695661,00000149,false,Rx,0,8,00,00,00,00,00,00,00,00,
697577,000001AB,false,Rx,0,8,E8,13,A8,50,70,38,00,00,
697603,000001AC,false,Rx,0,8,00,28,00,00,00,00,00,00,
697621,00000226,false,Rx,0,8,E6,5F,55,FF,43,E1,05,42,
697639,00000227,false,Rx,0,8,02,70,E1,08,00,F2,17,04,
698567,000001B1,false,Rx,0,8,28,AC,62,00,72,00,00,00,
698592,000001B2,false,Rx,0,8,23,00,04,0F,0F,07,52,10,
698609,000001B3,false,Rx,0,8,10,2C,00,00,87,90,96,90,
698627,000001B4,false,Rx,0,8,95,91,17,00,00,40,01,00,
699564,0000011B,false,Rx,0,8,CF,BA,D0,05,80,08,A8,02,
699590,0000012B,false,Rx,0,8,88,40,D0,06,00,00,08,00,
699607,0000011C,false,Rx,0,8,00,05,20,00,22,00,01,01,
699625,0000012C,false,Rx,0,8,00,00,01,00,00,64,00,00,
700564,000001FB,false,Rx,0,8,49,5C,7B,00,00,00,00,00,
700596,000001FC,false,Rx,0,8,00,00,00,00,00,00,00,00,
700613,000001FD,false,Rx,0,8,00,1A,03,00,00,00,00,00,
700631,000001FE,false,Rx,0,8,00,00,00,00,00,00,00,00,
704580,0000019B,false,Rx,0,8,8A,D4,D8,00,00,E4,00,00,
705564,0000019C,false,Rx,0,8,40,20,00,00,00,00,0B,09,
705590,0000019D,false,Rx,0,8,00,10,00,01,00,00,00,00,
705607,0000019E,false,Rx,0,8,15,00,00,00,00,32,00,00,
706563,00000380,false,Rx,0,8,AD,D7,FF,00,00,00,00,01,
709572,000003B0,false,Rx,0,8,72,37,FF,C7,00,00,03,C0,
709596,00000448,false,Rx,0,8,10,20,00,00,00,00,00,00,
712572,000003B1,false,Rx,0,8,9B,3C,FF,40,00,00,20,00,
712593,00000121,false,Rx,0,8,15,42,DB,00,00,00,00,05,
713564,00000122,false,Rx,0,8,FF,D9,67,1F,46,46,46,46,
713589,00000123,false,Rx,0,8,11,03,00,00,00,00,01,35,
713607,00000124,false,Rx,0,8,00,00,0A,00,00,00,20,40,
720566,00000036,false,Rx,0,8,5E,25,DD,51,00,00,25,01,
721564,00000487,false,Rx,0,8,00,00,00,00,00,00,00,00,
721589,00000037,false,Rx,0,8,00,00,00,10,00,40,00,00,
721613,00000642,false,Rx,0,8,FF,FF,FF,FF,FF,FF,00,00,
721631,00000038,false,Rx,0,8,04,00,00,00,90,38,96,D4,
721649,000003B2,false,Rx,0,8,36,15,FF,02,29,2F,34,00,
722564,00000039,false,Rx,0,8,00,00,00,00,00,00,00,00,
722589,00000645,false,Rx,0,8,C7,35,06,79,E0,32,56,00,
725569,00000061,false,Rx,0,8,1A,6A,E3,00,00,00,00,00,
725590,00000062,false,Rx,0,8,02,02,00,02,40,FF,00,FF,
726564,00000063,false,Rx,0,8,00,00,05,00,00,08,FD,00,
726590,00000064,false,Rx,0,8,00,00,00,04,FF,FA,00,00,
726607,000000A1,false,Rx,0,8,A6,8C,E3,1A,00,00,00,00,
726625,000000A2,false,Rx,0,8,00,00,00,00,00,00,00,00,
727563,00000427,false,Rx,0,8,1D,86,FF,00,80,0A,00,00,
727587,000000A3,false,Rx,0,8,00,40,01,00,00,00,00,00,
731572,0000042A,false,Rx,0,8,F4,DE,FF,01,00,10,00,00,
731594,000004E8,false,Rx,0,8,FF,FF,FF,05,FF,FF,FF,00,
731611,00000401,false,Rx,0,8,A9,30,10,00,00,04,00,00,
732563,00000516,false,Rx,0,8,61,02,00,00,00,00,FF,FF,
734376,000001E6,false,Rx,0,8,06,CC,F5,02,00,00,00,00,
734414,000001BB,false,Rx,0,8,A1,8F,F5,02,00,00,00,0A,
734432,000001BC,false,Rx,0,8,32,00,00,00,02,00,00,00,
734450,000001BD,false,Rx,0,8,00,00,00,00,00,00,00,00,
734467,00000415,false,Rx,0,8,40,13,10,00,08,01,00,00,
739588,00000161,false,Rx,0,8,FE,4C,6A,03,00,00,00,02,
739624,00000162,false,Rx,0,8,FF,FC,01,00,00,00,00,00,
741572,0000010B,false,Rx,0,8,C3,B6,DF,00,00,00,00,05,
741594,0000010C,false,Rx,0,8,FF,F9,E7,1F,46,44,46,46,
741612,0000010D,false,Rx,0,8,10,03,00,00,00,00,01,35,
742802,000002C1,false,Rx,0,8,58,3E,BF,21,00,41,00,A7,
742836,0000010E,false,Rx,0,8,00,00,0A,00,00,C0,AB,57,
742854,000002C2,false,Rx,0,8,0A,00,00,00,00,00,00,00,
742872,000002C3,false,Rx,0,8,00,00,00,00,00,00,00,00,
742890,000002C4,false,Rx,0,8,00,00,00,00,00,00,00,00,
749937,0000011B,false,Rx,0,8,39,92,D5,05,80,08,A8,02,
749975,0000012B,false,Rx,0,8,7E,68,D5,06,00,00,08,00,
749993,0000011C,false,Rx,0,8,00,05,20,00,22,00,01,01,
750010,0000012C,false,Rx,0,8,00,00,01,00,00,64,00,00,
754614,0000019B,false,Rx,0,8,F5,F8,DD,00,00,E4,00,00,
755597,0000019C,false,Rx,0,8,40,20,00,00,00,00,0B,09,
755630,0000019D,false,Rx,0,8,00,10,00,01,00,00,00,00,
755648,0000019E,false,Rx,0,8,15,00,00,00,00,32,00,00,
758591,0000033B,false,Rx,0,8,56,45,7D,00,00,00,00,00,
758627,0000033C,false,Rx,0,8,00,00,00,00,F0,00,00,00,
759581,0000033D,false,Rx,0,8,00,00,00,00,00,00,00,00,
759603,0000033E,false,Rx,0,8,00,00,00,00,00,00,00,00,
761056,000004A3,false,Rx,0,8,80,00,48,0B,3E,00,00,00,
761220,000004A4,false,Rx,0,8,FF,FF,FF,00,00,00,00,00,
762643,00000121,false,Rx,0,8,C3,1E,E0,00,00,00,00,05,
763567,00000122,false,Rx,0,8,FF,D9,67,1F,46,46,46,46,
763590,00000123,false,Rx,0,8,11,03,00,00,00,00,01,35,
763802,00000124,false,Rx,0,8,00,00,0A,00,00,00,20,40,
766615,0000036F,false,Rx,0,8,99,51,01,00,00,00,00,00,
767619,0000037F,false,Rx,0,8,3A,B0,52,24,41,02,00,00,
769249,000001A1,false,Rx,0,8,87,E1,6B,FE,F7,7F,64,00,
769645,000001A2,false,Rx,0,8,00,00,00,00,00,08,00,00,
769673,000001A3,false,Rx,0,8,FF,F3,3F,00,00,00,00,00,
769693,000001A4,false,Rx,0,8,FE,07,00,00,00,00,00,00,
770979,00000036,false,Rx,0,8,B1,0C,E2,51,00,00,25,01,
771014,00000037,false,Rx,0,8,00,00,00,10,00,40,00,00,
771032,00000038,false,Rx,0,8,04,00,00,00,90,38,96,D4,
771918,00000039,false,Rx,0,8,00,00,00,00,00,00,00,00,
773338,000002E6,false,Rx,0,8,61,85,7A,01,00,00,00,15,
773373,00000256,false,Rx,0,8,FC,7A,7A,15,00,00,F0,00,
773391,000002E7,false,Rx,0,8,0A,00,00,00,00,00,00,00,
773409,00000257,false,Rx,0,8,00,8B,42,17,86,07,00,8B,
773426,000002E8,false,Rx,0,8,00,00,00,00,00,00,00,00,
773869,000002E9,false,Rx,0,8,00,00,00,00,00,00,00,00,
773896,00000259,false,Rx,0,8,3E,05,8A,3C,28,02,00,00,
774574,0000048B,false,Rx,0,8,05,7D,F3,1E,01,00,00,00,
774600,0000048C,false,Rx,0,8,00,00,00,00,00,00,00,00,
776759,00000061,false,Rx,0,8,A2,6B,E8,00,00,00,00,00,
776835,00000062,false,Rx,0,8,02,02,00,02,40,FF,00,FF,
776854,000002BF,false,Rx,0,8,FF,FF,FF,00,00,00,00,00,
776888,00000063,false,Rx,0,8,00,00,05,00,00,08,FD,00,
776906,0000047F,false,Rx,0,8,FF,FF,FF,FF,FF,FF,F3,FF,
776923,00000064,false,Rx,0,8,00,00,00,04,FF,FA,00,00,
776941,000000A1,false,Rx,0,8,9A,7D,E8,1A,00,00,00,00,
777583,000000A2,false,Rx,0,8,00,00,00,00,00,00,00,00,
777617,000000A3,false,Rx,0,8,00,40,01,00,00,00,00,00,
779773,000001E1,false,Rx,0,8,95,B9,F8,02,00,00,00,00,
779813,000001E2,false,Rx,0,8,00,00,00,00,00,00,00,00,
780677,000001F1,false,Rx,0,8,D5,49,C8,01,00,00,28,00,
780745,000001F2,false,Rx,0,8,00,00,00,00,00,00,00,00,
786588,00000091,false,Rx,0,8,11,F8,7B,00,00,00,00,00,
786625,00000092,false,Rx,0,8,00,00,00,00,00,00,00,00,
786643,00000093,false,Rx,0,8,00,00,00,00,00,00,00,00,
787601,00000405,false,Rx,0,8,BD,30,00,00,00,01,00,00,
787640,00000094,false,Rx,0,8,00,00,00,00,00,00,00,00,
787658,00000410,false,Rx,0,8,A4,70,58,3C,16,6B,FF,FF,
787676,00000413,false,Rx,0,8,F5,10,00,41,00,00,00,00,
787693,00000411,false,Rx,0,8,A8,01,50,50,00,00,44,04,
788567,00000414,false,Rx,0,8,F0,10,00,00,28,00,00,00,
788779,00000412,false,Rx,0,8,6D,60,00,00,00,00,00,00,
788814,00000416,false,Rx,0,8,55,00,00,00,00,00,00,00,
788837,00000417,false,Rx,0,8,06,10,00,00,00,01,00,00,
789962,00000418,false,Rx,0,8,19,70,00,00,12,0C,00,00,
789997,00000419,false,Rx,0,8,4C,70,9D,D6,D5,79,8F,00,
792403,0000010B,false,Rx,0,8,15,EA,E4,00,00,00,00,05,
792454,0000010C,false,Rx,0,8,FF,F9,E7,1F,46,44,46,46,
792475,0000010D,false,Rx,0,8,10,03,00,00,00,00,01,35,
792492,0000010E,false,Rx,0,8,00,00,0A,00,00,C0,AB,57,
795613,00000146,false,Rx,0,8,31,58,67,10,04,01,00,00,
795653,00000147,false,Rx,0,8,00,04,7D,00,40,00,00,00,
795672,00000148,false,Rx,0,8,00,00,00,00,00,90,40,05,
795690,00000149,false,Rx,0,8,00,00,00,00,00,00,00,00,
796620,00000475,false,Rx,0,8,12,00,00,00,00,00,00,00,
796652,00000496,false,Rx,0,8,12,00,00,00,00,00,00,00,
796670,000001AB,false,Rx,0,8,1E,3B,AD,50,70,38,00,00,
797586,000001AC,false,Rx,0,8,00,28,00,00,00,00,00,00,
797613,000002FF,false,Rx,0,8,E2,01,00,F1,3F,00,00,00,
797631,00000472,false,Rx,0,8,5C,EC,00,40,08,41,00,45,
797648,00000316,false,Rx,0,8,77,EC,AB,34,14,80,0A,00,
798571,00000473,false,Rx,0,8,5F,24,00,25,00,00,00,78,
798598,000001B1,false,Rx,0,8,57,80,67,00,72,00,00,00,
798615,00000317,false,Rx,0,8,00,00,05,00,00,00,00,00,
798633,000001B2,false,Rx,0,8,23,00,04,0F,0F,07,52,10,
800128,00000474,false,Rx,0,8,93,44,00,00,00,00,00,14,
800305,0000011B,false,Rx,0,8,23,EB,DA,05,80,08,A8,02,
800323,0000012B,false,Rx,0,8,64,11,DA,06,00,00,08,00,
800341,0000011C,false,Rx,0,8,00,05,20,00,22,00,01,01,
800358,0000012C,false,Rx,0,8,00,00,01,00,00,64,00,00,
800385,000001B4,false,Rx,0,8,95,91,17,00,00,40,01,00,
800403,00000111,false,Rx,0,8,6A,F2,B3,01,00,00,00,00,
800694,00000112,false,Rx,0,8,00,00,00,00,00,00,00,00,
802045,00000113,false,Rx,0,8,00,00,00,00,00,00,00,00,
802094,00000114,false,Rx,0,8,00,00,00,00,00,00,00,00,
804833,0000019B,false,Rx,0,8,1A,D1,E2,00,00,E4,00,00,
804868,0000019C,false,Rx,0,8,40,20,00,00,00,00,0B,09,
805565,0000019D,false,Rx,0,8,00,10,00,01,00,00,00,00,
805584,0000019E,false,Rx,0,8,15,00,00,00,00,32,00,00,
808725,0000030B,false,Rx,0,8,26,BC,7D,00,04,00,00,00,
808773,0000030C,false,Rx,0,8,00,00,0E,00,2C,00,A0,0F,
809566,0000030D,false,Rx,0,8,00,00,00,00,48,00,00,00,
809590,0000030E,false,Rx,0,8,00,00,38,05,21,00,00,02,
813088,00000121,false,Rx,0,8,BC,32,E5,00,00,00,00,05,
813129,00000122,false,Rx,0,8,FF,D9,67,1F,46,46,46,46,
813147,00000123,false,Rx,0,8,11,03,00,00,00,00,01,35,
813714,00000124,false,Rx,0,8,00,00,0A,00,00,00,20,40,
820588,00000036,false,Rx,0,8,CE,20,E7,51,00,00,25,01,
821598,00000037,false,Rx,0,8,00,00,00,10,00,40,00,00,
821629,00000038,false,Rx,0,8,04,00,00,00,90,38,96,D4,
821647,00000039,false,Rx,0,8,00,00,00,00,00,00,00,00,
824398,00000236,false,Rx,0,8,F4,5A,7D,00,6E,3C,34,6C,
824433,000002FB,false,Rx,0,8,68,60,7D,04,5F,1A,CC,CC,
824451,00000151,false,Rx,0,8,56,84,7D,A0,C8,00,28,19,
824468,00000237,false,Rx,0,8,00,15,BA,00,00,AA,1E,00,
824855,00000152,false,Rx,0,8,16,18,18,00,0B,00,00,00,
824894,000001F6,false,Rx,0,8,CF,98,7D,00,00,00,00,0D,
824911,00000153,false,Rx,0,8,00,00,00,00,00,00,00,00,
826122,000001F7,false,Rx,0,8,0B,00,00,00,00,00,00,00,
826158,00000061,false,Rx,0,8,DD,47,ED,00,00,00,00,00,
826176,00000154,false,Rx,0,8,00,00,00,00,00,00,00,00,
826193,00000062,false,Rx,0,8,02,02,00,02,40,FF,00,FF,
827881,000001F8,false,Rx,0,8,00,00,00,00,00,00,00,00,
827923,00000063,false,Rx,0,8,00,00,05,00,00,08,FD,00,
827941,000001F9,false,Rx,0,8,00,00,A0,C8,14,00,00,00,
827959,00000064,false,Rx,0,8,00,00,00,04,FF,FA,00,00,
827977,00000238,false,Rx,0,8,00,00,5F,00,00,00,00,00,
827994,00000239,false,Rx,0,8,00,00,00,00,01,00,00,00,
828582,0000025B,false,Rx,0,8,99,60,7D,40,40,20,00,00,
828611,000000A3,false,Rx,0,8,00,40,01,00,00,00,00,00,
828629,0000025C,false,Rx,0,8,00,00,0B,00,34,89,19,00,
830113,000002FC,false,Rx,0,8,04,00,16,19,00,00,86,BF,
830146,0000025D,false,Rx,0,8,00,C8,00,00,00,80,C0,70,
830164,000002FD,false,Rx,0,8,00,00,00,00,00,1C,0D,EA,
831459,0000025E,false,Rx,0,8,16,07,0E,02,00,00,00,00,
831923,000002FE,false,Rx,0,8,00,00,72,01,00,28,00,00,
831966,00000327,false,Rx,0,8,00,00,00,00,05,00,00,00,
831985,000000C5,false,Rx,0,8,00,00,00,00,00,00,00,00,
833324,00000328,false,Rx,0,8,00,00,00,00,00,00,00,00,
833386,00000244,false,Rx,0,8,FF,FF,FF,FF,FF,FF,FF,FF,
833404,000003A1,false,Rx,0,8,F4,51,CE,00,FF,FF,FF,FF,
833421,000003A2,false,Rx,0,8,00,00,00,00,00,00,00,00,
833439,00000332,false,Rx,0,8,94,02,00,00,00,00,00,00,
833457,000003E4,false,Rx,0,8,FE,00,00,00,00,00,00,00,
833601,000004B4,false,Rx,0,8,00,00,00,00,00,00,00,00,
834815,00000561,false,Rx,0,8,63,02,00,00,00,00,FF,FF,
834850,000004B5,false,Rx,0,8,08,00,F0,07,00,00,00,00,
834868,000004B7,false,Rx,0,8,08,00,F0,07,00,00,00,00,
834886,000004CA,false,Rx,0,8,00,00,00,00,00,00,00,00,
834903,000004CC,false,Rx,0,8,08,00,00,06,00,00,03,00,
836184,000004CE,false,Rx,0,8,14,01,FF,FF,FF,FF,FF,FF,
836598,000004D7,false,Rx,0,8,23,01,00,00,00,00,00,00,
836632,000004D8,false,Rx,0,8,41,10,F0,F0,40,F2,1E,CC,
836651,000004DD,false,Rx,0,8,00,00,FE,00,04,00,00,00,
836690,000004DF,false,Rx,0,8,FF,03,0C,3F,00,00,00,00,
836707,000004E7,false,Rx,0,8,00,30,00,00,00,00,69,00,
836725,000004E8,false,Rx,0,8,FF,FF,FF,05,FF,FF,FF,00,
838151,000004E9,false,Rx,0,8,12,00,00,34,00,00,50,00,
838185,000004EA,false,Rx,0,8,67,00,00,89,00,00,00,00,
838202,000004EB,false,Rx,0,8,10,80,2F,27,80,00,00,00,
838219,000004EC,false,Rx,0,8,00,00,00,00,00,00,00,00,
838237,000004ED,false,Rx,0,8,00,00,00,00,00,FF,FF,1F,
838689,000004EE,false,Rx,0,8,FF,FF,00,00,00,00,00,00,
838716,000004EF,false,Rx,0,8,60,00,60,00,29,14,00,00,
839582,0000063D,false,Rx,0,8,00,80,00,00,00,00,00,00,
839608,00000161,false,Rx,0,8,08,64,6F,03,00,00,00,02,
840883,0000063E,false,Rx,0,8,FF,FF,FF,FF,FF,FF,FF,FF,
840926,00000162,false,Rx,0,8,FF,FC,01,00,00,00,00,00,
840944,0000063F,false,Rx,0,8,00,10,00,C4,FF,00,00,00,
840961,00000640,false,Rx,0,8,FF,FF,FF,00,FF,FF,FF,00,
840979,00000641,false,Rx,0,8,FF,FF,FF,FF,0F,FF,FF,FF,
840997,00000646,false,Rx,0,8,00,00,00,80,01,00,00,00,
841574,0000010B,false,Rx,0,8,18,2C,E9,00,00,00,00,05,
841598,0000010C,false,Rx,0,8,FF,F9,E7,1F,46,44,46,46,
841615,000002AB,false,Rx,0,8,9D,D5,7E,0C,0C,00,00,00,
843293,0000010D,false,Rx,0,8,10,03,00,00,00,00,01,35,
843328,000002AC,false,Rx,0,8,00,FF,FF,00,00,40,00,50,
843346,0000010E,false,Rx,0,8,00,00,0A,00,00,C0,AB,57,
843364,000002AD,false,Rx,0,8,00,01,00,40,FF,FF,FF,0F,
843381,00000382,false,Rx,0,8,F1,7A,01,00,00,01,08,00,
843562,000002B6,false,Rx,0,8,EF,A4,7E,01,00,00,00,40,
843580,00000251,false,Rx,0,8,98,DD,7D,00,00,00,00,00,
845382,000002B7,false,Rx,0,8,08,02,F0,00,00,04,00,00,
845551,00000252,false,Rx,0,8,00,00,00,00,03,00,00,00,
845569,000002B8,false,Rx,0,8,AA,11,11,00,00,00,00,00,
845586,00000253,false,Rx,0,8,00,00,00,52,52,00,80,44,
845604,000002B9,false,Rx,0,8,0A,00,00,00,00,00,00,00,
845622,000000FF,false,Rx,0,8,CB,10,00,00,00,00,02,00,
847045,000002E2,false,Rx,0,8,FD,00,00,00,00,14,00,04,
847080,00000397,false,Rx,0,8,1D,00,00,00,00,00,00,00,
847098,000002E3,false,Rx,0,8,00,00,00,00,00,00,72,01,
847115,00000394,false,Rx,0,8,2A,22,1A,49,00,00,00,00,
847133,000002E4,false,Rx,0,8,02,00,00,00,00,00,00,00,
847579,000003C3,false,Rx,0,8,45,10,31,30,36,00,00,00,
847606,00000485,false,Rx,0,8,00,40,11,02,00,00,00,00,
848990,000003E0,false,Rx,0,8,66,20,01,00,54,03,00,00,
849029,0000041A,false,Rx,0,8,BB,A0,12,00,50,01,00,00,
849049,000003E5,false,Rx,0,8,37,80,01,00,00,00,00,00,
849067,0000041B,false,Rx,0,8,70,D0,00,00,00,00,00,00,
849084,000003E6,false,Rx,0,8,67,90,00,00,00,00,00,00,
851605,0000011B,false,Rx,0,8,D5,C3,DF,05,80,08,A8,02,
851684,0000012B,false,Rx,0,8,92,39,DF,06,00,00,08,00,
851702,0000011C,false,Rx,0,8,00,05,20,00,22,00,01,01,
851740,0000012C,false,Rx,0,8,00,00,01,00,00,64,00,00,
851757,0000041C,false,Rx,0,8,48,00,E0,00,00,00,00,00,
851775,00000432,false,Rx,0,8,03,20,02,00,00,00,00,00,
851793,00000464,false,Rx,0,8,D5,20,F0,FF,38,7F,05,00,
854682,0000019B,false,Rx,0,8,65,FD,E7,00,00,E4,00,00,
855575,0000019C,false,Rx,0,8,40,20,00,00,00,00,0B,09,
856852,000002D6,false,Rx,0,8,67,5A,BE,00,00,00,00,00,
856890,0000019D,false,Rx,0,8,00,10,00,01,00,00,00,00,
856908,000002D7,false,Rx,0,8,00,00,00,00,03,00,00,00,
856926,0000019E,false,Rx,0,8,15,00,00,00,00,32,00,00,
856943,000002D8,false,Rx,0,8,00,00,00,00,00,00,38,45,
858120,000002ED,false,Rx,0,8,00,00,00,00,00,00,00,00,
858154,000002EE,false,Rx,0,8,00,00,00,00,00,00,00,00,
859608,00000356,false,Rx,0,8,ED,4A,BF,00,00,00,00,00,
859646,00000357,false,Rx,0,8,00,00,00,00,00,4B,4D,48,
859666,00000358,false,Rx,0,8,35,41,45,4D,52,37,33,4F,
861191,00000359,false,Rx,0,8,51,4F,34,52,4A,35,33,00,
862212,00000383,false,Rx,0,8,12,ED,01,00,02,00,00,00,
862675,00000121,false,Rx,0,8,3D,46,EA,00,00,00,00,05,
863775,00000122,false,Rx,0,8,FF,D9,67,1F,46,46,46,46,
863810,00000123,false,Rx,0,8,11,03,00,00,00,00,01,35,
863828,00000124,false,Rx,0,8,00,00,0A,00,00,00,20,40,
866619,0000036F,false,Rx,0,8,4F,61,01,00,00,00,00,00,
867594,0000037F,false,Rx,0,8,32,C0,52,24,41,02,00,00,
869176,000001A1,false,Rx,0,8,FA,24,70,FE,F7,7F,64,00,
869220,000001A2,false,Rx,0,8,00,00,00,00,00,08,00,00,
869238,000001A3,false,Rx,0,8,FF,F3,3F,00,00,00,00,00,
869652,000001A4,false,Rx,0,8,FE,07,00,00,00,00,00,00,
870611,00000036,false,Rx,0,8,76,21,EC,51,00,00,25,01,
870982,00000037,false,Rx,0,8,00,00,00,10,00,40,00,00,
871005,00000038,false,Rx,0,8,04,00,00,00,90,38,96,D4,
871585,00000039,false,Rx,0,8,00,00,00,00,00,00,00,00,
872833,00000419,false,Rx,0,8,A3,80,9C,D6,D5,79,8F,00,
872870,000003B6,false,Rx,0,8,F9,79,BD,00,00,00,00,46,
872889,000003B7,false,Rx,0,8,46,00,00,00,00,00,00,00,
874028,000003B8,false,Rx,0,8,0C,03,00,00,00,00,69,0E,
874063,000003B9,false,Rx,0,8,00,00,00,00,00,00,00,00,
875615,00000061,false,Rx,0,8,99,F7,F2,00,00,00,00,00,
875662,00000062,false,Rx,0,8,02,02,00,02,40,FF,00,FF,
875681,00000063,false,Rx,0,8,00,00,05,00,00,08,FD,00,
876592,00000064,false,Rx,0,8,00,00,00,04,FF,FA,00,00,
876620,000000A1,false,Rx,0,8,F6,FB,F2,1A,00,00,00,00,
876638,000000A2,false,Rx,0,8,00,00,00,00,00,00,00,00,
878107,000000A3,false,Rx,0,8,00,40,01,00,00,00,00,00,
882591,00000384,false,Rx,0,8,E9,DC,02,00,00,FF,00,21,
883598,000001E6,false,Rx,0,8,75,F5,F8,02,00,00,00,00,
883631,000001BB,false,Rx,0,8,97,CC,F8,02,00,00,00,0A,
883649,000001BC,false,Rx,0,8,32,00,00,00,02,00,00,00,
884727,000001BD,false,Rx,0,8,00,00,00,00,00,00,00,00,
884762,000001E7,false,Rx,0,8,00,00,22,03,20,01,00,00,
886722,00000091,false,Rx,0,8,E2,66,7C,00,00,00,00,00,
886763,000003AA,false,Rx,0,8,FF,00,B0,00,54,00,00,00,
886781,00000092,false,Rx,0,8,00,00,00,00,00,00,00,00,
886799,00000093,false,Rx,0,8,00,00,00,00,00,00,00,00,
887578,00000094,false,Rx,0,8,00,00,00,00,00,00,00,00,
887602,00000495,false,Rx,0,8,49,00,00,00,00,00,00,00,
891589,0000010B,false,Rx,0,8,EB,B2,EE,00,00,00,00,05,
891626,0000010C,false,Rx,0,8,FF,F9,E7,1F,46,44,46,46,
891646,0000010D,false,Rx,0,8,10,03,00,00,00,00,01,35,
892605,0000010E,false,Rx,0,8,00,00,0A,00,00,C0,AB,57,
895598,00000146,false,Rx,0,8,89,59,6C,10,04,01,00,00,
895638,00000147,false,Rx,0,8,00,04,7D,00,40,00,00,00,
895656,00000148,false,Rx,0,8,00,00,00,00,00,90,40,05,
895673,00000149,false,Rx,0,8,00,00,00,00,00,00,00,00,
896610,000001AB,false,Rx,0,8,0E,61,B2,50,70,38,00,00,
896659,000001AC,false,Rx,0,8,00,28,00,00,00,00,00,00,
897839,00000226,false,Rx,0,8,8F,1F,57,FF,43,E1,05,42,
897875,00000227,false,Rx,0,8,02,70,E1,08,00,F2,17,04,
897893,000001B1,false,Rx,0,8,EF,81,6C,00,72,00,00,00,
898569,000001B2,false,Rx,0,8,23,00,04,0F,0F,07,52,10,
898592,000001B3,false,Rx,0,8,10,2C,00,00,87,90,96,90,
898609,000001B4,false,Rx,0,8,95,91,17,00,00,40,01,00,
899600,0000011B,false,Rx,0,8,03,5F,E4,05,80,08,A8,02,
899632,0000012B,false,Rx,0,8,44,A5,E4,06,00,00,08,00,
899650,0000011C,false,Rx,0,8,00,05,20,00,22,00,01,01,
899668,0000012C,false,Rx,0,8,00,00,01,00,00,64,00,00,
900572,000001FB,false,Rx,0,8,FC,9B,7D,00,00,00,00,00,
900594,000001FC,false,Rx,0,8,00,00,00,00,00,00,00,00,
900612,000001FD,false,Rx,0,8,00,1A,03,00,00,00,00,00,
900636,000001FE,false,Rx,0,8,00,00,00,00,00,00,00,00,
904614,0000019B,false,Rx,0,8,DD,FC,EC,00,00,E4,00,00,
905596,0000019C,false,Rx,0,8,40,20,00,00,00,00,0B,09,
905628,0000019D,false,Rx,0,8,00,10,00,01,00,00,00,00,
905647,0000019E,false,Rx,0,8,15,00,00,00,00,32,00,00,
906750,00000380,false,Rx,0,8,AD,D7,FF,00,00,00,00,01,
909610,000003B0,false,Rx,0,8,72,37,FF,C7,00,00,03,C0,
909650,00000448,false,Rx,0,8,10,20,00,00,00,00,00,00,
912760,000003B1,false,Rx,0,8,9B,3C,FF,40,00,00,20,00,
912800,00000419,false,Rx,0,8,A3,80,9C,D6,D5,79,8F,00,
912829,00000121,false,Rx,0,8,42,6A,EF,00,00,00,00,05,
912847,00000122,false,Rx,0,8,FF,D9,67,1F,46,46,46,46,
913815,00000123,false,Rx,0,8,11,03,00,00,00,00,01,35,
913853,00000124,false,Rx,0,8,00,00,0A,00,00,00,20,40,
918594,00000563,false,Rx,0,8,65,02,00,00,00,00,FF,FF,
920597,00000036,false,Rx,0,8,BE,23,F1,51,00,00,25,01,
921621,00000037,false,Rx,0,8,00,00,00,10,00,40,00,00,
921653,00000038,false,Rx,0,8,04,00,00,00,90,38,96,D4,
921671,00000039,false,Rx,0,8,00,00,00,00,00,00,00,00,
921689,000003B2,false,Rx,0,8,36,15,FF,02,29,2F,34,00,
922578,00000487,false,Rx,0,8,00,00,00,00,00,00,00,00,
923714,00000642,false,Rx,0,8,FF,FF,FF,FF,FF,FF,00,00,
925829,00000061,false,Rx,0,8,E6,DB,F7,00,00,00,00,00,
925868,00000062,false,Rx,0,8,02,02,00,02,40,FF,00,FF,
925886,00000063,false,Rx,0,8,00,00,05,00,00,08,FD,00,
926590,00000064,false,Rx,0,8,00,00,00,04,FF,FA,00,00,
926619,000000A1,false,Rx,0,8,F9,10,F7,1A,00,00,00,00,
926637,000000A2,false,Rx,0,8,00,00,00,00,00,00,00,00,
928129,00000427,false,Rx,0,8,1D,86,FF,00,80,0A,00,00,
928162,000000A3,false,Rx,0,8,00,40,01,00,00,00,00,00,
929637,000001E1,false,Rx,0,8,D8,51,FB,02,00,00,00,00,
929673,000001E2,false,Rx,0,8,00,00,00,00,00,00,00,00,
930927,000001F1,false,Rx,0,8,98,A1,CB,01,00,00,28,00,
930961,000001F2,false,Rx,0,8,00,00,00,00,00,00,00,00,
933872,0000042A,false,Rx,0,8,F4,DE,FF,01,00,10,00,00,
933908,00000401,false,Rx,0,8,A9,30,10,00,00,04,00,00,
933926,00000643,false,Rx,0,8,00,FC,FF,FF,FF,FF,03,00,
939596,00000161,false,Rx,0,8,CA,BE,74,03,00,00,00,02,
939636,00000162,false,Rx,0,8,FF,FC,01,00,00,00,00,00,
941600,0000010B,false,Rx,0,8,23,B0,F3,00,00,00,00,05,
941637,0000010C,false,Rx,0,8,FF,F9,E7,1F,46,44,46,46,
941656,0000010D,false,Rx,0,8,10,03,00,00,00,00,01,35,
942572,0000010E,false,Rx,0,8,00,00,0A,00,00,C0,AB,57,
942591,000002C1,false,Rx,0,8,C0,34,C0,21,00,41,00,A7,
942609,000002C2,false,Rx,0,8,0A,00,00,00,00,00,00,00,
942626,000002C3,false,Rx,0,8,00,00,00,00,00,00,00,00,
943565,000002C4,false,Rx,0,8,00,00,00,00,00,00,00,00,
949308,0000011B,false,Rx,0,8,70,66,E9,05,80,08,A8,02,
949341,0000012B,false,Rx,0,8,37,9C,E9,06,00,00,08,00,
950568,0000011C,false,Rx,0,8,00,05,20,00,22,00,01,01,
950796,0000012C,false,Rx,0,8,00,00,01,00,00,64,00,00,
954590,0000019B,false,Rx,0,8,15,FE,F1,00,00,E4,00,00,
955566,0000019C,false,Rx,0,8,40,20,00,00,00,00,0B,09,
955585,0000019D,false,Rx,0,8,00,10,00,01,00,00,00,00,
955603,0000019E,false,Rx,0,8,15,00,00,00,00,32,00,00,
958760,0000033B,false,Rx,0,8,DA,F7,7F,00,00,00,00,00,
958805,0000033C,false,Rx,0,8,00,00,00,00,F0,00,00,00,
959031,0000033D,false,Rx,0,8,00,00,00,00,00,00,00,00,
959068,0000033E,false,Rx,0,8,00,00,00,00,00,00,00,00,
962591,000004A3,false,Rx,0,8,80,00,48,0B,3E,00,00,00,
963566,00000121,false,Rx,0,8,3F,AF,F4,00,00,00,00,05,
963594,000004A4,false,Rx,0,8,FF,FF,FF,00,00,00,00,00,
963613,00000122,false,Rx,0,8,FF,D9,67,1F,46,46,46,46,
963631,00000123,false,Rx,0,8,11,03,00,00,00,00,01,35,
965066,00000124,false,Rx,0,8,00,00,0A,00,00,00,20,40,
967224,0000036F,false,Rx,0,8,F6,71,01,00,00,00,00,00,
967258,0000037F,false,Rx,0,8,8B,D0,52,24,41,02,00,00,
969643,000001A1,false,Rx,0,8,85,08,75,FE,F7,7F,64,00,
969667,000001A2,false,Rx,0,8,00,00,00,00,00,08,00,00,
969686,000001A3,false,Rx,0,8,FF,F3,3F,00,00,00,00,00,
969704,000001A4,false,Rx,0,8,FE,07,00,00,00,00,00,00,
970569,00000036,false,Rx,0,8,4D,BD,F6,51,00,00,25,01,
971567,00000037,false,Rx,0,8,00,00,00,10,00,40,00,00,
971588,00000038,false,Rx,0,8,04,00,00,00,90,38,96,D4,
971606,00000039,false,Rx,0,8,00,00,00,00,00,00,00,00,
972575,000002E6,false,Rx,0,8,D4,42,7C,01,00,00,00,15,
972595,00000256,false,Rx,0,8,27,E1,7C,15,00,00,F0,00,
972612,000002E7,false,Rx,0,8,0A,00,00,00,00,00,00,00,
973567,00000257,false,Rx,0,8,00,8B,42,18,86,07,00,8B,
973589,000002E8,false,Rx,0,8,00,00,00,00,00,00,00,00,
973607,00000258,false,Rx,0,8,09,73,1E,00,10,15,00,1C,
973624,000002E9,false,Rx,0,8,00,00,00,00,00,00,00,00,
974568,00000259,false,Rx,0,8,3F,05,8A,3C,28,02,00,00,
975567,00000061,false,Rx,0,8,5E,DA,FC,00,00,00,00,00,
975589,00000062,false,Rx,0,8,02,02,00,02,40,FF,00,FF,
976569,000002BF,false,Rx,0,8,FF,FF,FF,00,00,00,00,00,
976589,00000063,false,Rx,0,8,00,00,05,00,00,08,FD,00,
976606,0000047F,false,Rx,0,8,FF,FF,FF,FF,FF,FF,F3,FF,
976624,00000064,false,Rx,0,8,00,00,00,04,FF,FA,00,00,
976651,00000653,false,Rx,0,8,0A,19,03,01,02,2A,00,00,
977569,000000A1,false,Rx,0,8,C5,E1,FC,1A,00,00,00,00,
977589,000000A2,false,Rx,0,8,00,00,00,00,00,00,00,00,
977606,000000A3,false,Rx,0,8,00,40,01,00,00,00,00,00,
986588,00000091,false,Rx,0,8,A4,3F,7D,00,00,00,00,00,
986636,00000092,false,Rx,0,8,00,00,00,00,00,00,00,00,
986655,00000093,false,Rx,0,8,00,00,00,00,00,00,00,00,
986672,00000405,false,Rx,0,8,BD,30,00,00,00,01,00,00,
987621,00000094,false,Rx,0,8,00,00,00,00,00,00,00,00,
987654,00000410,false,Rx,0,8,A4,70,58,3C,16,6B,FF,FF,
987672,00000413,false,Rx,0,8,F5,10,00,41,00,00,00,00,
987690,00000411,false,Rx,0,8,A8,01,50,50,00,00,44,04,
988724,00000414,false,Rx,0,8,F0,10,00,00,28,00,00,00,
988760,00000412,false,Rx,0,8,6D,60,00,00,00,00,00,00,
988778,00000416,false,Rx,0,8,55,00,00,00,00,00,00,00,
990376,00000417,false,Rx,0,8,06,10,00,00,00,01,00,00,
990436,00000418,false,Rx,0,8,19,70,00,00,12,0C,00,00,
990454,00000419,false,Rx,0,8,A3,80,9C,D6,D5,79,8F,00,
992128,0000010B,false,Rx,0,8,9B,B1,F8,00,00,00,00,05,
992163,0000010C,false,Rx,0,8,FF,F9,E7,1F,46,44,46,46,
992181,0000010D,false,Rx,0,8,10,03,00,00,00,00,01,35,
992199,0000010E,false,Rx,0,8,00,00,0A,00,00,C0,AB,57,
995720,00000146,false,Rx,0,8,41,5B,71,10,04,01,00,00,
995759,00000147,false,Rx,0,8,00,04,7D,00,40,00,00,00,
995776,00000148,false,Rx,0,8,00,00,00,00,00,90,40,05,
995814,00000149,false,Rx,0,8,00,00,00,00,00,00,00,00,
995832,00000475,false,Rx,0,8,12,00,00,00,00,00,00,00,
996760,00000496,false,Rx,0,8,12,00,00,00,00,00,00,00,
996793,000001AB,false,Rx,0,8,F8,49,B7,50,70,38,00,00,
996811,000001AC,false,Rx,0,8,00,28,00,00,00,00,00,00,
999158,000002FF,false,Rx,0,8,E2,01,00,F1,3F,00,00,00,
999614,00000472,false,Rx,0,8,5C,EC,00,40,08,41,00,45,
999667,00000316,false,Rx,0,8,E8,84,AC,34,14,80,0A,00,
999685,00000473,false,Rx,0,8,5F,24,00,25,00,00,00,78,
999702,000001B1,false,Rx,0,8,27,83,71,00,72,00,00,00,
999720,00000317,false,Rx,0,8,00,00,05,00,00,00,00,00,
999738,0000011C,false,Rx,0,8,00,05,20,00,22,00,01,01,
1001391,000001B3,false,Rx,0,8,10,2C,00,00,87,90,96,90,
1001553,000001B4,false,Rx,0,8,95,91,17,00,00,40,01,00,
1001571,00000111,false,Rx,0,8,99,6C,B4,01,00,00,00,00,
1001589,00000112,false,Rx,0,8,00,00,00,00,00,00,00,00,
1001607,00000113,false,Rx,0,8,00,00,00,00,00,00,00,00,
1005755,0000019B,false,Rx,0,8,E6,60,F6,00,00,E4,00,00,
1005795,0000019C,false,Rx,0,8,40,20,00,00,00,00,0B,09,
1005813,0000019D,false,Rx,0,8,00,10,00,01,00,00,00,00,
1005831,0000019E,false,Rx,0,8,15,00,00,00,00,32,00,00,
1008889,0000030B,false,Rx,0,8,0A,BC,7F,00,04,00,00,00,
1008931,0000030C,false,Rx,0,8,00,00,0E,00,2C,00,A0,0F,
1010479,0000030D,false,Rx,0,8,00,00,00,00,48,00,00,00,
1010514,0000030E,false,Rx,0,8,00,00,38,05,21,00,00,04,
1012707,00000121,false,Rx,0,8,32,69,F9,00,00,00,00,05,
1014056,00000122,false,Rx,0,8,FF,D9,67,1F,46,46,46,46,
1014091,00000123,false,Rx,0,8,11,03,00,00,00,00,01,35,
1014109,00000124,false,Rx,0,8,00,00,0A,00,00,00,20,40,
1014639,00000565,false,Rx,0,8,66,02,00,00,00,00,FF,FF,
1020592,00000036,false,Rx,0,8,40,7B,FB,51,00,00,25,01,
1021595,00000037,false,Rx,0,8,00,00,00,10,00,40,00,00,
1021628,00000038,false,Rx,0,8,04,00,00,00,90,38,96,D4,
1021646,00000039,false,Rx,0,8,00,00,00,00,00,00,00,00,
1023587,00000236,false,Rx,0,8,78,E8,7F,00,6E,3C,34,6C,
1024572,000002FB,false,Rx,0,8,A0,A7,7F,04,5F,1A,CC,CC,
1024593,00000237,false,Rx,0,8,00,15,BA,00,00,AA,1E,00,
1024611,00000151,false,Rx,0,8,DA,36,7F,A0,C8,00,28,19,
1024628,00000238,false,Rx,0,8,00,00,5F,00,00,00,00,00,
1024655,00000152,false,Rx,0,8,16,18,18,00,0B,00,00,00,
1026414,000001F6,false,Rx,0,8,43,2A,7F,00,00,00,00,0D,
1026450,00000153,false,Rx,0,8,00,00,00,00,00,00,00,00,
1026469,00000061,false,Rx,0,8,A4,24,01,00,00,00,00,00,
1026486,00000154,false,Rx,0,8,00,00,00,00,00,00,00,00,
1026504,00000062,false,Rx,0,8,02,02,00,02,40,FF,00,FF,
1026917,000001F8,false,Rx,0,8,00,00,00,00,00,00,00,00,
1026940,00000064,false,Rx,0,8,00,00,00,04,FF,FA,00,00,
1027580,000001F9,false,Rx,0,8,00,00,A0,C8,14,00,00,00,
1027611,000000A1,false,Rx,0,8,B1,51,01,1A,00,00,00,00,
1027631,00000239,false,Rx,0,8,00,00,00,00,01,00,00,00,
1028571,000000A2,false,Rx,0,8,00,00,00,00,00,00,00,00,
1028595,0000025B,false,Rx,0,8,71,E5,7F,40,40,20,00,00,
1028614,000000A3,false,Rx,0,8,00,40,01,00,00,00,00,00,
1028631,0000025C,false,Rx,0,8,00,00,0B,00,34,89,19,00,
1030477,000002FC,false,Rx,0,8,03,00,16,19,00,00,86,BF,
1030513,0000025D,false,Rx,0,8,00,C8,00,00,00,80,C0,70,
1030531,000002FD,false,Rx,0,8,00,00,00,00,00,1C,0D,EA,
1030690,0000025E,false,Rx,0,8,AC,07,0E,0F,00,00,00,00,
1030708,000002FE,false,Rx,0,8,00,00,72,01,00,28,00,00,
1030726,00000328,false,Rx,0,8,00,00,00,00,00,00,00,00,
1032430,00000329,false,Rx,0,8,A0,00,00,00,00,00,00,00,
1032465,00000331,false,Rx,0,8,00,04,7F,F1,C8,A0,2C,97,
1032839,000003A1,false,Rx,0,8,D0,F9,CF,00,FF,FF,FF,FF,
1032867,00000332,false,Rx,0,8,94,02,00,00,00,00,00,00,
1032886,000003A2,false,Rx,0,8,00,00,00,00,00,00,00,00,
1032904,00000334,false,Rx,0,8,C8,00,00,00,AC,70,1D,90,
1033904,000000C5,false,Rx,0,8,00,00,00,00,00,00,00,00,
1033938,00000244,false,Rx,0,8,FF,FF,FF,FF,FF,FF,FF,FF,
1033964,000004B4,false,Rx,0,8,00,00,00,00,00,00,00,00,
1034376,000001E6,false,Rx,0,8,38,1D,FB,02,00,00,00,00,
1035341,000004B5,false,Rx,0,8,08,00,F0,07,00,00,00,00,
1035375,000001BB,false,Rx,0,8,92,95,FB,02,00,00,00,0A,
1035393,000004B7,false,Rx,0,8,08,00,F0,07,00,00,00,00,
1035549,000001BC,false,Rx,0,8,32,00,00,00,02,00,00,00,
1035566,000004CA,false,Rx,0,8,00,00,00,00,00,00,00,00,
1037473,000001BD,false,Rx,0,8,00,00,00,00,00,00,00,00,
1037907,000004CC,false,Rx,0,8,08,00,00,06,00,00,03,00,
1039200,000001E7,false,Rx,0,8,00,00,22,03,20,01,00,00,
1039227,000004CE,false,Rx,0,8,14,01,FF,FF,FF,FF,FF,FF,
1039244,000004D7,false,Rx,0,8,23,01,00,00,00,00,00,00,
1039262,000004D8,false,Rx,0,8,41,10,F0,F0,40,F2,1E,CC,
1039294,000004E7,false,Rx,0,8,00,30,00,00,00,00,69,00,
1039311,000004EC,false,Rx,0,8,00,00,00,00,00,00,00,00,
1040276,00000162,false,Rx,0,8,FF,FC,01,00,00,00,00,00,
1040678,000004ED,false,Rx,0,8,00,00,00,00,00,FF,FF,1F,
1040697,000004EE,false,Rx,0,8,FF,FF,00,00,00,00,00,00,
1040715,000004EF,false,Rx,0,8,60,00,60,00,29,14,00,00,
1041995,000004F0,false,Rx,0,8,4A,10,2F,28,58,1A,18,02,
1042013,0000063D,false,Rx,0,8,00,80,00,00,00,00,00,00,
1042047,00000382,false,Rx,0,8,F1,7A,01,00,00,01,08,00,
1042065,0000010B,false,Rx,0,8,E4,9D,FD,00,00,00,00,05,
1042083,000002AB,false,Rx,0,8,AD,C0,80,0C,0C,00,00,00,
1042101,000002AC,false,Rx,0,8,00,FF,FF,00,00,40,00,50,
1043319,0000010D,false,Rx,0,8,10,03,00,00,00,00,01,35,
1043356,000002AD,false,Rx,0,8,00,01,00,40,FF,FF,FF,0F,
1043375,0000010E,false,Rx,0,8,00,00,0A,00,00,C0,AB,57,
1043561,000002AE,false,Rx,0,8,01,00,FF,3F,01,01,00,00,
1043579,0000063E,false,Rx,0,8,FF,FF,FF,FF,FF,FF,FF,FF,
1043596,00000251,false,Rx,0,8,9E,B3,7F,00,00,00,00,00,
1045470,000002B6,false,Rx,0,8,DF,B1,80,01,00,00,00,40,
1045505,00000252,false,Rx,0,8,00,00,00,00,03,00,00,00,
1045523,000002B7,false,Rx,0,8,08,02,F0,00,00,04,00,00,
1045732,00000253,false,Rx,0,8,00,00,00,52,52,00,80,44,
1045757,000002B8,false,Rx,0,8,AA,11,11,00,00,00,00,00,
1045776,000002B9,false,Rx,0,8,0A,00,00,00,00,00,00,00,
1045793,00000397,false,Rx,0,8,0C,00,00,00,00,00,00,00,
1046926,000002E1,false,Rx,0,8,8E,E5,80,00,00,00,00,40,
1046961,00000394,false,Rx,0,8,2A,22,1A,49,00,00,00,00,
1046979,000002E2,false,Rx,0,8,FD,00,00,00,00,14,00,04,
1048241,00000398,false,Rx,0,8,00,00,00,00,00,00,00,00,
1048290,000002E3,false,Rx,0,8,00,00,00,00,00,00,72,01,
1048308,000003C3,false,Rx,0,8,45,10,31,30,36,00,00,00,
1048326,000002E4,false,Rx,0,8,02,00,00,00,00,00,00,00,
1048344,000003E0,false,Rx,0,8,66,20,01,00,54,03,00,00,
1048565,0000041A,false,Rx,0,8,BB,A0,12,00,50,01,00,00,
1048585,0000041B,false,Rx,0,8,70,D0,00,00,00,00,00,00,
1049673,000003E6,false,Rx,0,8,67,90,00,00,00,00,00,00,
1050952,0000041C,false,Rx,0,8,48,00,E0,00,00,00,00,00,
1051076,00000435,false,Rx,0,8,26,C0,00,40,00,00,00,00,
1052611,00000646,false,Rx,0,8,00,00,00,80,01,00,00,00,
1052646,00000444,false,Rx,0,8,D5,20,20,50,55,50,00,00,
1053022,00000445,false,Rx,0,8,C6,C0,00,00,00,00,00,18,
1054987,0000019B,false,Rx,0,8,EB,A6,FB,00,00,E4,00,00,
1055042,0000019C,false,Rx,0,8,40,20,00,00,00,00,0B,09,
1055061,000002D6,false,Rx,0,8,21,03,BF,00,00,00,00,00,
1056416,0000019D,false,Rx,0,8,00,10,00,01,00,00,00,00,
1056836,000002D7,false,Rx,0,8,00,00,00,00,03,00,00,00,
1056864,0000019E,false,Rx,0,8,15,00,00,00,00,32,00,00,
1056884,000002D8,false,Rx,0,8,00,00,00,00,00,00,38,45,
1056902,000002EB,false,Rx,0,8,56,02,BF,09,08,01,00,02,
1056920,000002D9,false,Rx,0,8,00,00,00,00,00,00,00,00,
1056937,000002EC,false,Rx,0,8,00,00,00,00,00,00,00,00,
1057580,000002ED,false,Rx,0,8,00,00,00,00,00,00,00,00,
1057603,000002EE,false,Rx,0,8,00,00,00,00,00,00,00,00,
1059588,00000356,false,Rx,0,8,75,40,C0,00,00,00,00,00,
1060136,00000357,false,Rx,0,8,00,00,00,00,00,4B,4D,48,
1060157,00000358,false,Rx,0,8,35,41,45,4D,52,37,33,4F,
1060174,00000359,false,Rx,0,8,51,4F,34,52,4A,35,33,00,
