Time Stamp,ID,Extended,Dir,Bus,LEN,D1,D2,D3,D4,D5,D6,D7,D8
627915,0000019C,false,Rx,0,8,40,20,00,00,00,00,0B,09,
627966,0000019D,false,Rx,0,8,00,10,00,01,00,00,00,00,
627984,0000019E,false,Rx,0,8,15,00,00,00,00,32,00,00,
628002,0000042A,false,Rx,0,8,9F,1D,02,02,00,10,00,00,
628020,000001AB,false,Rx,0,8,00,74,7E,50,70,38,00,00,
628037,000001AC,false,Rx,0,8,00,28,00,00,00,00,00,00,
629509,00000427,false,Rx,0,8,1D,86,FF,00,80,0A,00,00,
634588,0000036F,false,Rx,0,8,EE,E1,01,00,00,00,00,00,
634626,0000037F,false,Rx,0,8,EC,80,52,24,41,02,00,00,
635925,00000121,false,Rx,0,8,9C,8D,5F,00,00,00,00,05,
635960,000001A1,false,Rx,0,8,3A,29,28,FE,F7,7F,64,00,
635978,00000122,false,Rx,0,8,FF,D9,67,1F,48,46,48,47,
635995,000001A2,false,Rx,0,8,00,00,00,00,00,08,00,00,
636013,00000123,false,Rx,0,8,11,03,00,00,00,00,01,35,
637676,000001A3,false,Rx,0,8,FF,F3,3F,00,00,00,00,00,
637696,00000124,false,Rx,0,8,00,00,0A,00,00,00,20,40,
637713,000001A4,false,Rx,0,8,FE,07,00,00,00,00,00,00,
639610,00000036,false,Rx,0,8,54,DF,61,51,00,00,25,01,
639645,00000037,false,Rx,0,8,3B,00,00,10,00,40,00,00,
639663,00000038,false,Rx,0,8,04,00,00,00,90,38,96,D4,
639681,00000039,false,Rx,0,8,00,00,00,00,00,00,00,00,
641567,00000061,false,Rx,0,8,CD,59,67,00,00,00,00,00,
641589,00000062,false,Rx,0,8,02,02,00,02,40,FF,00,FF,
641607,00000063,false,Rx,0,8,00,00,05,00,00,08,FD,00,
641624,00000064,false,Rx,0,8,00,00,00,04,FF,FA,00,00,
642569,000000A1,false,Rx,0,8,70,72,67,1A,00,00,00,00,
642590,000000A2,false,Rx,0,8,00,00,00,00,00,00,00,00,
642608,000000A3,false,Rx,0,8,00,40,01,00,00,00,00,00,
651588,000001E6,false,Rx,0,8,73,F2,A9,02,00,00,00,00,
651630,000001E7,false,Rx,0,8,00,00,22,03,20,01,00,00,
652614,000001BB,false,Rx,0,8,AA,AA,A9,02,00,00,00,0A,
652647,000001BC,false,Rx,0,8,32,00,00,00,02,00,00,00,
652665,000001BD,false,Rx,0,8,00,00,00,00,00,00,00,00,
653703,000000C5,false,Rx,0,8,00,00,00,00,00,00,00,00,
654149,00000244,false,Rx,0,8,FF,FF,FF,FF,FF,FF,FF,FF,
654173,000003E4,false,Rx,0,8,FE,00,00,00,00,00,00,00,
654578,0000041F,false,Rx,0,8,00,0C,00,00,00,00,00,00,
655608,000004B4,false,Rx,0,8,00,00,00,00,00,00,00,00,
656000,000004B5,false,Rx,0,8,08,00,F0,07,00,00,00,00,
657326,000004B7,false,Rx,0,8,08,00,F0,07,00,00,00,00,
657383,000004CA,false,Rx,0,8,00,00,00,00,00,00,00,00,
657401,000004CC,false,Rx,0,8,08,00,00,06,00,00,03,00,
657419,000004CE,false,Rx,0,8,14,01,FF,FF,FF,FF,FF,FF,
657436,000004D7,false,Rx,0,8,23,01,00,00,00,00,00,00,
657454,000004D8,false,Rx,0,8,41,10,F0,F0,40,F2,1E,CC,
657668,0000010B,false,Rx,0,8,D1,00,63,00,00,00,00,05,
659191,000004E8,false,Rx,0,8,FF,FF,FF,05,FF,FF,FF,00,
78226,0000010C,false,Rx,0,8,FF,F9,E7,1F,46,44,46,46,
78627,000004E9,false,Rx,0,8,12,00,00,34,00,00,50,00,
78656,0000010D,false,Rx,0,8,10,03,00,00,00,00,01,35,
78677,000004EA,false,Rx,0,8,67,00,00,89,00,00,00,00,
78695,000004EB,false,Rx,0,8,10,80,34,37,80,00,00,00,
78713,00000419,false,Rx,0,8,74,50,65,D6,69,86,90,00,
80015,000002C1,false,Rx,0,8,E0,C1,EC,21,00,41,00,AC,
80041,000004EC,false,Rx,0,8,00,00,00,00,00,00,00,00,
80059,000002C2,false,Rx,0,8,1A,00,00,00,00,00,00,00,
80077,000004ED,false,Rx,0,8,00,00,00,00,00,FF,FF,1F,
80094,000002C3,false,Rx,0,8,00,00,00,00,00,00,00,00,
81738,000004EE,false,Rx,0,8,FF,FF,00,00,00,00,00,00,
81819,000002C4,false,Rx,0,8,00,00,00,00,00,00,00,00,
81837,000004EF,false,Rx,0,8,60,00,60,00,29,14,00,00,
81855,00000565,false,Rx,0,8,66,02,00,00,00,00,FF,FF,
81873,0000063D,false,Rx,0,8,00,80,00,00,00,00,00,00,
81890,0000063E,false,Rx,0,8,FF,FF,FF,FF,FF,FF,FF,FF,
82589,00000641,false,Rx,0,8,FF,FF,FF,FF,0F,FF,FF,FF,
82616,00000646,false,Rx,0,8,00,00,00,80,01,00,00,00,
84574,0000011B,false,Rx,0,8,6C,32,54,05,80,08,A8,02,
85572,0000012B,false,Rx,0,8,2B,C8,54,06,00,00,08,00,
85594,0000011C,false,Rx,0,8,00,05,20,00,22,00,01,01,
85612,0000012C,false,Rx,0,8,00,00,01,00,00,64,00,00,
85630,000001FB,false,Rx,0,8,CB,AE,D5,00,00,00,00,00,
86565,000001FC,false,Rx,0,8,00,00,00,00,00,00,00,00,
86590,000001FD,false,Rx,0,8,00,1A,03,00,00,00,00,00,
86609,000001FE,false,Rx,0,8,00,00,00,00,00,00,00,00,
88570,000003A1,false,Rx,0,8,83,74,FC,00,FF,FF,FF,FF,
88595,000003A2,false,Rx,0,8,00,00,00,00,00,00,00,00,
95562,0000019B,false,Rx,0,8,3E,7C,61,00,00,E4,00,00,
95585,0000019C,false,Rx,0,8,40,20,00,00,00,00,0B,09,
95603,0000019D,false,Rx,0,8,00,10,00,01,00,00,00,00,
95621,0000019E,false,Rx,0,8,15,00,00,00,00,32,00,00,
99564,0000033B,false,Rx,0,8,ED,C2,D7,00,00,00,00,00,
100566,0000033C,false,Rx,0,8,00,00,00,00,F0,00,00,00,
100587,0000033D,false,Rx,0,8,00,00,00,00,00,00,00,00,
100604,0000033E,false,Rx,0,8,00,00,00,00,00,00,00,00,
103564,000000FF,false,Rx,0,8,CB,10,00,00,00,00,02,00,
104564,00000121,false,Rx,0,8,4A,D1,64,00,00,00,00,05,
104585,00000122,false,Rx,0,8,FF,D9,67,1F,48,46,48,47,
104603,00000394,false,Rx,0,8,2A,22,1A,49,00,00,00,00,
105656,00000123,false,Rx,0,8,11,03,00,00,00,00,01,35,
105681,000003C3,false,Rx,0,8,45,10,31,30,36,00,00,00,
105699,00000124,false,Rx,0,8,00,00,0A,00,00,00,20,40,
105717,000003E0,false,Rx,0,8,66,20,01,00,54,03,00,00,
105734,000003E5,false,Rx,0,8,37,80,01,00,00,00,00,00,
106569,000003E6,false,Rx,0,8,67,90,00,00,00,00,00,00,
106598,0000041A,false,Rx,0,8,8D,D0,12,00,00,00,00,00,
106616,0000041B,false,Rx,0,8,70,D0,00,00,00,00,00,00,
107567,00000091,false,Rx,0,8,E5,60,D5,13,00,00,00,00,
107591,0000041C,false,Rx,0,8,48,00,E0,00,00,00,00,00,
107609,00000092,false,Rx,0,8,2F,00,00,00,F0,02,00,00,
107634,00000422,false,Rx,0,8,9D,70,01,00,00,00,04,00,
107652,00000093,false,Rx,0,8,00,00,00,00,00,00,00,00,
108565,00000442,false,Rx,0,8,CE,20,11,81,00,00,00,00,
108596,00000036,false,Rx,0,8,A7,41,66,51,00,00,25,01,
108614,00000037,false,Rx,0,8,3B,00,00,10,00,40,00,00,
108632,00000432,false,Rx,0,8,03,20,02,00,00,00,00,00,
109571,00000038,false,Rx,0,8,04,00,00,00,90,38,96,D4,
109596,00000435,false,Rx,0,8,26,C0,00,40,00,00,00,00,
109614,00000039,false,Rx,0,8,00,00,00,00,00,00,00,00,
109631,00000444,false,Rx,0,8,D5,20,20,50,55,50,00,00,
110570,00000094,false,Rx,0,8,00,00,00,00,00,00,00,00,
110594,000002E6,false,Rx,0,8,E3,77,D4,01,00,00,00,15,
110613,00000061,false,Rx,0,8,75,58,6C,00,00,00,00,00,
110630,000002E7,false,Rx,0,8,0A,00,00,00,00,00,00,00,
111564,00000062,false,Rx,0,8,02,02,00,02,40,FF,00,FF,
111589,00000256,false,Rx,0,8,A5,DA,D4,15,40,00,00,01,
111607,00000063,false,Rx,0,8,00,00,05,00,00,08,FD,00,
111625,00000257,false,Rx,0,8,00,93,42,1B,86,07,00,94,
112564,00000064,false,Rx,0,8,00,00,00,04,FF,FA,00,00,
112589,00000258,false,Rx,0,8,0C,76,1E,00,10,15,00,28,
112607,000000A1,false,Rx,0,8,4C,83,6C,1A,00,00,00,00,
112625,00000259,false,Rx,0,8,5F,05,8D,3C,4C,02,00,00,
113744,000000A2,false,Rx,0,8,00,00,00,00,00,00,00,00,
113780,000002E8,false,Rx,0,8,00,00,00,00,00,00,00,00,
113798,000000A3,false,Rx,0,8,00,40,01,00,00,00,00,00,
113815,000002E9,false,Rx,0,8,00,00,00,00,00,00,00,00,
113833,00000445,false,Rx,0,8,C6,C0,00,00,00,00,00,18,
114906,00000464,false,Rx,0,8,D5,20,F0,FF,38,7F,05,00,
115328,000001F1,false,Rx,0,8,68,A4,7C,01,00,00,28,00,
115351,000001F2,false,Rx,0,8,00,00,00,00,00,00,00,00,
116573,00000146,false,Rx,0,8,BF,BB,29,10,04,05,00,00,
117566,00000147,false,Rx,0,8,01,04,7D,00,40,98,08,00,
117585,00000148,false,Rx,0,8,00,00,42,00,1E,93,40,05,
117602,00000149,false,Rx,0,8,00,38,00,D4,00,00,00,00,
118567,00000419,false,Rx,0,8,74,50,65,D6,69,86,90,00,
122563,000001B1,false,Rx,0,8,D4,7F,29,00,72,00,00,00,
122582,000001B2,false,Rx,0,8,23,00,04,EF,25,07,52,10,
122600,000001B3,false,Rx,0,8,25,39,4B,00,7F,90,8E,8D,
122617,000001B4,false,Rx,0,8,77,88,10,00,00,41,01,00,
125564,000002BF,false,Rx,0,8,FF,FF,FF,00,00,00,00,00,
125585,00000161,false,Rx,0,8,6D,00,2C,03,00,00,00,02,
125603,0000047F,false,Rx,0,8,FF,FC,FF,FF,FF,3F,F3,FF,
125620,00000162,false,Rx,0,8,FF,FC,01,00,00,00,00,00,
126582,00000653,false,Rx,0,8,0A,19,03,01,02,2A,00,00,
126603,0000010B,false,Rx,0,8,9F,D4,68,00,00,00,00,05,
127569,0000010C,false,Rx,0,8,FF,F9,E7,1F,46,45,46,46,
127592,0000010D,false,Rx,0,8,10,03,00,00,00,00,01,35,
127609,0000010E,false,Rx,0,8,00,00,1E,00,00,C0,AB,57,
131564,00000475,false,Rx,0,8,12,00,00,00,00,00,00,00,
131583,00000496,false,Rx,0,8,12,00,00,00,00,00,00,00,
134565,0000011B,false,Rx,0,8,1F,0B,59,05,80,08,A8,02,
134594,0000011C,false,Rx,0,8,00,05,20,00,22,00,01,01,
135572,0000012B,false,Rx,0,8,58,F1,59,06,00,00,08,00,
135590,00000111,false,Rx,0,8,12,FE,E0,01,00,00,00,00,
135608,0000012C,false,Rx,0,8,00,00,01,00,00,64,00,00,
135626,00000112,false,Rx,0,8,00,00,00,00,00,00,00,00,
136569,00000113,false,Rx,0,8,00,00,00,00,00,00,00,00,
136590,00000114,false,Rx,0,8,00,00,00,00,00,00,00,00,
144578,0000019B,false,Rx,0,8,CD,E2,66,00,00,E4,00,00,
145577,0000019C,false,Rx,0,8,40,20,00,00,00,00,0B,09,
145606,0000019D,false,Rx,0,8,00,10,00,01,00,00,00,00,
145624,0000019E,false,Rx,0,8,15,00,00,00,00,32,00,00,
146577,000001AB,false,Rx,0,8,34,AC,83,50,70,38,00,00,
146601,000001AC,false,Rx,0,8,00,28,00,00,00,00,00,00,
146618,000002FF,false,Rx,0,8,E2,01,00,F1,3F,00,00,00,
146636,00000316,false,Rx,0,8,FD,0E,DA,04,13,80,0A,00,
147578,00000317,false,Rx,0,8,00,00,05,00,00,00,00,00,
147607,00000472,false,Rx,0,8,5C,EC,00,40,08,41,00,45,
147625,00000473,false,Rx,0,8,5F,24,00,25,00,00,00,78,
147642,00000474,false,Rx,0,8,93,44,00,00,00,00,00,14,
148569,0000030B,false,Rx,0,8,FD,55,D7,00,04,00,00,00,
149576,0000030C,false,Rx,0,8,00,00,0E,00,2C,00,A0,0F,
149598,0000030D,false,Rx,0,8,00,00,00,00,48,00,00,00,
149616,0000030E,false,Rx,0,8,00,00,38,05,21,00,00,00,
153566,0000036F,false,Rx,0,8,FE,01,01,00,00,00,00,00,
153589,0000037F,false,Rx,0,8,55,90,52,24,41,02,00,00,
154569,00000121,false,Rx,0,8,47,17,69,00,00,00,00,05,
154590,00000122,false,Rx,0,8,FF,D9,67,1F,48,46,48,47,
154608,000001A1,false,Rx,0,8,45,05,2D,FE,F7,7F,64,00,
155568,00000123,false,Rx,0,8,11,03,00,00,00,00,01,35,
155590,000001A2,false,Rx,0,8,00,00,00,00,00,08,00,00,
155608,00000124,false,Rx,0,8,00,00,0A,00,00,00,20,40,
155632,000001A3,false,Rx,0,8,FF,F3,3F,00,00,00,00,00,
155649,000001A4,false,Rx,0,8,FE,07,00,00,00,00,00,00,
157994,00000415,false,Rx,0,8,40,13,10,00,08,01,00,00,
158029,00000036,false,Rx,0,8,AA,87,6B,51,00,00,25,01,
158047,00000037,false,Rx,0,8,3B,00,00,10,00,40,00,00,
158065,00000038,false,Rx,0,8,04,00,00,00,90,38,96,D4,
159604,00000039,false,Rx,0,8,00,00,00,00,00,00,00,00,
159918,00000419,false,Rx,0,8,74,50,65,D6,69,86,90,00,
159941,00000061,false,Rx,0,8,BD,5A,71,00,00,00,00,00,
160575,00000062,false,Rx,0,8,02,02,00,02,40,FF,00,FF,
160601,00000063,false,Rx,0,8,00,00,05,00,00,08,FD,00,
160619,00000064,false,Rx,0,8,00,00,00,04,FF,FA,00,00,
161565,000000A1,false,Rx,0,8,29,80,71,1A,00,00,00,00,
161585,000000A2,false,Rx,0,8,00,00,00,00,00,00,00,00,
161603,000000A3,false,Rx,0,8,00,40,01,00,00,00,00,00,
164587,00000487,false,Rx,0,8,00,00,00,00,00,00,00,00,
164623,00000642,false,Rx,0,8,FF,FF,FF,FF,FF,FF,00,00,
165738,000001E1,false,Rx,0,8,65,96,AC,02,00,00,00,00,
165773,000001E2,false,Rx,0,8,00,00,00,00,00,00,00,00,
169595,00000236,false,Rx,0,8,74,A0,D7,00,6E,3C,34,6C,
169641,000002FB,false,Rx,0,8,69,A9,D7,04,5F,1A,CC,CC,
169659,00000237,false,Rx,0,8,00,15,BA,00,00,A7,1E,00,
169676,000002FC,false,Rx,0,8,10,00,16,19,00,00,8E,BF,
170626,00000151,false,Rx,0,8,ED,03,D7,A0,C8,00,28,19,
170659,00000238,false,Rx,0,8,00,00,5F,00,00,00,00,00,
170678,00000152,false,Rx,0,8,16,18,18,00,0B,00,00,00,
170695,00000239,false,Rx,0,8,00,00,00,00,01,00,00,00,
172404,00000153,false,Rx,0,8,00,00,00,00,00,00,00,00,
172440,000001F6,false,Rx,0,8,DE,20,D7,00,00,00,00,0E,
172459,00000154,false,Rx,0,8,00,00,00,00,00,00,00,00,
172477,000001F7,false,Rx,0,8,0B,00,00,00,00,00,00,00,
172494,000002FD,false,Rx,0,8,00,00,00,00,00,1C,0E,EA,
172582,000001F9,false,Rx,0,8,00,00,A0,C8,14,00,00,00,
173956,00000326,false,Rx,0,8,24,7E,D7,00,00,00,00,00,
173991,0000025B,false,Rx,0,8,5D,6D,D7,40,40,20,00,00,
174009,00000327,false,Rx,0,8,00,00,00,00,05,00,00,00,
174027,0000025C,false,Rx,0,8,00,00,0B,00,34,89,19,00,
174060,00000328,false,Rx,0,8,00,00,00,00,00,00,00,00,
174077,0000025D,false,Rx,0,8,00,C8,00,00,00,80,C0,70,
174597,00000329,false,Rx,0,8,A0,00,00,00,00,00,00,00,
174622,0000025E,false,Rx,0,8,42,07,0E,06,00,00,00,00,
176432,00000331,false,Rx,0,8,37,31,D7,F1,C8,A0,2C,97,
176482,00000380,false,Rx,0,8,73,DE,00,0C,0C,0C,0C,01,
177068,00000332,false,Rx,0,8,94,02,00,00,00,00,00,00,
177104,00000382,false,Rx,0,8,B9,66,1B,00,00,05,05,00,
177123,00000333,false,Rx,0,8,00,00,00,1C,0C,40,20,A0,
177141,0000010B,false,Rx,0,8,16,2D,6D,00,00,00,00,05,
177167,00000405,false,Rx,0,8,BD,30,00,00,00,01,00,00,
178635,0000010C,false,Rx,0,8,FF,F9,E7,1F,46,44,46,46,
178661,00000410,false,Rx,0,8,4B,80,59,3C,16,6B,FF,FF,
178679,0000010D,false,Rx,0,8,10,03,00,00,00,00,01,35,
180023,00000411,false,Rx,0,8,A8,01,50,50,00,00,44,04,
180080,0000010E,false,Rx,0,8,00,00,1E,00,00,C0,AB,57,
180098,000002AC,false,Rx,0,8,00,FF,FF,00,00,40,00,50,
180116,00000413,false,Rx,0,8,6F,30,00,00,00,00,00,00,
180134,00000251,false,Rx,0,8,94,2E,D7,00,00,00,00,00,
181525,000002AD,false,Rx,0,8,00,01,00,40,FF,FF,FF,0F,
183176,000002B6,false,Rx,0,8,17,FA,D8,01,00,00,00,40,
183253,00000396,false,Rx,0,8,64,01,EB,0F,08,01,00,02,
183271,000002B7,false,Rx,0,8,EA,01,F0,78,00,04,00,00,
183289,00000397,false,Rx,0,8,0C,00,00,00,00,00,00,00,
183307,000002B8,false,Rx,0,8,AA,11,11,00,00,00,00,00,
183324,000002B9,false,Rx,0,8,0A,00,00,00,00,00,00,00,
184495,00000418,false,Rx,0,8,19,70,00,00,12,0C,00,00,
184532,000002E4,false,Rx,0,8,02,00,00,00,00,00,00,00,
186219,00000419,false,Rx,0,8,74,50,65,D6,69,86,90,00,
186268,00000566,false,Rx,0,8,16,02,00,00,00,00,FF,FF,
186286,00000643,false,Rx,0,8,00,FC,FF,FF,FF,FF,03,00,
195591,0000019B,false,Rx,0,8,C0,24,6B,00,00,E4,00,00,
195631,0000019C,false,Rx,0,8,40,20,00,00,00,00,0B,09,
195649,0000019D,false,Rx,0,8,00,10,00,01,00,00,00,00,
195667,0000019E,false,Rx,0,8,15,00,00,00,00,32,00,00,
196628,000002D6,false,Rx,0,8,AA,91,EB,00,00,00,00,00,
196660,000002D7,false,Rx,0,8,00,00,00,00,03,00,00,00,
197570,000002EB,false,Rx,0,8,98,EA,EB,09,08,02,00,02,
197591,000002D8,false,Rx,0,8,00,00,00,00,00,00,38,45,
197609,000002EC,false,Rx,0,8,0A,00,00,00,00,00,00,00,
197627,000002D9,false,Rx,0,8,00,00,00,00,00,00,00,00,
198701,000002ED,false,Rx,0,8,00,00,00,00,00,00,00,00,
199099,000004E8,false,Rx,0,8,FF,FF,FF,05,FF,FF,FF,00,
199135,000002EE,false,Rx,0,8,00,00,00,00,00,00,00,00,
201709,00000356,false,Rx,0,8,95,46,EC,00,00,00,00,00,
201746,00000357,false,Rx,0,8,00,00,00,00,00,4B,4D,48,
201765,00000358,false,Rx,0,8,35,41,45,4D,52,37,33,4F,
201782,00000359,false,Rx,0,8,51,4F,34,52,4A,35,33,00,
204580,00000121,false,Rx,0,8,B4,89,6E,00,00,00,00,05,
204608,00000122,false,Rx,0,8,FF,D9,67,1F,48,46,48,47,
204626,00000123,false,Rx,0,8,11,03,00,00,00,00,01,35,
206042,00000124,false,Rx,0,8,00,00,0A,00,00,00,20,40,
206569,00000091,false,Rx,0,8,08,9A,D6,13,00,00,00,00,
208184,000004A3,false,Rx,0,8,80,00,48,0B,3E,00,00,00,
208220,00000092,false,Rx,0,8,2E,00,00,00,E0,02,00,00,
208251,000004A4,false,Rx,0,8,FF,FF,FF,00,00,00,00,00,
208268,00000093,false,Rx,0,8,00,00,00,00,00,00,00,00,
208286,00000036,false,Rx,0,8,D7,42,70,51,00,00,25,01,
208304,00000038,false,Rx,0,8,04,00,00,00,90,38,96,D4,
209907,00000039,false,Rx,0,8,00,00,00,00,00,00,00,00,
209944,00000094,false,Rx,0,8,00,00,00,00,00,00,00,00,
209962,00000061,false,Rx,0,8,4E,C4,76,00,00,00,00,00,
210585,00000062,false,Rx,0,8,02,02,00,02,40,FF,00,FF,
210608,00000063,false,Rx,0,8,00,00,05,00,00,08,FD,00,
210625,00000064,false,Rx,0,8,00,00,00,04,FF,FA,00,00,
211933,000000A1,false,Rx,0,8,20,05,76,1A,00,00,00,00,
211968,000003B6,false,Rx,0,8,B8,00,EA,00,00,00,00,46,
211986,000000A2,false,Rx,0,8,00,00,00,00,00,00,00,00,
212004,000003B7,false,Rx,0,8,46,00,00,00,00,00,00,00,
212022,000000A3,false,Rx,0,8,00,40,01,00,00,00,00,00,
213316,000003B8,false,Rx,0,8,0C,03,00,00,00,00,69,0E,
213351,000003B9,false,Rx,0,8,00,00,00,00,00,00,00,00,
216873,00000146,false,Rx,0,8,BA,E3,2E,10,04,05,00,00,
216912,00000147,false,Rx,0,8,01,04,7D,00,40,97,08,00,
217759,00000148,false,Rx,0,8,00,00,42,00,1E,93,40,05,
217791,00000149,false,Rx,0,8,00,38,00,D4,00,00,00,00,
220604,000001E6,false,Rx,0,8,85,DA,AC,02,00,00,00,00,
220647,000001E7,false,Rx,0,8,00,00,22,03,20,01,00,00,
221611,000001BB,false,Rx,0,8,A5,41,AC,02,00,00,00,0A,
221644,000001BC,false,Rx,0,8,32,00,00,00,02,00,00,00,
221662,000001B1,false,Rx,0,8,27,E1,2E,00,72,00,00,00,
222717,000001B2,false,Rx,0,8,23,00,04,EF,25,07,52,10,
222752,000001B3,false,Rx,0,8,25,39,4B,00,7F,90,8E,8D,
222770,000001B4,false,Rx,0,8,77,88,10,00,00,41,01,00,
222788,000001BD,false,Rx,0,8,00,00,00,00,00,00,00,00,
226018,00000161,false,Rx,0,8,14,1A,31,03,00,00,00,02,
226053,00000162,false,Rx,0,8,FF,FC,01,00,00,00,00,00,
226071,00000495,false,Rx,0,8,49,00,00,00,00,00,00,00,
226592,000003AA,false,Rx,0,8,FF,00,B0,00,54,00,00,00,
226615,0000010B,false,Rx,0,8,A4,48,72,00,00,00,00,05,
227570,0000010C,false,Rx,0,8,FF,F9,E7,1F,46,45,46,46,
227592,0000010D,false,Rx,0,8,10,03,00,00,00,00,01,35,
227616,0000010E,false,Rx,0,8,00,00,1E,00,00,C0,AB,57,
227634,0000034B,false,Rx,0,8,72,AC,2F,31,D8,0D,05,01,
228569,0000034C,false,Rx,0,8,00,00,00,00,00,00,00,00,
228590,0000034D,false,Rx,0,8,00,00,00,00,00,00,00,00,
228607,0000034E,false,Rx,0,8,00,00,00,00,00,00,00,00,
233590,000003B0,false,Rx,0,8,72,37,FF,C7,00,00,03,C0,
234613,0000012B,false,Rx,0,8,AA,C5,63,06,00,00,08,00,
234646,0000012C,false,Rx,0,8,00,00,01,00,00,64,00,00,
236063,0000011B,false,Rx,0,8,ED,3F,63,05,80,08,A8,02,
236099,0000011C,false,Rx,0,8,00,05,20,00,22,00,01,01,
236117,000003B1,false,Rx,0,8,9B,3C,FF,40,00,00,20,00,
238118,000004E8,false,Rx,0,8,FF,FF,FF,05,FF,FF,FF,00,
238288,00000448,false,Rx,0,8,00,C0,00,00,00,00,00,00,
239587,00000384,false,Rx,0,8,C5,8D,05,01,00,FF,00,14,
241726,00000401,false,Rx,0,8,A9,30,10,00,00,04,00,00,
243587,000003B2,false,Rx,0,8,36,15,FF,02,29,2F,34,00,
245572,0000019B,false,Rx,0,8,BD,E1,70,00,00,E4,00,00,
245595,0000019C,false,Rx,0,8,40,20,00,00,00,00,0B,09,
245613,0000019D,false,Rx,0,8,00,10,00,01,00,00,00,00,
245630,0000019E,false,Rx,0,8,15,00,00,00,00,32,00,00,
245648,0000042A,false,Rx,0,8,9F,1D,02,02,00,10,00,00,
246566,000001AB,false,Rx,0,8,FC,55,88,50,70,38,00,00,
246586,00000226,false,Rx,0,8,8F,60,B5,FF,30,E1,05,42,
246604,000001AC,false,Rx,0,8,00,28,00,00,00,00,00,00,
246621,00000227,false,Rx,0,8,02,70,E1,08,00,F2,17,04,
248582,00000427,false,Rx,0,8,1D,86,FF,00,80,0A,00,00,
253598,0000036F,false,Rx,0,8,47,11,01,00,00,00,00,00,
253637,0000037F,false,Rx,0,8,83,A0,52,24,41,02,00,00,
254599,00000121,false,Rx,0,8,7C,8B,73,00,00,00,00,05,
254640,00000122,false,Rx,0,8,FF,D9,67,1F,48,46,48,47,
254659,000001A1,false,Rx,0,8,01,B5,32,FE,F7,7F,64,00,
254676,00000123,false,Rx,0,8,11,03,00,00,00,00,01,35,
255980,000001A2,false,Rx,0,8,00,00,00,00,00,08,00,00,
256019,00000124,false,Rx,0,8,00,00,0A,00,00,00,20,40,
256038,000001A3,false,Rx,0,8,FF,F3,3F,00,00,00,00,00,
256056,000001A4,false,Rx,0,8,FE,07,00,00,00,00,00,00,
257616,00000036,false,Rx,0,8,A8,6E,75,51,00,00,25,01,
257651,00000037,false,Rx,0,8,3B,00,00,10,00,40,00,00,
258855,00000038,false,Rx,0,8,04,00,00,00,90,38,96,D4,
258890,00000039,false,Rx,0,8,00,00,00,00,00,00,00,00,
260682,00000061,false,Rx,0,8,43,02,7B,00,00,00,00,00,
260721,00000062,false,Rx,0,8,02,02,00,02,40,FF,00,FF,
260739,00000063,false,Rx,0,8,00,00,05,00,00,08,FD,00,
260757,00000064,false,Rx,0,8,00,00,00,04,FF,FA,00,00,
261865,000000A1,false,Rx,0,8,16,46,7B,1A,00,00,00,00,
261900,000000A2,false,Rx,0,8,00,00,00,00,00,00,00,00,
261918,000000A3,false,Rx,0,8,00,40,01,00,00,00,00,00,
264927,000001F1,false,Rx,0,8,25,4C,7F,01,00,00,28,00,
264965,000001F2,false,Rx,0,8,00,00,00,00,00,00,00,00,
276591,0000010B,false,Rx,0,8,2D,B1,77,00,00,00,00,05,
277596,0000010C,false,Rx,0,8,FF,F9,E7,1F,46,44,46,46,
277640,0000010D,false,Rx,0,8,10,03,00,00,00,00,01,35,
277689,000000C5,false,Rx,0,8,00,00,00,00,00,00,00,00,
279144,0000010E,false,Rx,0,8,00,00,1E,00,00,C0,AB,57,
279203,00000244,false,Rx,0,8,FF,FF,FF,FF,FF,FF,FF,FF,
279221,000004B4,false,Rx,0,8,00,00,00,00,00,00,00,00,
279239,000004B5,false,Rx,0,8,08,00,F0,07,00,00,00,00,
279257,000004B7,false,Rx,0,8,08,00,F0,07,00,00,00,00,
279274,000004CA,false,Rx,0,8,00,00,00,00,00,00,00,00,
279591,000004CC,false,Rx,0,8,08,00,00,06,00,00,03,00,
281319,000002C3,false,Rx,0,8,00,00,00,00,00,00,00,00,
281352,000004CE,false,Rx,0,8,14,01,FF,FF,FF,FF,FF,FF,
281550,000002C4,false,Rx,0,8,00,00,00,00,00,00,00,00,
281577,000004D7,false,Rx,0,8,23,01,00,00,00,00,00,00,
281594,000004D8,false,Rx,0,8,41,10,F0,F0,40,F2,1E,CC,
281612,000004E7,false,Rx,0,8,00,30,00,00,00,00,69,00,
283219,000004E8,false,Rx,0,8,FF,FF,FF,05,FF,FF,FF,00,
283648,000004E9,false,Rx,0,8,12,00,00,34,00,00,50,00,
283676,000004EA,false,Rx,0,8,67,00,00,89,00,00,00,00,
283696,000004EB,false,Rx,0,8,10,80,34,37,80,00,00,00,
283714,000004EC,false,Rx,0,8,00,00,00,00,00,00,00,00,
283731,00000516,false,Rx,0,8,61,02,00,00,00,00,FF,FF,
283749,000004EE,false,Rx,0,8,FF,FF,00,00,00,00,00,00,
285141,000004EF,false,Rx,0,8,60,00,60,00,29,14,00,00,
285175,0000063D,false,Rx,0,8,00,80,00,00,00,00,00,00,
285192,0000063E,false,Rx,0,8,FF,FF,FF,FF,FF,FF,FF,FF,
285210,0000011B,false,Rx,0,8,25,C6,68,05,80,08,A8,02,
285627,0000012B,false,Rx,0,8,62,3C,68,06,00,00,08,00,
285652,0000012C,false,Rx,0,8,00,00,01,00,00,64,00,00,
285669,000001FB,false,Rx,0,8,47,1C,D7,00,00,00,00,00,
286615,0000063F,false,Rx,0,8,00,10,00,C4,FF,00,00,00,
286640,000001FC,false,Rx,0,8,00,00,00,00,00,00,00,00,
286658,00000640,false,Rx,0,8,FF,FF,FF,00,FF,FF,FF,00,
289086,000001FD,false,Rx,0,8,00,1A,03,00,00,00,00,00,
289133,00000641,false,Rx,0,8,FF,FF,FF,FF,0F,FF,FF,FF,
289152,000001FE,false,Rx,0,8,00,00,00,00,00,00,00,00,
289169,00000646,false,Rx,0,8,00,00,00,80,01,00,00,00,
289187,000003A1,false,Rx,0,8,A7,DC,FD,00,FF,FF,FF,FF,
289205,000003A2,false,Rx,0,8,00,00,00,00,00,00,00,00,
294606,0000019B,false,Rx,0,8,C2,CD,75,00,00,E4,00,00,
295573,0000019C,false,Rx,0,8,40,20,00,00,00,00,0B,09,
295594,0000019D,false,Rx,0,8,00,10,00,01,00,00,00,00,
295612,0000019E,false,Rx,0,8,15,00,00,00,00,32,00,00,
299589,0000033B,false,Rx,0,8,2A,EF,D9,00,00,00,00,00,
300596,0000033C,false,Rx,0,8,00,00,00,00,F0,00,00,00,
300629,0000033D,false,Rx,0,8,00,00,00,00,00,00,00,00,
300647,0000033E,false,Rx,0,8,00,00,00,00,00,00,00,00,
303771,000000FF,false,Rx,0,8,CB,10,00,00,00,00,02,00,
304590,00000121,false,Rx,0,8,C4,8A,78,00,00,00,00,05,
304626,00000122,false,Rx,0,8,FF,D9,67,1F,48,46,48,47,
304655,00000394,false,Rx,0,8,2A,22,1A,49,00,00,00,00,
304673,00000123,false,Rx,0,8,11,03,00,00,00,00,01,35,
306360,000003C3,false,Rx,0,8,45,10,31,30,36,00,00,00,
306394,00000124,false,Rx,0,8,00,00,0A,00,00,00,20,40,
306789,000003E0,false,Rx,0,8,66,20,01,00,54,03,00,00,
306825,000003E5,false,Rx,0,8,37,80,01,00,00,00,00,00,
306848,000003E6,false,Rx,0,8,67,90,00,00,00,00,00,00,
306866,0000041B,false,Rx,0,8,70,D0,00,00,00,00,00,00,
306883,00000091,false,Rx,0,8,00,E1,D7,13,00,00,00,00,
307976,0000041C,false,Rx,0,8,48,00,E0,00,00,00,00,00,
308009,00000092,false,Rx,0,8,2C,00,00,00,C0,02,00,00,
308027,00000422,false,Rx,0,8,9D,70,01,00,00,00,04,00,
308045,00000036,false,Rx,0,8,29,1A,7A,51,00,00,25,01,
308063,00000432,false,Rx,0,8,03,20,02,00,00,00,00,00,
308619,00000037,false,Rx,0,8,3B,00,00,10,00,40,00,00,
308647,00000038,false,Rx,0,8,04,00,00,00,90,38,96,D4,
308665,00000435,false,Rx,0,8,26,C0,00,40,00,00,00,00,
310435,00000039,false,Rx,0,8,00,00,00,00,00,00,00,00,
310468,00000442,false,Rx,0,8,CE,20,11,81,00,00,00,00,
310485,00000093,false,Rx,0,8,00,00,00,00,00,00,00,00,
310503,00000444,false,Rx,0,8,D5,20,20,50,55,50,00,00,
310521,00000094,false,Rx,0,8,00,00,00,00,00,00,00,00,
312079,00000256,false,Rx,0,8,B1,E3,D6,15,40,00,10,01,
312368,00000062,false,Rx,0,8,02,02,00,02,40,FF,00,FF,
312395,00000257,false,Rx,0,8,00,93,42,1B,86,07,00,94,
312413,00000063,false,Rx,0,8,00,00,05,00,00,08,FD,00,
312430,00000258,false,Rx,0,8,0C,75,1E,00,10,15,00,28,
312448,000000A1,false,Rx,0,8,68,44,80,1A,00,00,00,00,
313445,000002E6,false,Rx,0,8,6F,C5,D6,01,00,00,00,15,
313892,000000A2,false,Rx,0,8,00,00,00,00,00,00,00,00,
313910,000002E7,false,Rx,0,8,0A,00,00,00,00,00,00,00,
313928,000000A3,false,Rx,0,8,00,40,01,00,00,00,00,00,
313946,000002E8,false,Rx,0,8,00,00,00,00,00,00,00,00,
313975,00000464,false,Rx,0,8,D5,20,F0,FF,38,7F,05,00,
313992,000002E9,false,Rx,0,8,00,00,00,00,00,00,00,00,
315917,000001E1,false,Rx,0,8,28,7E,AF,02,00,00,00,00,
316084,000001E2,false,Rx,0,8,00,00,00,00,00,00,00,00,
317199,00000146,false,Rx,0,8,84,27,33,10,04,05,00,00,
317236,00000147,false,Rx,0,8,01,04,7D,00,40,98,08,00,
317254,00000148,false,Rx,0,8,00,00,42,00,1E,93,40,05,
317290,00000149,false,Rx,0,8,00,38,00,D4,00,00,00,00,
318821,00000419,false,Rx,0,8,68,60,66,D6,69,86,90,00,
321565,000001B1,false,Rx,0,8,EF,E3,33,00,72,00,00,00,
323057,000001B2,false,Rx,0,8,23,00,04,EF,25,07,52,10,
323091,000001B3,false,Rx,0,8,25,39,4B,00,7F,90,8E,8D,
323110,000001B4,false,Rx,0,8,77,88,10,00,00,41,01,00,
325587,000002BF,false,Rx,0,8,FF,FF,FF,00,00,00,00,00,
325624,00000161,false,Rx,0,8,8B,72,36,03,00,00,00,02,
325643,0000047F,false,Rx,0,8,FF,FC,FF,FF,FF,3F,F3,FF,
325661,00000162,false,Rx,0,8,FF,FC,01,00,00,00,00,00,
326570,00000653,false,Rx,0,8,0A,19,03,01,02,2A,00,00,
326595,0000010B,false,Rx,0,8,26,96,7C,00,00,00,00,05,
328357,0000010C,false,Rx,0,8,FF,F9,E7,1F,46,45,46,46,
328392,0000010D,false,Rx,0,8,0F,03,00,00,00,00,01,35,
328410,0000010E,false,Rx,0,8,00,00,1E,00,00,C0,AB,57,
328551,000004F0,false,Rx,0,8,4A,10,34,38,58,1A,18,02,
331596,00000475,false,Rx,0,8,12,00,00,00,00,00,00,00,
331632,00000496,false,Rx,0,8,12,00,00,00,00,00,00,00,
334565,0000011B,false,Rx,0,8,D3,EE,6D,05,80,08,A8,02,
334586,0000012B,false,Rx,0,8,94,14,6D,06,00,00,08,00,
335572,0000011C,false,Rx,0,8,00,05,20,00,22,00,01,01,
335594,0000012C,false,Rx,0,8,00,00,01,00,00,64,00,00,
335612,00000111,false,Rx,0,8,54,A7,E1,01,00,00,00,00,
335629,00000112,false,Rx,0,8,00,00,00,00,00,00,00,00,
336574,00000113,false,Rx,0,8,00,00,00,00,00,00,00,00,
336596,00000114,false,Rx,0,8,00,00,00,00,00,00,00,00,
344566,0000019B,false,Rx,0,8,43,B9,7A,00,00,E4,00,00,
345567,0000019C,false,Rx,0,8,40,20,00,00,00,00,0B,09,
345596,0000019D,false,Rx,0,8,00,10,00,01,00,00,00,00,
345615,0000019E,false,Rx,0,8,15,00,00,00,00,32,00,00,
345633,000001AB,false,Rx,0,8,0A,7D,8D,50,70,38,00,00,
346570,000001AC,false,Rx,0,8,00,28,00,00,00,00,00,00,
346599,00000316,false,Rx,0,8,D9,A6,DB,04,13,80,0A,00,
346618,000003CB,false,Rx,0,8,36,14,00,F4,00,00,00,00,
346635,00000317,false,Rx,0,8,00,00,05,00,00,00,00,00,
347567,000003CC,false,Rx,0,8,36,31,34,30,33,34,31,00,
347596,00000472,false,Rx,0,8,5C,EC,00,40,08,41,00,45,
347615,00000473,false,Rx,0,8,5F,24,00,25,00,00,00,78,
347633,00000474,false,Rx,0,8,93,44,00,00,00,00,00,14,
348567,0000030B,false,Rx,0,8,3A,78,D9,00,04,00,00,00,
349584,0000030C,false,Rx,0,8,00,00,0E,00,2C,00,A0,0F,
349605,0000030D,false,Rx,0,8,00,00,00,00,48,00,00,00,
349623,0000030E,false,Rx,0,8,00,00,38,05,21,00,00,00,
350577,000002FF,false,Rx,0,8,E2,01,00,F1,3F,00,00,00,
353573,0000036F,false,Rx,0,8,91,21,01,00,00,00,00,00,
353594,0000037F,false,Rx,0,8,3A,B0,52,24,41,02,00,00,
354568,00000121,false,Rx,0,8,BB,A6,7D,00,00,00,00,05,
354595,00000122,false,Rx,0,8,FF,D9,67,1F,48,46,48,47,
354612,000001A1,false,Rx,0,8,7E,99,37,FE,F7,7F,64,00,
355562,00000123,false,Rx,0,8,11,03,00,00,00,00,01,35,
355586,000001A2,false,Rx,0,8,00,00,00,00,00,08,00,00,
355604,00000124,false,Rx,0,8,00,00,0A,00,00,00,20,40,
355622,000001A3,false,Rx,0,8,FF,F3,3F,00,00,00,00,00,
355645,000001A4,false,Rx,0,8,FE,07,00,00,00,00,00,00,
357569,00000036,false,Rx,0,8,56,36,7F,51,00,00,25,01,
357598,00000037,false,Rx,0,8,3B,00,00,10,00,40,00,00,
358564,00000038,false,Rx,0,8,04,00,00,00,90,38,96,D4,
358589,00000039,false,Rx,0,8,00,00,00,00,00,00,00,00,
358606,00000419,false,Rx,0,8,68,60,66,D6,69,86,90,00,
360567,00000061,false,Rx,0,8,73,17,85,00,00,00,00,00,
360589,00000062,false,Rx,0,8,02,02,00,02,40,FF,00,FF,
360607,00000063,false,Rx,0,8,00,00,05,00,00,08,FD,00,
360624,00000064,false,Rx,0,8,00,00,00,04,FF,FA,00,00,
361563,000000A1,false,Rx,0,8,67,AF,85,1A,00,00,00,00,
361587,000000A2,false,Rx,0,8,00,00,00,00,00,00,00,00,
361604,000000A3,false,Rx,0,8,00,40,01,00,00,00,00,00,
368567,00000487,false,Rx,0,8,00,00,00,00,00,00,00,00,
368589,000004F0,false,Rx,0,8,4A,10,34,38,58,1A,18,02,
368606,00000642,false,Rx,0,8,FF,FF,FF,FF,FF,FF,00,00,
369563,00000236,false,Rx,0,8,B3,8D,D9,00,6E,3C,34,6C,
369587,000002FB,false,Rx,0,8,AE,84,D9,04,5F,1A,CC,CC,
369605,00000237,false,Rx,0,8,00,15,BA,00,00,A7,1E,00,
369629,00000151,false,Rx,0,8,2A,2E,D9,A0,C8,00,28,19,
370564,000001F6,false,Rx,0,8,19,0D,D9,00,00,00,00,0E,
370588,00000152,false,Rx,0,8,16,18,18,00,0B,00,00,00,
370613,000001F7,false,Rx,0,8,0B,00,00,00,00,00,00,00,
370631,00000153,false,Rx,0,8,00,00,00,00,00,00,00,00,
371563,000001F8,false,Rx,0,8,00,00,00,00,00,00,00,00,
371594,00000154,false,Rx,0,8,00,00,00,00,00,00,00,00,
371611,000001E6,false,Rx,0,8,C8,32,AF,02,00,00,00,00,
371629,000001F9,false,Rx,0,8,00,00,A0,C8,14,00,00,00,
372571,000001E7,false,Rx,0,8,00,00,22,03,20,01,00,00,
372595,00000238,false,Rx,0,8,00,00,5F,00,00,00,00,00,
372613,000001BB,false,Rx,0,8,A0,18,AF,02,00,00,00,0A,
372630,00000239,false,Rx,0,8,00,00,00,00,01,00,00,00,
374068,000001BC,false,Rx,0,8,32,00,00,00,02,00,00,00,
374100,0000025B,false,Rx,0,8,7A,18,D9,40,40,20,00,00,
374118,000001BD,false,Rx,0,8,00,00,00,00,00,00,00,00,
374136,0000025C,false,Rx,0,8,00,00,0B,00,34,89,19,00,
374153,000002FC,false,Rx,0,8,10,00,16,19,00,00,8E,BF,
374171,0000025D,false,Rx,0,8,00,C8,00,00,00,80,C0,70,
374574,000002FD,false,Rx,0,8,00,00,00,00,00,1C,0E,EA,
374599,0000025E,false,Rx,0,8,B7,07,0E,00,00,00,00,00,
375584,000002FE,false,Rx,0,8,00,00,72,01,00,28,00,00,
375608,00000380,false,Rx,0,8,73,DE,00,0C,0C,0C,0C,01,
375626,00000326,false,Rx,0,8,E3,53,D9,00,00,00,00,00,
375644,00000382,false,Rx,0,8,B9,66,1B,00,00,05,05,00,
376990,00000327,false,Rx,0,8,00,00,00,00,05,00,00,00,
377025,00000383,false,Rx,0,8,FC,DC,02,10,01,00,00,00,
377043,00000328,false,Rx,0,8,00,00,00,00,00,00,00,00,
377422,0000010B,false,Rx,0,8,6F,4E,81,00,00,00,00,05,
377461,00000329,false,Rx,0,8,A0,00,00,00,00,00,00,00,
377484,0000010C,false,Rx,0,8,FF,F9,E7,1F,46,44,46,46,
377501,00000331,false,Rx,0,8,F0,1C,D9,F1,C8,A0,2C,97,
377519,0000010D,false,Rx,0,8,10,03,00,00,00,00,01,35,
378579,00000332,false,Rx,0,8,94,02,00,00,00,00,00,00,
378610,0000010E,false,Rx,0,8,00,00,1E,00,00,C0,AB,57,
379917,000002AB,false,Rx,0,8,E1,7F,DA,0C,0C,00,00,00,
379941,00000333,false,Rx,0,8,00,00,00,1C,0C,40,20,A0,
379958,000002AC,false,Rx,0,8,00,FF,FF,00,00,40,00,50,
379976,00000334,false,Rx,0,8,C8,00,00,00,AC,70,1D,90,
379994,00000251,false,Rx,0,8,A7,34,D9,00,00,00,00,00,
380570,00000253,false,Rx,0,8,00,00,00,56,56,00,80,44,
380595,000002B6,false,Rx,0,8,9B,48,DA,01,00,00,00,40,
380613,00000396,false,Rx,0,8,A3,86,EC,0F,08,01,00,02,
381564,000002B7,false,Rx,0,8,EA,01,F0,78,00,04,00,00,
381586,00000397,false,Rx,0,8,1D,00,00,00,00,00,00,00,
381605,000002B8,false,Rx,0,8,AA,11,11,00,00,00,00,00,
381622,00000398,false,Rx,0,8,00,00,00,00,00,00,00,00,
383311,000002B9,false,Rx,0,8,0A,00,00,00,00,00,00,00,
383346,00000405,false,Rx,0,8,BD,30,00,00,00,01,00,00,
383364,000002E1,false,Rx,0,8,C2,5A,DA,00,00,00,00,40,
383382,00000410,false,Rx,0,8,4B,80,59,3C,16,6B,FF,FF,
383399,000002E2,false,Rx,0,8,FD,00,00,00,00,14,00,04,
383676,00000412,false,Rx,0,8,6D,60,00,00,00,00,00,00,
384570,000002E4,false,Rx,0,8,02,00,00,00,00,00,00,00,
384592,00000413,false,Rx,0,8,6F,30,00,00,00,00,00,00,
384610,00000561,false,Rx,0,8,63,02,00,00,00,00,FF,FF,
384627,00000414,false,Rx,0,8,F0,10,00,00,28,00,00,00,
385566,0000011B,false,Rx,0,8,C3,B4,72,05,80,08,A8,02,
385586,0000012B,false,Rx,0,8,84,4E,72,06,00,00,08,00,
385604,0000011C,false,Rx,0,8,00,05,20,00,22,00,01,01,
385622,0000012C,false,Rx,0,8,00,00,01,00,00,64,00,00,
386568,00000416,false,Rx,0,8,55,00,00,00,00,00,00,00,
386590,00000417,false,Rx,0,8,5F,20,00,00,00,00,00,00,
386607,00000418,false,Rx,0,8,19,70,00,00,12,0C,00,00,
394610,0000019B,false,Rx,0,8,3C,95,7F,00,00,E4,00,00,
395597,0000019C,false,Rx,0,8,40,20,00,00,00,00,0B,09,
395629,0000019D,false,Rx,0,8,00,10,00,01,00,00,00,00,
395647,0000019E,false,Rx,0,8,15,00,00,00,00,32,00,00,
397594,000002D6,false,Rx,0,8,59,0F,EC,00,00,00,00,00,
397630,000002D7,false,Rx,0,8,00,00,00,00,03,00,00,00,
397648,000002EB,false,Rx,0,8,60,75,EC,09,08,01,00,02,
397666,000002D8,false,Rx,0,8,00,00,00,00,00,00,38,45,
397683,000002EC,false,Rx,0,8,0A,00,00,00,00,00,00,00,
397701,000002D9,false,Rx,0,8,00,00,00,00,00,00,00,00,
398582,000002ED,false,Rx,0,8,00,00,00,00,00,00,00,00,
398605,000002EE,false,Rx,0,8,00,00,00,00,00,00,00,00,
398622,00000419,false,Rx,0,8,68,60,66,D6,69,86,90,00,
400781,00000356,false,Rx,0,8,D3,1F,ED,00,00,00,00,00,
401186,00000357,false,Rx,0,8,00,00,00,00,00,4B,4D,48,
401576,00000358,false,Rx,0,8,35,41,45,4D,52,37,33,4F,
401598,00000359,false,Rx,0,8,51,4F,34,52,4A,35,33,00,
404587,00000121,false,Rx,0,8,E7,90,82,00,00,00,00,05,
404621,00000122,false,Rx,0,8,FF,D9,67,1F,47,46,47,47,
404639,00000123,false,Rx,0,8,11,03,00,00,00,00,01,35,
405579,00000124,false,Rx,0,8,00,00,0A,00,00,00,20,40,
406565,00000091,false,Rx,0,8,E8,A6,D8,13,00,00,00,00,
408907,00000092,false,Rx,0,8,2F,00,00,00,F0,02,00,00,
408942,00000093,false,Rx,0,8,00,00,00,00,00,00,00,00,
408959,00000094,false,Rx,0,8,00,00,00,00,00,00,00,00,
408977,00000036,false,Rx,0,8,19,0F,84,51,00,00,25,01,
408995,00000037,false,Rx,0,8,3B,00,00,10,00,40,00,00,
411730,00000061,false,Rx,0,8,F2,63,8A,00,00,00,00,00,
411768,00000062,false,Rx,0,8,02,02,00,02,40,FF,00,FF,
411798,00000063,false,Rx,0,8,00,00,05,00,00,08,FD,00,
411816,00000064,false,Rx,0,8,00,00,00,04,FF,FA,00,00,
411836,000000A1,false,Rx,0,8,57,82,8A,1A,00,00,00,00,
411854,000000A3,false,Rx,0,8,00,40,01,00,00,00,00,00,
412599,000003B8,false,Rx,0,8,0C,03,00,00,00,00,69,0E,
412627,000004A3,false,Rx,0,8,80,00,48,0B,3E,00,00,00,
412645,000003B9,false,Rx,0,8,00,00,00,00,00,00,00,00,
413684,000004A4,false,Rx,0,8,FF,FF,FF,00,00,00,00,00,
414051,000004F0,false,Rx,0,8,4A,10,34,38,58,1A,18,02,
415725,000001F1,false,Rx,0,8,11,94,82,01,00,00,28,00,
415761,000001F2,false,Rx,0,8,00,00,00,00,00,00,00,00,
416574,00000146,false,Rx,0,8,3C,26,38,10,04,05,00,00,
417567,00000147,false,Rx,0,8,01,04,7D,00,40,98,08,00,
417588,00000148,false,Rx,0,8,00,00,42,00,1E,93,40,05,
417605,00000149,false,Rx,0,8,00,38,00,D4,00,00,00,00,
421917,000001B1,false,Rx,0,8,57,E2,38,00,72,00,00,00,
421967,000001B2,false,Rx,0,8,23,00,04,EF,25,07,52,10,
421986,000001B3,false,Rx,0,8,25,39,4B,00,7F,90,8E,8D,
422589,000001B4,false,Rx,0,8,77,88,10,00,00,41,01,00,
425602,00000161,false,Rx,0,8,F8,4B,3B,03,00,00,00,02,
425641,00000162,false,Rx,0,8,FF,FC,01,00,00,00,00,00,
426621,000003AA,false,Rx,0,8,FF,00,B0,00,54,00,00,00,
426655,0000010B,false,Rx,0,8,D9,23,86,00,00,00,00,05,
427620,00000495,false,Rx,0,8,49,00,00,00,00,00,00,00,
427653,0000010C,false,Rx,0,8,FF,F9,E7,1F,46,44,46,46,
427671,0000010D,false,Rx,0,8,0F,03,00,00,00,00,01,35,
427688,0000010E,false,Rx,0,8,00,00,1E,00,00,C0,AB,57,
433606,000003B0,false,Rx,0,8,72,37,FF,C7,00,00,03,C0,
435207,0000011B,false,Rx,0,8,35,9C,77,05,80,08,A8,02,
435242,0000012B,false,Rx,0,8,72,66,77,06,00,00,08,00,
435260,0000011C,false,Rx,0,8,00,05,20,00,22,00,01,01,
435278,0000012C,false,Rx,0,8,00,00,01,00,00,64,00,00,
435761,000003B1,false,Rx,0,8,9B,3C,FF,40,00,00,20,00,
438926,00000448,false,Rx,0,8,00,C0,00,00,00,00,00,00,
439571,00000384,false,Rx,0,8,C5,8D,05,01,00,FF,00,14,
442627,00000401,false,Rx,0,8,A9,30,10,00,00,04,00,00,
443714,000003B2,false,Rx,0,8,36,15,FF,02,29,2F,34,00,
444619,0000019B,false,Rx,0,8,73,AC,84,00,00,E4,00,00,
445831,0000019C,false,Rx,0,8,40,20,00,00,00,00,0B,09,
445868,0000019D,false,Rx,0,8,00,10,00,01,00,00,00,00,
445887,0000019E,false,Rx,0,8,15,00,00,00,00,32,00,00,
445904,000001AB,false,Rx,0,8,1A,27,92,50,70,38,00,00,
445922,00000226,false,Rx,0,8,E6,20,B7,FF,30,E1,05,42,
447076,000001AC,false,Rx,0,8,00,28,00,00,00,00,00,00,
447111,00000227,false,Rx,0,8,02,70,E1,08,00,F2,17,04,
447129,0000042A,false,Rx,0,8,9F,1D,02,02,00,10,00,00,
448585,00000427,false,Rx,0,8,1D,86,FF,00,80,0A,00,00,
453581,0000036F,false,Rx,0,8,28,31,01,00,00,00,00,00,
453612,0000037F,false,Rx,0,8,32,C0,52,24,41,02,00,00,
454574,00000121,false,Rx,0,8,B2,C6,87,00,00,00,00,05,
454598,00000122,false,Rx,0,8,FF,D9,67,1F,48,46,48,47,
454616,00000123,false,Rx,0,8,11,03,00,00,00,00,01,35,
455957,00000124,false,Rx,0,8,00,00,0A,00,00,00,20,40,
456120,000001A1,false,Rx,0,8,C6,98,3C,FE,F7,7F,64,00,
456138,000001A2,false,Rx,0,8,00,00,00,00,00,08,00,00,
456156,000001A3,false,Rx,0,8,FF,F3,3F,00,00,00,00,00,
456174,000001A4,false,Rx,0,8,FE,07,00,00,00,00,00,00,
457727,00000036,false,Rx,0,8,14,C9,89,51,00,00,25,01,
457767,00000037,false,Rx,0,8,3B,00,00,10,00,40,00,00,
458679,00000038,false,Rx,0,8,04,00,00,00,90,38,96,D4,
458713,00000039,false,Rx,0,8,00,00,00,00,00,00,00,00,
460977,00000061,false,Rx,0,8,8D,4F,8F,00,00,00,00,00,
461031,00000062,false,Rx,0,8,02,02,00,02,40,FF,00,FF,
461430,00000063,false,Rx,0,8,00,00,05,00,00,08,FD,00,
461453,00000064,false,Rx,0,8,00,00,00,04,FF,FA,00,00,
461471,000000A1,false,Rx,0,8,58,69,8F,1A,00,00,00,00,
461489,000000A2,false,Rx,0,8,00,00,00,00,00,00,00,00,
461507,000000A3,false,Rx,0,8,00,40,01,00,00,00,00,00,
465594,000001E1,false,Rx,0,8,51,64,B2,02,00,00,00,00,
465634,000001E2,false,Rx,0,8,00,00,00,00,00,00,00,00,
466631,00000563,false,Rx,0,8,65,02,00,00,00,00,FF,FF,
476593,0000010B,false,Rx,0,8,91,16,8B,00,00,00,00,05,
477600,0000010C,false,Rx,0,8,FF,F9,E7,1F,46,44,46,46,
477632,0000010D,false,Rx,0,8,10,03,00,00,00,00,01,35,
477650,0000010E,false,Rx,0,8,00,00,1E,00,00,C0,AB,57,
479164,000002C1,false,Rx,0,8,0D,DF,EE,21,00,41,00,AC,
479199,000002C2,false,Rx,0,8,1B,00,00,00,00,00,00,00,
479217,000002C3,false,Rx,0,8,00,00,00,00,00,00,00,00,
479611,000002C4,false,Rx,0,8,00,00,00,00,00,00,00,00,
481734,000000C5,false,Rx,0,8,00,00,00,00,00,00,00,00,
482581,00000244,false,Rx,0,8,FF,FF,FF,FF,FF,FF,FF,FF,
482608,000004B4,false,Rx,0,8,00,00,00,00,00,00,00,00,
482626,000004B5,false,Rx,0,8,08,00,F0,07,00,00,00,00,
483628,000004B7,false,Rx,0,8,08,00,F0,07,00,00,00,00,
483662,000004CA,false,Rx,0,8,00,00,00,00,00,00,00,00,
483681,000004CC,false,Rx,0,8,08,00,00,06,00,00,03,00,
483698,000004CE,false,Rx,0,8,14,01,FF,FF,FF,FF,FF,FF,
485444,000004D7,false,Rx,0,8,23,01,00,00,00,00,00,00,
485479,000004D8,false,Rx,0,8,41,10,F0,F0,40,F2,1E,CC,
485497,000004DD,false,Rx,0,8,00,00,FE,00,04,00,00,00,
485526,0000011B,false,Rx,0,8,FD,65,7C,05,80,08,A8,02,
485861,0000012B,false,Rx,0,8,BA,9F,7C,06,00,00,08,00,
485887,000004DF,false,Rx,0,8,FF,03,0C,3F,00,00,00,00,
485905,000004E7,false,Rx,0,8,00,30,00,00,00,00,69,00,
487380,000001FB,false,Rx,0,8,80,31,D9,00,00,00,00,00,
487413,000004E8,false,Rx,0,8,FF,FF,FF,05,FF,FF,FF,00,
487431,000001FC,false,Rx,0,8,00,00,00,00,00,00,00,00,
487449,000004E9,false,Rx,0,8,12,00,00,34,00,00,50,00,
487466,000001FD,false,Rx,0,8,00,1A,03,00,00,00,00,00,
487558,000001FE,false,Rx,0,8,00,00,00,00,00,00,00,00,
488595,000004EB,false,Rx,0,8,10,80,34,38,80,00,00,00,
488622,000003A1,false,Rx,0,8,EA,34,FE,00,FF,FF,FF,FF,
488640,000004EC,false,Rx,0,8,00,00,00,00,00,00,00,00,
488658,000003A2,false,Rx,0,8,00,00,00,00,00,00,00,00,
490036,000004ED,false,Rx,0,8,00,00,00,00,00,FF,FF,1F,
490083,000004EE,false,Rx,0,8,FF,FF,00,00,00,00,00,00,
490101,000004EF,false,Rx,0,8,60,00,60,00,29,14,00,00,
490502,0000063D,false,Rx,0,8,00,80,00,00,00,00,00,00,
490526,0000063E,false,Rx,0,8,FF,FF,FF,FF,FF,FF,FF,FF,
490653,0000063F,false,Rx,0,8,00,10,00,C4,FF,00,00,00,
490677,00000640,false,Rx,0,8,FF,FF,FF,00,FF,FF,FF,00,
490696,00000641,false,Rx,0,8,FF,FF,FF,FF,0F,FF,FF,FF,
491832,00000646,false,Rx,0,8,00,00,00,80,01,00,00,00,
494597,0000019B,false,Rx,0,8,7E,6A,89,00,00,E4,00,00,
495574,0000019C,false,Rx,0,8,40,20,00,00,00,00,0B,09,
495598,0000019D,false,Rx,0,8,00,10,00,01,00,00,00,00,
495616,0000019E,false,Rx,0,8,15,00,00,00,00,32,00,00,
499586,0000033B,false,Rx,0,8,A6,5D,DB,00,00,00,00,00,
501145,0000033C,false,Rx,0,8,00,00,00,00,F0,00,00,00,
501180,0000033D,false,Rx,0,8,00,00,00,00,00,00,00,00,
501198,0000033E,false,Rx,0,8,00,00,00,00,00,00,00,00,
503609,000000FF,false,Rx,0,8,CB,10,00,00,00,00,02,00,
504599,00000121,false,Rx,0,8,0A,C7,8C,00,00,00,00,05,
504643,00000394,false,Rx,0,8,2A,22,1A,49,00,00,00,00,
504661,00000122,false,Rx,0,8,FF,D9,67,1F,48,46,48,47,
504679,000003C3,false,Rx,0,8,45,10,31,30,36,00,00,00,
505820,00000123,false,Rx,0,8,11,03,00,00,00,00,01,35,
505869,000003E0,false,Rx,0,8,66,20,01,00,54,03,00,00,
505887,00000124,false,Rx,0,8,00,00,0A,00,00,00,20,40,
507529,000003E5,false,Rx,0,8,37,80,01,00,00,00,00,00,
507679,0000041A,false,Rx,0,8,8D,D0,12,00,00,00,00,00,
507698,000003E6,false,Rx,0,8,67,90,00,00,00,00,00,00,
507716,0000041B,false,Rx,0,8,70,D0,00,00,00,00,00,00,
507733,00000091,false,Rx,0,8,89,EE,D9,13,00,00,00,00,
507751,00000093,false,Rx,0,8,00,00,00,00,00,00,00,00,
508578,00000432,false,Rx,0,8,03,20,02,00,00,00,00,00,
508599,00000036,false,Rx,0,8,E7,57,8E,51,00,00,25,01,
508617,00000037,false,Rx,0,8,3B,00,00,10,00,40,00,00,
508634,00000435,false,Rx,0,8,26,C0,00,40,00,00,00,00,
510148,00000038,false,Rx,0,8,04,00,00,00,90,38,96,D4,
510183,00000442,false,Rx,0,8,CE,20,11,81,00,00,00,00,
510202,00000039,false,Rx,0,8,00,00,00,00,00,00,00,00,
510219,00000444,false,Rx,0,8,D5,20,20,50,55,50,00,00,
510252,00000094,false,Rx,0,8,00,00,00,00,00,00,00,00,
510621,00000061,false,Rx,0,8,F0,8A,94,00,00,00,00,00,
510655,00000464,false,Rx,0,8,D5,20,F0,FF,38,7F,05,00,
511580,00000062,false,Rx,0,8,02,02,00,02,40,FF,00,FF,
511608,00000256,false,Rx,0,8,9F,33,D8,15,40,00,40,01,
511626,00000063,false,Rx,0,8,00,00,05,00,00,08,FD,00,
511644,00000257,false,Rx,0,8,00,94,42,21,86,07,00,94,
513339,00000064,false,Rx,0,8,00,00,00,04,FF,FA,00,00,
513388,00000258,false,Rx,0,8,0C,76,1E,00,10,15,00,28,
513406,000000A1,false,Rx,0,8,37,D8,94,1A,00,00,00,00,
513423,00000259,false,Rx,0,8,7C,05,8D,3C,4C,02,00,00,
513810,000000A2,false,Rx,0,8,00,00,00,00,00,00,00,00,
513838,000002E7,false,Rx,0,8,0A,00,00,00,00,00,00,00,
513859,000002E8,false,Rx,0,8,00,00,00,00,00,00,00,00,
515252,000002E9,false,Rx,0,8,00,00,00,00,00,00,00,00,
516609,00000146,false,Rx,0,8,B5,CC,3D,10,04,05,00,00,
518059,00000147,false,Rx,0,8,01,04,7D,00,40,97,08,00,
518094,00000148,false,Rx,0,8,00,00,42,00,1E,93,40,05,
518112,00000149,false,Rx,0,8,00,38,00,D4,00,00,00,00,
521186,000001E6,false,Rx,0,8,B1,28,B2,02,00,00,00,00,
521221,000001E7,false,Rx,0,8,00,00,22,03,20,01,00,00,
521239,000001BB,false,Rx,0,8,C5,1B,B2,02,00,00,00,0A,
521612,000001BC,false,Rx,0,8,32,00,00,00,02,00,00,00,
521643,000001BD,false,Rx,0,8,00,00,00,00,00,00,00,00,
522580,000001B1,false,Rx,0,8,28,CE,3D,00,72,00,00,00,
522606,000001B2,false,Rx,0,8,23,00,04,EF,25,07,52,10,
522623,000001B3,false,Rx,0,8,25,39,4B,00,7F,90,8E,8D,
522641,000001B4,false,Rx,0,8,77,88,10,00,00,41,01,00,
525720,000002BF,false,Rx,0,8,FF,FF,FF,00,00,00,00,00,
526883,00000161,false,Rx,0,8,06,5B,40,03,00,00,00,02,
528150,0000047F,false,Rx,0,8,FF,FC,FF,FF,FF,3F,F3,FF,
528308,00000162,false,Rx,0,8,FF,FC,01,00,00,00,00,00,
528325,00000653,false,Rx,0,8,0A,19,03,01,02,2A,00,00,
528343,0000010B,false,Rx,0,8,EC,D3,90,00,00,00,00,05,
528361,0000010C,false,Rx,0,8,FF,F9,E7,1F,46,44,46,46,
531588,00000475,false,Rx,0,8,12,00,00,00,00,00,00,00,
531623,00000496,false,Rx,0,8,12,00,00,00,00,00,00,00,
534612,0000011B,false,Rx,0,8,C9,BD,81,05,80,08,A8,02,
534652,0000011C,false,Rx,0,8,00,05,20,00,22,00,01,01,
535604,0000012B,false,Rx,0,8,8E,47,81,06,00,00,08,00,
535637,00000111,false,Rx,0,8,9E,4C,E2,01,00,00,00,00,
535655,0000012C,false,Rx,0,8,00,00,01,00,00,64,00,00,
535672,00000112,false,Rx,0,8,00,00,00,00,00,00,00,00,
536613,00000113,false,Rx,0,8,00,00,00,00,00,00,00,00,
536647,00000114,false,Rx,0,8,00,00,00,00,00,00,00,00,
544606,0000019B,false,Rx,0,8,8D,F4,8E,00,00,E4,00,00,
545596,0000019C,false,Rx,0,8,40,20,00,00,00,00,0B,09,
545646,0000019D,false,Rx,0,8,00,10,00,01,00,00,00,00,
545664,0000019E,false,Rx,0,8,15,00,00,00,00,32,00,00,
545682,000001AB,false,Rx,0,8,EC,0F,97,50,70,38,00,00,
546978,000001AC,false,Rx,0,8,00,28,00,00,00,00,00,00,
547013,000002FF,false,Rx,0,8,E2,01,00,F1,3F,00,00,00,
547031,00000472,false,Rx,0,8,5C,EC,00,40,08,41,00,45,
547049,00000316,false,Rx,0,8,46,CE,DC,04,13,80,0A,00,
547067,00000473,false,Rx,0,8,5F,24,00,25,00,00,00,78,
548783,00000317,false,Rx,0,8,00,00,05,00,00,00,00,00,
548817,00000474,false,Rx,0,8,93,44,00,00,00,00,00,14,
548835,0000030B,false,Rx,0,8,84,49,DB,00,04,00,00,00,
548853,0000030C,false,Rx,0,8,00,00,0E,00,2C,00,A0,0F,
550165,0000030D,false,Rx,0,8,00,00,00,00,49,00,00,00,
550201,0000030E,false,Rx,0,8,00,00,38,05,21,00,00,FE,
553105,0000036F,false,Rx,0,8,20,41,01,00,00,00,00,00,
553142,0000037F,false,Rx,0,8,8B,D0,52,24,41,02,00,00,
554589,00000121,false,Rx,0,8,C2,C5,91,00,00,00,00,05,
554619,00000122,false,Rx,0,8,FF,D9,67,1F,48,46,48,47,
554636,00000123,false,Rx,0,8,11,03,00,00,00,00,01,35,
556401,00000124,false,Rx,0,8,00,00,0A,00,00,00,20,40,
556437,000001A1,false,Rx,0,8,D2,20,41,FE,F7,7F,64,00,
556455,000001A2,false,Rx,0,8,00,00,00,00,00,08,00,00,
556473,000001A3,false,Rx,0,8,FF,F3,3F,00,00,00,00,00,
556490,000001A4,false,Rx,0,8,FE,07,00,00,00,00,00,00,
558303,00000036,false,Rx,0,8,2F,55,93,51,00,00,25,01,
558338,00000037,false,Rx,0,8,3B,00,00,10,00,40,00,00,
558356,00000038,false,Rx,0,8,04,00,00,00,90,38,96,D4,
558374,00000039,false,Rx,0,8,00,00,00,00,00,00,00,00,
558404,00000565,false,Rx,0,8,66,02,00,00,00,00,FF,FF,
560593,00000061,false,Rx,0,8,FD,4C,99,00,00,00,00,00,
560632,00000062,false,Rx,0,8,02,02,00,02,40,FF,00,FF,
560651,00000063,false,Rx,0,8,00,00,05,00,00,08,FD,00,
560669,00000064,false,Rx,0,8,00,00,00,04,FF,FA,00,00,
561569,000000A1,false,Rx,0,8,01,9B,99,1A,00,00,00,00,
561591,000000A2,false,Rx,0,8,00,00,00,00,00,00,00,00,
561609,000000A3,false,Rx,0,8,00,40,01,00,00,00,00,00,
565604,000001F1,false,Rx,0,8,8E,FC,85,01,00,00,28,00,
565645,000001F2,false,Rx,0,8,00,00,00,00,00,00,00,00,
569599,00000236,false,Rx,0,8,3F,3F,DB,00,6E,3C,34,6C,
569643,000002FB,false,Rx,0,8,22,36,DB,04,5F,1A,CC,CC,
569661,00000151,false,Rx,0,8,A6,9C,DB,A0,C8,00,28,19,
569679,00000237,false,Rx,0,8,00,15,BA,00,00,A7,1E,00,
570654,00000152,false,Rx,0,8,16,18,18,00,0B,00,00,00,
570686,000001F6,false,Rx,0,8,95,BF,DB,00,00,00,00,0E,
570704,00000153,false,Rx,0,8,00,00,00,00,00,00,00,00,
571866,000001F7,false,Rx,0,8,0B,00,00,00,00,00,00,00,
572133,00000154,false,Rx,0,8,00,00,00,00,00,00,00,00,
572153,000001F8,false,Rx,0,8,00,00,00,00,00,00,00,00,
572170,000002FC,false,Rx,0,8,10,00,16,19,00,00,8E,BF,
572188,000001F9,false,Rx,0,8,00,00,A0,C8,14,00,00,00,
572205,000002FD,false,Rx,0,8,00,00,00,00,00,1C,0E,EA,
573677,000002FE,false,Rx,0,8,00,00,72,01,00,28,00,00,
574625,00000239,false,Rx,0,8,00,00,00,00,01,00,00,00,
574648,00000326,false,Rx,0,8,6F,E1,DB,00,00,00,00,00,
575030,0000025B,false,Rx,0,8,16,F2,DB,40,40,20,00,00,
575059,00000327,false,Rx,0,8,00,00,00,00,05,00,00,00,
575077,0000025C,false,Rx,0,8,00,00,0B,00,34,89,19,00,
575095,00000331,false,Rx,0,8,7C,AE,DB,F1,C8,A0,2C,97,
575113,00000380,false,Rx,0,8,73,DE,00,0C,0C,0C,0C,01,
575599,00000332,false,Rx,0,8,94,02,00,00,00,00,00,00,
575629,00000382,false,Rx,0,8,B9,66,1B,00,00,05,05,00,
576569,00000333,false,Rx,0,8,00,00,00,1C,0C,40,20,A0,
576593,00000383,false,Rx,0,8,FC,DC,02,10,01,00,00,00,
576611,00000334,false,Rx,0,8,C8,00,00,00,AC,70,1D,90,
576628,0000010B,false,Rx,0,8,D6,0C,95,00,00,00,00,05,
578006,00000405,false,Rx,0,8,BD,30,00,00,00,01,00,00,
578039,0000010C,false,Rx,0,8,FF,F9,E7,1F,46,44,46,46,
578057,00000410,false,Rx,0,8,4B,80,59,3C,16,6B,FF,FF,
578075,0000010D,false,Rx,0,8,0F,03,00,00,00,00,01,35,
578469,00000411,false,Rx,0,8,A8,01,50,50,00,00,44,04,
578507,000002AB,false,Rx,0,8,54,B8,DC,0C,0C,00,00,00,
578528,00000412,false,Rx,0,8,6D,60,00,00,00,00,00,00,
578665,000002AC,false,Rx,0,8,00,FF,FF,00,00,40,00,50,
580372,00000413,false,Rx,0,8,6F,30,00,00,00,00,00,00,
580407,00000251,false,Rx,0,8,A1,5A,DB,00,00,00,00,00,
580425,000002AD,false,Rx,0,8,00,01,00,40,FF,FF,FF,0F,
580443,00000252,false,Rx,0,8,00,00,1B,1B,03,00,00,00,
580461,000002AE,false,Rx,0,8,01,00,FF,3F,01,01,00,00,
580594,00000396,false,Rx,0,8,8C,2B,ED,0F,08,02,00,02,
581582,000002B7,false,Rx,0,8,EA,01,F0,78,00,04,00,00,
581607,00000397,false,Rx,0,8,31,00,00,00,00,00,00,00,
581624,000002B8,false,Rx,0,8,AA,11,11,00,00,00,00,00,
581642,00000398,false,Rx,0,8,00,00,00,00,00,00,00,00,
582574,000002B9,false,Rx,0,8,0A,00,00,00,00,00,00,00,
582598,00000414,false,Rx,0,8,F0,10,00,00,28,00,00,00,
582616,000002E1,false,Rx,0,8,77,9D,DC,00,00,00,00,40,
582634,00000416,false,Rx,0,8,55,00,00,00,00,00,00,00,
583569,000002E2,false,Rx,0,8,FD,00,00,00,00,14,00,04,
583590,00000417,false,Rx,0,8,5F,20,00,00,00,00,00,00,
583607,000002E3,false,Rx,0,8,00,00,00,00,00,00,72,01,
583625,00000418,false,Rx,0,8,19,70,00,00,12,0C,00,00,
584569,000002E4,false,Rx,0,8,02,00,00,00,00,00,00,00,
584590,00000419,false,Rx,0,8,68,60,66,D6,69,86,90,00,
584608,00000487,false,Rx,0,8,00,00,00,00,00,00,00,00,
584625,0000048F,false,Rx,0,8,AD,10,41,00,05,00,00,00,
585569,0000011B,false,Rx,0,8,56,D5,86,05,80,08,A8,02,
585590,0000012B,false,Rx,0,8,11,2F,86,06,00,00,08,00,
585608,0000011C,false,Rx,0,8,00,05,20,00,22,00,01,01,
585626,0000012C,false,Rx,0,8,00,00,01,00,00,64,00,00,
586566,00000642,false,Rx,0,8,FF,FF,FF,FF,FF,FF,00,00,
594616,0000019B,false,Rx,0,8,45,F6,93,00,00,E4,00,00,
595565,0000019C,false,Rx,0,8,40,20,00,00,00,00,0B,09,
595588,0000019D,false,Rx,0,8,00,10,00,01,00,00,00,00,
595607,0000019E,false,Rx,0,8,15,00,00,00,00,32,00,00,
596562,000002D6,false,Rx,0,8,1F,56,ED,00,00,00,00,00,
596596,000002D7,false,Rx,0,8,00,00,00,00,03,00,00,00,
597572,000002EB,false,Rx,0,8,16,5F,ED,08,08,01,00,02,
597594,000002D8,false,Rx,0,8,00,00,00,00,00,00,38,45,
597612,000002EC,false,Rx,0,8,22,00,00,00,00,00,00,00,
597629,000002D9,false,Rx,0,8,00,00,00,00,00,00,00,00,
598566,000002ED,false,Rx,0,8,00,00,00,00,00,00,00,00,
598589,000002EE,false,Rx,0,8,00,00,00,00,00,00,00,00,
601564,00000356,false,Rx,0,8,19,F4,EE,00,00,00,00,00,
601585,00000357,false,Rx,0,8,00,00,00,00,00,4B,4D,48,
601603,00000358,false,Rx,0,8,35,41,45,4D,52,37,33,4F,
601621,00000359,false,Rx,0,8,51,4F,34,52,4A,35,33,00,
604565,00000121,false,Rx,0,8,31,5B,96,00,00,00,00,05,
604588,00000122,false,Rx,0,8,FF,D9,67,1F,48,46,48,47,
604606,00000123,false,Rx,0,8,11,03,00,00,00,00,01,35,
605566,00000124,false,Rx,0,8,00,00,0A,00,00,00,20,40,
606564,00000091,false,Rx,0,8,0D,27,DA,13,00,00,00,00,
607572,00000092,false,Rx,0,8,2C,00,00,00,C0,02,00,00,
607594,00000093,false,Rx,0,8,00,00,00,00,00,00,00,00,
607612,00000094,false,Rx,0,8,00,00,00,00,00,00,00,00,
607629,00000036,false,Rx,0,8,97,54,98,51,00,00,25,01,
608566,00000037,false,Rx,0,8,3B,00,00,10,00,40,00,00,
608589,00000038,false,Rx,0,8,04,00,00,00,90,38,96,D4,
608607,00000039,false,Rx,0,8,00,00,00,00,00,00,00,00,
610563,00000061,false,Rx,0,8,0E,D2,9E,00,00,00,00,00,
610585,00000062,false,Rx,0,8,02,02,00,02,40,FF,00,FF,
610603,00000063,false,Rx,0,8,00,00,05,00,00,08,FD,00,
610621,00000064,false,Rx,0,8,00,00,00,04,FF,FA,00,00,
611566,000000A1,false,Rx,0,8,08,1E,9E,1A,00,00,00,00,
611589,000003B6,false,Rx,0,8,3C,37,EC,00,00,00,00,46,
611606,000000A2,false,Rx,0,8,00,00,00,00,00,00,00,00,
611624,000003B7,false,Rx,0,8,46,00,00,00,00,00,00,00,
612566,000000A3,false,Rx,0,8,00,40,01,00,00,00,00,00,
612588,000003B8,false,Rx,0,8,0D,03,00,00,00,00,69,0E,
612605,000003B9,false,Rx,0,8,00,00,00,00,00,00,00,00,
614564,000004A3,false,Rx,0,8,80,00,48,0B,3E,00,00,00,
614588,000004A4,false,Rx,0,8,FF,FF,FF,00,00,00,00,00,
615613,000001E1,false,Rx,0,8,CE,0C,B5,02,00,00,00,00,
615645,000001E2,false,Rx,0,8,00,00,00,00,00,00,00,00,
617007,00000146,false,Rx,0,8,DB,00,42,10,04,05,00,00,
617041,00000147,false,Rx,0,8,01,04,7D,00,40,98,08,00,
617060,00000148,false,Rx,0,8,00,00,42,00,1E,93,40,05,
617587,00000149,false,Rx,0,8,00,38,00,D4,00,00,00,00,
621567,000001B1,false,Rx,0,8,B0,C4,42,00,72,00,00,00,
622569,000001B2,false,Rx,0,8,23,00,04,EF,25,07,52,10,
622589,000001B3,false,Rx,0,8,25,39,4B,00,7F,90,8E,8D,
622607,000001B4,false,Rx,0,8,77,88,10,00,00,41,01,00,
624564,00000161,false,Rx,0,8,F0,73,45,03,00,00,00,02,
624585,00000162,false,Rx,0,8,FF,FC,01,00,00,00,00,00,
625574,00000495,false,Rx,0,8,49,00,00,00,00,00,00,00,
626568,000003AA,false,Rx,0,8,FF,00,B0,00,54,00,00,00,
626588,0000010B,false,Rx,0,8,E4,5E,9A,00,00,00,00,05,
627569,0000010C,false,Rx,0,8,FF,F9,E7,1F,46,45,46,46,
627593,0000010D,false,Rx,0,8,10,03,00,00,00,00,01,35,
627611,0000010E,false,Rx,0,8,00,00,1E,00,00,C0,AB,57,
633563,000003B0,false,Rx,0,8,72,37,FF,C7,00,00,03,C0,
634574,0000011B,false,Rx,0,8,25,EC,8B,05,80,08,A8,02,
634594,0000011C,false,Rx,0,8,00,05,20,00,22,00,01,01,
635572,0000012B,false,Rx,0,8,62,16,8B,06,00,00,08,00,
635592,0000012C,false,Rx,0,8,00,00,01,00,00,64,00,00,
635609,000003B1,false,Rx,0,8,9B,3C,FF,40,00,00,20,00,
637568,00000448,false,Rx,0,8,00,C0,00,00,00,00,00,00,
639564,00000384,false,Rx,0,8,C5,8D,05,01,00,FF,00,14,
642565,00000401,false,Rx,0,8,A9,30,10,00,00,04,00,00,
643566,000003B2,false,Rx,0,8,36,15,FF,02,29,2F,34,00,
645564,0000019B,false,Rx,0,8,FD,F7,98,00,00,E4,00,00,
645585,0000019C,false,Rx,0,8,40,20,00,00,00,00,0B,09,
645603,0000019D,false,Rx,0,8,00,10,00,01,00,00,00,00,
645627,0000019E,false,Rx,0,8,15,00,00,00,00,32,00,00,
645645,000001AB,false,Rx,0,8,24,F6,9C,50,70,38,00,00,
646574,00000226,false,Rx,0,8,D8,F1,B9,FF,30,E1,05,42,
646596,000001AC,false,Rx,0,8,00,28,00,00,00,00,00,00,
646614,00000227,false,Rx,0,8,02,70,E1,08,00,F2,17,04,
646632,0000042A,false,Rx,0,8,9F,1D,02,02,00,10,00,00,
648563,00000427,false,Rx,0,8,1D,86,FF,00,80,0A,00,00,
650564,00000566,false,Rx,0,8,16,02,00,00,00,00,FF,FF,
653752,0000036F,false,Rx,0,8,99,51,01,00,00,00,00,00,
653786,0000037F,false,Rx,0,8,5D,E0,52,24,41,02,00,00,
654635,00000121,false,Rx,0,8,3C,9D,9B,00,00,00,00,05,
655488,00000122,false,Rx,0,8,FF,D9,67,1F,48,46,48,47,
655529,00000123,false,Rx,0,8,11,03,00,00,00,00,01,35,
655664,00000124,false,Rx,0,8,00,00,0A,00,00,00,20,40,
655690,000001A1,false,Rx,0,8,21,BE,46,FE,F7,7F,64,00,
655708,000001A2,false,Rx,0,8,00,00,00,00,00,08,00,00,
655725,000001A3,false,Rx,0,8,FF,F3,3F,00,00,00,00,00,
656601,000001A4,false,Rx,0,8,FE,07,00,00,00,00,00,00,
657564,00000036,false,Rx,0,8,E8,78,9D,51,00,00,25,01,
658577,00000037,false,Rx,0,8,3B,00,00,10,00,40,00,00,
658603,00000038,false,Rx,0,8,04,00,00,00,90,38,96,D4,
658620,00000039,false,Rx,0,8,00,00,00,00,00,00,00,00,
660572,00000061,false,Rx,0,8,6D,49,A3,00,00,00,00,00,
660595,00000062,false,Rx,0,8,02,02,00,02,40,FF,00,FF,
660614,00000063,false,Rx,0,8,00,00,05,00,00,08,FD,00,
660631,00000064,false,Rx,0,8,00,00,00,04,FF,FA,00,00,
661965,000000A1,false,Rx,0,8,CB,9D,A3,1A,00,00,00,00,
661999,000000A2,false,Rx,0,8,00,00,00,00,00,00,00,00,
662018,000000A3,false,Rx,0,8,00,40,01,00,00,00,00,00,
671592,000001E6,false,Rx,0,8,2E,40,B5,02,00,00,00,00,
671629,000001E7,false,Rx,0,8,00,00,22,03,20,01,00,00,
671653,000001BB,false,Rx,0,8,CC,9E,B5,02,00,00,00,0A,
671671,000001BC,false,Rx,0,8,32,00,00,00,02,00,00,00,
672604,000001BD,false,Rx,0,8,00,00,00,00,00,00,00,00,
676594,0000010B,false,Rx,0,8,9B,72,9F,00,00,00,00,05,
677602,0000010C,false,Rx,0,8,FF,F9,E7,1F,46,45,46,46,
677631,0000010D,false,Rx,0,8,10,03,00,00,00,00,01,35,
677649,0000010E,false,Rx,0,8,00,00,1E,00,00,C0,AB,57,
678582,00000419,false,Rx,0,8,9F,70,66,D6,6D,86,90,00,
678607,000002C1,false,Rx,0,8,4B,86,EF,21,00,41,00,AC,
680053,000002C2,false,Rx,0,8,1B,00,00,00,00,00,00,00,
680087,000002C3,false,Rx,0,8,00,00,00,00,00,00,00,00,
680105,000002C4,false,Rx,0,8,00,00,00,00,00,00,00,00,
684638,0000011B,false,Rx,0,8,E7,36,90,05,80,08,A8,02,
685612,000000C5,false,Rx,0,8,00,00,00,00,00,00,00,00,
685645,0000011C,false,Rx,0,8,00,05,20,00,22,00,01,01,
685663,0000012B,false,Rx,0,8,A0,CC,90,06,00,00,08,00,
685681,00000244,false,Rx,0,8,FF,FF,FF,FF,FF,FF,FF,FF,
686579,0000012C,false,Rx,0,8,00,00,01,00,00,64,00,00,
686603,000001FB,false,Rx,0,8,0C,83,DB,00,00,00,00,00,
686621,0000041F,false,Rx,0,8,00,0C,00,00,00,00,00,00,
686638,000001FC,false,Rx,0,8,00,00,00,00,00,00,00,00,
687572,000004B4,false,Rx,0,8,00,00,00,00,00,00,00,00,
687594,000001FD,false,Rx,0,8,00,1A,03,00,00,00,00,00,
687612,000004B5,false,Rx,0,8,08,00,F0,07,00,00,00,00,
687630,000001FE,false,Rx,0,8,00,00,00,00,00,00,00,00,
688568,000004B7,false,Rx,0,8,08,00,F0,07,00,00,00,00,
688590,000003A1,false,Rx,0,8,CE,9C,FF,00,FF,FF,FF,FF,
688607,000004CA,false,Rx,0,8,00,00,00,00,00,00,00,00,
688625,000003A2,false,Rx,0,8,00,00,00,00,00,00,00,00,
690065,000004CC,false,Rx,0,8,08,00,00,06,00,00,03,00,
690112,000004CE,false,Rx,0,8,14,01,FF,FF,FF,FF,FF,FF,
690130,000004D7,false,Rx,0,8,23,01,00,00,00,00,00,00,
690148,000004D8,false,Rx,0,8,41,10,F0,F0,40,F2,1E,CC,
690165,000004DD,false,Rx,0,8,00,00,FE,00,04,00,00,00,
690638,000004DF,false,Rx,0,8,FF,03,0C,3F,00,00,00,00,
690673,000004E7,false,Rx,0,8,00,30,00,00,00,00,69,00,
690696,000004E8,false,Rx,0,8,FF,FF,FF,05,FF,FF,FF,00,
692545,000004E9,false,Rx,0,8,12,00,00,34,00,00,50,00,
692578,000004EA,false,Rx,0,8,67,00,00,89,00,00,00,00,
692596,000004EB,false,Rx,0,8,10,80,34,38,80,00,00,00,
692614,000004EC,false,Rx,0,8,00,00,00,00,00,00,00,00,
692631,000004ED,false,Rx,0,8,00,00,00,00,00,FF,FF,1F,
692649,000004EF,false,Rx,0,8,60,00,60,00,29,14,00,00,
693763,0000063D,false,Rx,0,8,00,80,00,00,00,00,00,00,
693798,0000063E,false,Rx,0,8,FF,FF,FF,FF,FF,FF,FF,FF,
693816,0000063F,false,Rx,0,8,00,10,00,C4,FF,00,00,00,
693833,00000640,false,Rx,0,8,FF,FF,FF,00,FF,FF,FF,00,
695452,00000641,false,Rx,0,8,FF,FF,FF,FF,0F,FF,FF,FF,
695517,00000646,false,Rx,0,8,00,00,00,80,01,00,00,00,
695535,0000019B,false,Rx,0,8,82,DB,9D,00,00,E4,00,00,
696464,0000019C,false,Rx,0,8,40,20,00,00,00,00,0B,09,
696483,0000019D,false,Rx,0,8,00,10,00,01,00,00,00,00,
696501,0000019E,false,Rx,0,8,15,00,00,00,00,32,00,00,
699592,0000033B,false,Rx,0,8,13,9A,DD,00,00,00,00,00,
700563,0000033C,false,Rx,0,8,00,00,00,00,F0,00,00,00,
700586,0000033D,false,Rx,0,8,00,00,00,00,00,00,00,00,
700603,0000033E,false,Rx,0,8,00,00,00,00,00,00,00,00,
703567,000000FF,false,Rx,0,8,CB,10,00,00,00,00,02,00,
704565,00000394,false,Rx,0,8,2A,22,1A,49,00,00,00,00,
704585,00000121,false,Rx,0,8,EA,C1,A0,00,00,00,00,05,
704602,000003C3,false,Rx,0,8,45,10,31,30,36,00,00,00,
704619,00000122,false,Rx,0,8,FF,D9,67,1F,48,46,48,47,
706021,000003E0,false,Rx,0,8,66,20,01,00,54,03,00,00,
706441,00000123,false,Rx,0,8,11,03,00,00,00,00,01,35,
706470,000003E5,false,Rx,0,8,37,80,01,00,00,00,00,00,
706489,00000124,false,Rx,0,8,00,00,0A,00,00,00,20,40,
706507,000003E6,false,Rx,0,8,67,90,00,00,00,00,00,00,
707813,0000041B,false,Rx,0,8,70,D0,00,00,00,00,00,00,
707833,0000041C,false,Rx,0,8,48,00,E0,00,00,00,00,00,
707850,00000091,false,Rx,0,8,22,4D,DB,13,00,00,00,00,
707868,00000422,false,Rx,0,8,9D,70,01,00,00,00,04,00,
707885,00000092,false,Rx,0,8,2F,00,00,00,F0,02,00,00,
707917,00000037,false,Rx,0,8,3B,00,00,10,00,40,00,00,
708563,00000435,false,Rx,0,8,26,C0,00,40,00,00,00,00,
708594,00000038,false,Rx,0,8,04,00,00,00,90,38,96,D4,
710029,00000442,false,Rx,0,8,CE,20,11,81,00,00,00,00,
710068,00000039,false,Rx,0,8,00,00,00,00,00,00,00,00,
710086,00000444,false,Rx,0,8,D5,20,20,50,55,50,00,00,
710498,00000093,false,Rx,0,8,00,00,00,00,00,00,00,00,
710520,00000445,false,Rx,0,8,C6,C0,00,00,00,00,00,18,
710647,00000061,false,Rx,0,8,D5,48,A8,00,00,00,00,00,
710681,00000464,false,Rx,0,8,D5,20,F0,FF,38,7F,05,00,
710700,00000062,false,Rx,0,8,02,02,00,02,40,FF,00,FF,
711986,00000256,false,Rx,0,8,69,C9,DA,15,40,00,40,01,
712024,00000063,false,Rx,0,8,00,00,05,00,00,08,FD,00,
712054,00000257,false,Rx,0,8,00,93,42,20,86,07,00,94,
712071,00000064,false,Rx,0,8,00,00,00,04,FF,FA,00,00,
712089,00000258,false,Rx,0,8,0C,78,1E,00,10,15,00,28,
712110,000000A1,false,Rx,0,8,F7,6C,A8,1A,00,00,00,00,
712604,00000259,false,Rx,0,8,7C,05,8D,3C,4C,02,00,00,
712629,000000A2,false,Rx,0,8,00,00,00,00,00,00,00,00,
713569,000002E6,false,Rx,0,8,24,5A,DA,01,00,00,00,15,
713591,000000A3,false,Rx,0,8,00,40,01,00,00,00,00,00,
713609,000002E7,false,Rx,0,8,0A,00,00,00,00,00,00,00,
713627,000002E8,false,Rx,0,8,00,00,00,00,00,00,00,00,
714823,000002E9,false,Rx,0,8,00,00,00,00,00,00,00,00,
714869,000001F1,false,Rx,0,8,FD,C5,88,01,00,00,28,00,
714887,000001F2,false,Rx,0,8,00,00,00,00,00,00,00,00,
716587,00000146,false,Rx,0,8,A4,2C,47,10,04,05,00,00,
717574,00000147,false,Rx,0,8,01,04,7D,00,40,98,08,00,
717595,00000148,false,Rx,0,8,00,00,42,00,1E,93,40,05,
717612,00000149,false,Rx,0,8,00,38,00,D4,00,00,00,00,
718573,00000419,false,Rx,0,8,9F,70,66,D6,6D,86,90,00,
721588,000001B1,false,Rx,0,8,CF,E8,47,00,72,00,00,00,
722700,000001B2,false,Rx,0,8,23,00,04,EF,25,07,52,10,
722736,000001B3,false,Rx,0,8,25,39,4B,00,7F,90,8E,8D,
722754,000001B4,false,Rx,0,8,77,88,10,00,00,41,01,00,
725586,000002BF,false,Rx,0,8,FF,FF,FF,00,00,00,00,00,
725621,00000161,false,Rx,0,8,EA,0A,4A,03,00,00,00,02,
725640,0000047F,false,Rx,0,8,FF,FC,FF,FF,FF,3F,F3,FF,
725657,00000162,false,Rx,0,8,FF,FC,01,00,00,00,00,00,
726799,00000653,false,Rx,0,8,0A,19,03,01,02,2A,00,00,
726834,0000010B,false,Rx,0,8,4D,2E,A4,00,00,00,00,05,
727261,0000010C,false,Rx,0,8,FF,F9,E7,1F,46,45,46,46,
727285,0000010D,false,Rx,0,8,10,03,00,00,00,00,01,35,
727303,0000010E,false,Rx,0,8,00,00,1E,00,00,C0,AB,57,
731572,00000475,false,Rx,0,8,12,00,00,00,00,00,00,00,
731592,00000496,false,Rx,0,8,12,00,00,00,00,00,00,00,
735081,0000011B,false,Rx,0,8,11,1E,95,05,80,08,A8,02,
735122,0000012B,false,Rx,0,8,56,E4,95,06,00,00,08,00,
735140,0000011C,false,Rx,0,8,00,05,20,00,22,00,01,01,
735158,0000012C,false,Rx,0,8,00,00,01,00,00,64,00,00,
735841,00000111,false,Rx,0,8,D8,15,E3,01,00,00,00,00,
735876,00000112,false,Rx,0,8,00,00,00,00,00,00,00,00,
735894,00000113,false,Rx,0,8,00,00,00,00,00,00,00,00,
736577,00000114,false,Rx,0,8,00,00,00,00,00,00,00,00,
745599,0000019B,false,Rx,0,8,6D,F2,A2,00,00,E4,00,00,
745639,0000019C,false,Rx,0,8,40,20,00,00,00,00,0B,09,
745658,0000019D,false,Rx,0,8,00,10,00,01,00,00,00,00,
745675,0000019E,false,Rx,0,8,15,00,00,00,00,32,00,00,
745693,000001AB,false,Rx,0,8,49,AA,A1,50,70,38,00,00,
746617,000001AC,false,Rx,0,8,00,28,00,00,00,00,00,00,
746654,000002FF,false,Rx,0,8,E2,01,00,F1,3F,00,00,00,
746672,00000472,false,Rx,0,8,5C,EC,00,40,08,41,00,45,
746690,00000316,false,Rx,0,8,62,66,DD,04,13,80,0A,00,
748171,00000473,false,Rx,0,8,5F,24,00,25,00,00,00,78,
748206,00000317,false,Rx,0,8,00,00,05,00,00,00,00,00,
748224,00000474,false,Rx,0,8,93,44,00,00,00,00,00,14,
748654,00000516,false,Rx,0,8,61,02,00,00,00,00,FF,FF,
748679,0000030B,false,Rx,0,8,02,18,DD,00,04,00,00,00,
749583,0000030C,false,Rx,0,8,00,00,0E,00,2C,00,A0,0F,
749611,0000030D,false,Rx,0,8,00,00,00,00,49,00,00,00,
749629,0000030E,false,Rx,0,8,00,00,38,05,21,00,00,02,
753045,0000036F,false,Rx,0,8,4F,61,01,00,00,00,00,00,
754470,0000037F,false,Rx,0,8,4D,00,52,24,41,02,00,00,
754506,00000121,false,Rx,0,8,95,ED,A5,00,00,00,00,05,
754523,00000122,false,Rx,0,8,FF,D9,67,1F,48,46,48,47,
754892,00000123,false,Rx,0,8,11,03,00,00,00,00,01,35,
754948,00000124,false,Rx,0,8,00,00,0A,00,00,00,20,40,
754969,00000415,false,Rx,0,8,40,13,10,00,08,01,00,00,
755990,000001A1,false,Rx,0,8,2C,78,4B,FE,F7,7F,64,00,
756025,000001A2,false,Rx,0,8,00,00,00,00,00,08,00,00,
756043,000001A3,false,Rx,0,8,FF,F3,3F,00,00,00,00,00,
756061,000001A4,false,Rx,0,8,FE,07,00,00,00,00,00,00,
757650,00000036,false,Rx,0,8,78,7D,A7,51,00,00,25,01,
757690,00000037,false,Rx,0,8,3B,00,00,10,00,40,00,00,
758631,00000038,false,Rx,0,8,04,00,00,00,90,38,96,D4,
758663,00000039,false,Rx,0,8,00,00,00,00,00,00,00,00,
758681,00000419,false,Rx,0,8,9F,70,66,D6,6D,86,90,00,
761593,00000061,false,Rx,0,8,AA,64,AD,00,00,00,00,00,
761628,00000062,false,Rx,0,8,02,02,00,02,40,FF,00,FF,
761646,00000063,false,Rx,0,8,00,00,05,00,00,08,FD,00,
761664,00000064,false,Rx,0,8,00,00,00,04,FF,FA,00,00,
761682,000000A1,false,Rx,0,8,F8,87,AD,1A,00,00,00,00,
765920,000001E1,false,Rx,0,8,BD,35,B8,02,00,00,00,00,
765960,000001E2,false,Rx,0,8,00,00,00,00,00,00,00,00,
769889,00000236,false,Rx,0,8,8A,F8,DD,00,6E,3C,34,6C,
769926,000002FB,false,Rx,0,8,97,F1,DD,04,5F,1A,CC,CC,
769945,00000237,false,Rx,0,8,00,15,BA,00,00,A7,1E,00,
769962,00000151,false,Rx,0,8,13,5B,DD,A0,C8,00,28,19,
769980,00000238,false,Rx,0,8,00,00,5F,00,00,00,00,00,
770567,00000152,false,Rx,0,8,16,18,18,00,0B,00,00,00,
770590,00000239,false,Rx,0,8,00,00,00,00,01,00,00,00,
771971,00000153,false,Rx,0,8,00,00,00,00,00,00,00,00,
772006,000001F6,false,Rx,0,8,20,78,DD,00,00,00,00,0E,
772024,00000154,false,Rx,0,8,00,00,00,00,00,00,00,00,
772042,000001F7,false,Rx,0,8,0B,00,00,00,00,00,00,00,
772060,000002FC,false,Rx,0,8,10,00,16,19,00,00,8E,BF,
773384,000002FD,false,Rx,0,8,00,00,00,00,00,1C,0E,EA,
773419,000001F9,false,Rx,0,8,00,00,A0,C8,14,00,00,00,
773437,000002FE,false,Rx,0,8,00,00,72,01,00,28,00,00,
773455,0000025B,false,Rx,0,8,B8,88,DD,40,40,20,00,00,
773473,00000326,false,Rx,0,8,DA,26,DD,00,00,00,00,00,
773872,00000327,false,Rx,0,8,00,00,00,00,05,00,00,00,
773896,0000025D,false,Rx,0,8,00,C8,00,00,00,80,C0,70,
775138,00000328,false,Rx,0,8,00,00,00,00,00,00,00,00,
775172,0000025E,false,Rx,0,8,AC,07,0E,0F,00,00,00,00,
775190,00000329,false,Rx,0,8,A0,00,00,00,00,00,00,00,
775208,00000380,false,Rx,0,8,73,DE,00,0C,0C,0C,0C,01,
775634,00000331,false,Rx,0,8,C9,69,DD,F1,C8,A0,2C,97,
775673,00000382,false,Rx,0,8,B9,66,1B,00,00,05,05,00,
775693,00000332,false,Rx,0,8,94,02,00,00,00,00,00,00,
776576,00000383,false,Rx,0,8,FC,DC,02,10,01,00,00,00,
776604,00000333,false,Rx,0,8,00,00,00,1C,0C,40,20,A0,
776622,00000405,false,Rx,0,8,BD,30,00,00,00,01,00,00,
776639,0000010B,false,Rx,0,8,F3,CE,A9,00,00,00,00,05,
778159,00000334,false,Rx,0,8,C8,00,00,00,AC,70,1D,90,
778193,0000010C,false,Rx,0,8,FF,F9,E7,1F,46,44,46,46,
778210,00000410,false,Rx,0,8,4B,80,59,3C,16,6B,FF,FF,
778228,0000010D,false,Rx,0,8,0F,03,00,00,00,00,01,35,
778246,00000411,false,Rx,0,8,A8,01,50,50,00,00,44,04,
778263,000002AB,false,Rx,0,8,D8,0A,DE,0C,0C,00,00,00,
778683,00000412,false,Rx,0,8,6D,60,00,00,00,00,00,00,
778710,000002AC,false,Rx,0,8,00,FF,FF,00,00,40,00,50,
779577,00000413,false,Rx,0,8,6F,30,00,00,00,00,00,00,
779613,00000251,false,Rx,0,8,4B,26,DD,00,00,00,00,00,
779630,000002AD,false,Rx,0,8,00,01,00,40,FF,FF,FF,0F,
779648,00000252,false,Rx,0,8,00,00,1B,1B,03,00,00,00,
780574,000002AE,false,Rx,0,8,01,00,FF,3F,01,01,00,00,
780594,00000253,false,Rx,0,8,00,00,00,56,55,00,80,44,
780611,000002B6,false,Rx,0,8,A2,3D,DE,01,00,00,00,40,
780629,00000396,false,Rx,0,8,2E,82,EE,0F,08,02,00,02,
781574,000002B7,false,Rx,0,8,EA,01,F0,78,00,04,00,00,
781596,00000397,false,Rx,0,8,35,00,00,00,00,00,00,00,
781614,000002B8,false,Rx,0,8,AA,11,11,00,00,00,00,00,
781631,00000398,false,Rx,0,8,00,00,00,00,00,00,00,00,
783333,000002B9,false,Rx,0,8,0A,00,00,00,00,00,00,00,
783368,00000414,false,Rx,0,8,F0,10,00,00,28,00,00,00,
783386,000002E1,false,Rx,0,8,FB,2F,DE,00,00,00,00,40,
783404,00000416,false,Rx,0,8,55,00,00,00,00,00,00,00,
783422,000002E2,false,Rx,0,8,FD,00,00,00,00,14,00,04,
783705,00000418,false,Rx,0,8,19,70,00,00,12,0C,00,00,
784569,000002E4,false,Rx,0,8,02,00,00,00,00,00,00,00,
784591,00000419,false,Rx,0,8,9F,70,66,D6,6D,86,90,00,
784609,00000487,false,Rx,0,8,00,00,00,00,00,00,00,00,
784626,00000642,false,Rx,0,8,FF,FF,FF,FF,FF,FF,00,00,
786129,0000011B,false,Rx,0,8,0B,67,9A,05,80,08,A8,02,
786164,0000012B,false,Rx,0,8,4C,9D,9A,06,00,00,08,00,
786182,0000011C,false,Rx,0,8,00,05,20,00,22,00,01,01,
786200,0000012C,false,Rx,0,8,00,00,01,00,00,64,00,00,
794620,0000019B,false,Rx,0,8,12,DE,A7,00,00,E4,00,00,
795599,0000019C,false,Rx,0,8,40,20,00,00,00,00,0B,09,
795632,0000019D,false,Rx,0,8,00,10,00,01,00,00,00,00,
795650,0000019E,false,Rx,0,8,15,00,00,00,00,32,00,00,
796583,000002D6,false,Rx,0,8,D5,BD,EE,00,00,00,00,00,
796605,000002D7,false,Rx,0,8,00,00,00,00,03,00,00,00,
797575,000002D8,false,Rx,0,8,00,00,00,00,00,00,38,45,
797597,000002EB,false,Rx,0,8,EC,C7,EE,09,08,01,00,02,
797614,000002D9,false,Rx,0,8,00,00,00,00,00,00,00,00,
797632,000002EC,false,Rx,0,8,0A,00,00,00,00,00,00,00,
798568,000002ED,false,Rx,0,8,00,00,00,00,00,00,00,00,
798590,000002EE,false,Rx,0,8,00,00,00,00,00,00,00,00,
801723,00000356,false,Rx,0,8,5F,AD,EF,00,00,00,00,00,
801760,00000357,false,Rx,0,8,00,00,00,00,00,4B,4D,48,
801778,00000358,false,Rx,0,8,35,41,45,4D,52,37,33,4F,
801795,00000359,false,Rx,0,8,51,4F,34,52,4A,35,33,00,
804184,00000121,false,Rx,0,8,14,99,AA,00,00,00,00,05,
804220,00000122,false,Rx,0,8,FF,D9,67,1F,48,46,48,47,
804613,00000123,false,Rx,0,8,11,03,00,00,00,00,01,35,
805582,00000124,false,Rx,0,8,00,00,0A,00,00,00,20,40,
807724,00000091,false,Rx,0,8,F6,C2,DC,13,00,00,00,00,
807760,00000092,false,Rx,0,8,2E,00,00,00,E0,02,00,00,
807778,00000093,false,Rx,0,8,00,00,00,00,00,00,00,00,
807796,00000094,false,Rx,0,8,00,00,00,00,00,00,00,00,
807814,00000036,false,Rx,0,8,C0,7C,AC,51,00,00,25,01,
807831,00000037,false,Rx,0,8,3B,00,00,10,00,40,00,00,
809191,00000038,false,Rx,0,8,04,00,00,00,90,38,96,D4,
809225,00000039,false,Rx,0,8,00,00,00,00,00,00,00,00,
810839,00000061,false,Rx,0,8,EE,D4,B2,00,00,00,00,00,
810874,00000062,false,Rx,0,8,02,02,00,02,40,FF,00,FF,
810892,00000063,false,Rx,0,8,00,00,05,00,00,08,FD,00,
810909,00000064,false,Rx,0,8,00,00,00,04,FF,FA,00,00,
811307,000000A1,false,Rx,0,8,9B,EA,B2,1A,00,00,00,00,
811327,000003B6,false,Rx,0,8,7A,6E,ED,00,00,00,00,46,
811345,000000A2,false,Rx,0,8,00,00,00,00,00,00,00,00,
811577,000003B7,false,Rx,0,8,46,00,00,00,00,00,00,00,
812568,000000A3,false,Rx,0,8,00,40,01,00,00,00,00,00,
812592,000003B8,false,Rx,0,8,0D,03,00,00,00,00,69,0E,
812610,000003B9,false,Rx,0,8,00,00,00,00,00,00,00,00,
816590,00000146,false,Rx,0,8,EA,EB,4C,10,04,05,00,00,
817597,00000147,false,Rx,0,8,01,04,7D,00,40,97,08,00,
817629,00000148,false,Rx,0,8,00,00,42,00,1E,93,40,05,
817648,00000149,false,Rx,0,8,00,38,00,D4,00,00,00,00,
819573,000004A3,false,Rx,0,8,80,00,48,0B,3E,00,00,00,
819597,000004A4,false,Rx,0,8,FF,FF,FF,00,00,00,00,00,
820563,000001E6,false,Rx,0,8,5D,79,B8,02,00,00,00,00,
820586,000001E7,false,Rx,0,8,00,00,22,03,20,01,00,00,
821563,000001BB,false,Rx,0,8,FA,DD,B8,02,00,00,00,0A,
821589,000001BC,false,Rx,0,8,32,00,00,00,02,00,00,00,
821606,000001BD,false,Rx,0,8,00,00,00,00,00,00,00,00,
822569,000001B1,false,Rx,0,8,77,E9,4C,00,72,00,00,00,
822594,000001B2,false,Rx,0,8,23,00,04,EF,25,07,52,10,
822612,000001B3,false,Rx,0,8,25,39,4B,00,7F,90,8E,8D,
822630,000001B4,false,Rx,0,8,77,88,10,00,00,41,01,00,
824568,00000161,false,Rx,0,8,1C,22,4F,03,00,00,00,02,
824591,00000162,false,Rx,0,8,FF,FC,01,00,00,00,00,00,
826847,00000495,false,Rx,0,8,49,00,00,00,00,00,00,00,
827267,000003AA,false,Rx,0,8,FF,00,B0,00,54,00,00,00,
828264,0000010B,false,Rx,0,8,45,A3,AE,00,00,00,00,05,
828288,0000010C,false,Rx,0,8,FF,F9,E7,1F,46,44,46,46,
828306,0000010D,false,Rx,0,8,10,03,00,00,00,00,01,35,
828324,0000010E,false,Rx,0,8,00,00,1E,00,00,C0,AB,57,
834603,000003B0,false,Rx,0,8,72,37,FF,C7,00,00,03,C0,
834638,0000011B,false,Rx,0,8,FD,4F,9F,05,80,08,A8,02,
834656,0000011C,false,Rx,0,8,00,05,20,00,22,00,01,01,
835596,0000012B,false,Rx,0,8,BA,B5,9F,06,00,00,08,00,
835621,0000012C,false,Rx,0,8,00,00,01,00,00,64,00,00,
835639,000003B1,false,Rx,0,8,9B,3C,FF,40,00,00,20,00,
837569,00000448,false,Rx,0,8,00,C0,00,00,00,00,00,00,
839565,00000384,false,Rx,0,8,C5,8D,05,01,00,FF,00,14,
842569,00000401,false,Rx,0,8,A9,30,10,00,00,04,00,00,
843568,000003B2,false,Rx,0,8,36,15,FF,02,29,2F,34,00,
845155,0000019B,false,Rx,0,8,AA,DF,AC,00,00,E4,00,00,
846566,0000019C,false,Rx,0,8,40,20,00,00,00,00,0B,09,
846596,00000561,false,Rx,0,8,63,02,00,00,00,00,FF,FF,
846613,0000019D,false,Rx,0,8,00,10,00,01,00,00,00,00,
846631,0000019E,false,Rx,0,8,15,00,00,00,00,32,00,00,
846649,000001AB,false,Rx,0,8,D6,C2,A6,50,70,38,00,00,
846666,00000227,false,Rx,0,8,02,70,E1,08,00,F2,17,04,
847571,0000042A,false,Rx,0,8,9F,1D,02,02,00,10,00,00,
848559,00000427,false,Rx,0,8,1D,86,FF,00,80,0A,00,00,
853563,0000036F,false,Rx,0,8,F6,71,01,00,00,00,00,00,
853582,0000037F,false,Rx,0,8,F4,10,52,24,41,02,00,00,
854564,00000121,false,Rx,0,8,6B,B5,AF,00,00,00,00,05,
854585,00000122,false,Rx,0,8,FF,D9,67,1F,48,46,48,47,
854602,00000123,false,Rx,0,8,11,03,00,00,00,00,01,35,
855565,00000124,false,Rx,0,8,00,00,0A,00,00,00,20,40,
855585,000001A1,false,Rx,0,8,51,BD,50,FE,F7,7F,64,00,
855603,000001A2,false,Rx,0,8,00,00,00,00,00,08,00,00,
856564,000001A3,false,Rx,0,8,FF,F3,3F,00,00,00,00,00,
856585,000001A4,false,Rx,0,8,FE,07,00,00,00,00,00,00,
857565,00000036,false,Rx,0,8,08,7E,B1,51,00,00,25,01,
858559,00000037,false,Rx,0,8,3B,00,00,10,00,40,00,00,
858579,00000038,false,Rx,0,8,04,00,00,00,90,38,96,D4,
858597,00000039,false,Rx,0,8,00,00,00,00,00,00,00,00,
859567,000004E8,false,Rx,0,8,FF,FF,FF,05,FF,FF,FF,00,
860559,00000061,false,Rx,0,8,91,F8,B7,00,00,00,00,00,
860580,00000062,false,Rx,0,8,02,02,00,02,40,FF,00,FF,
860598,00000063,false,Rx,0,8,00,00,05,00,00,08,FD,00,
860616,00000064,false,Rx,0,8,00,00,00,04,FF,FA,00,00,
861656,000000A1,false,Rx,0,8,94,01,B7,1A,00,00,00,00,
861686,000000A2,false,Rx,0,8,00,00,00,00,00,00,00,00,
861705,000000A3,false,Rx,0,8,00,40,01,00,00,00,00,00,
865583,000001F1,false,Rx,0,8,B0,2D,8B,01,00,00,28,00,
865609,000001F2,false,Rx,0,8,00,00,00,00,00,00,00,00,
876585,0000010B,false,Rx,0,8,8D,A1,B3,00,00,00,00,05,
877893,0000010C,false,Rx,0,8,FF,F9,E7,1F,46,44,46,46,
877927,0000010D,false,Rx,0,8,10,03,00,00,00,00,01,35,
877945,0000010E,false,Rx,0,8,00,00,1E,00,00,C0,AB,57,
879307,000002C1,false,Rx,0,8,0F,36,F0,21,00,41,00,AC,
879743,000002C2,false,Rx,0,8,1B,00,00,00,00,00,00,00,
879766,000002C3,false,Rx,0,8,00,00,00,00,00,00,00,00,
879783,000002C4,false,Rx,0,8,00,00,00,00,00,00,00,00,
885760,0000011B,false,Rx,0,8,2B,D3,A4,05,80,08,A8,02,
885796,0000012B,false,Rx,0,8,6C,29,A4,06,00,00,08,00,
886406,0000011C,false,Rx,0,8,00,05,20,00,22,00,01,01,
886463,0000012C,false,Rx,0,8,00,00,01,00,00,64,00,00,
886487,000001FB,false,Rx,0,8,B9,44,DD,00,00,00,00,00,
886505,000001FC,false,Rx,0,8,00,00,00,00,00,00,00,00,
888501,000001FD,false,Rx,0,8,00,1A,03,00,00,00,00,00,
888526,000001FE,false,Rx,0,8,00,00,00,00,00,00,00,00,
888706,000003A1,false,Rx,0,8,93,04,00,00,FF,FF,FF,FF,
888725,000003A2,false,Rx,0,8,00,00,00,00,00,00,00,00,
890196,000000C5,false,Rx,0,8,00,00,00,00,00,00,00,00,
890231,00000244,false,Rx,0,8,FF,FF,FF,FF,FF,FF,FF,FF,
890249,000004B4,false,Rx,0,8,00,00,00,00,00,00,00,00,
890644,000004B5,false,Rx,0,8,08,00,F0,07,00,00,00,00,
892064,000004B7,false,Rx,0,8,08,00,F0,07,00,00,00,00,
892099,000004CA,false,Rx,0,8,00,00,00,00,00,00,00,00,
892118,000004CC,false,Rx,0,8,08,00,00,06,00,00,03,00,
892135,000004CE,false,Rx,0,8,14,01,FF,FF,FF,FF,FF,FF,
892153,000004D7,false,Rx,0,8,23,01,00,00,00,00,00,00,
892170,000004D8,false,Rx,0,8,41,10,F0,F0,40,F2,1E,CC,
893253,000004DD,false,Rx,0,8,00,00,FE,00,04,00,00,00,
893701,000004DF,false,Rx,0,8,FF,03,0C,3F,00,00,00,00,
893727,000004E7,false,Rx,0,8,00,30,00,00,00,00,69,00,
893745,000004E9,false,Rx,0,8,12,00,00,34,00,00,50,00,
893763,000004EA,false,Rx,0,8,67,00,00,89,00,00,00,00,
893781,000004EB,false,Rx,0,8,10,80,34,38,80,00,00,00,
895127,000004EC,false,Rx,0,8,00,00,00,00,00,00,00,00,
895191,000004ED,false,Rx,0,8,00,00,00,00,00,FF,FF,1F,
895209,000004EE,false,Rx,0,8,FF,FF,00,00,00,00,00,00,
895226,0000019B,false,Rx,0,8,62,DD,B1,00,00,E4,00,00,
895244,000004EF,false,Rx,0,8,60,00,60,00,29,14,00,00,
895262,0000019C,false,Rx,0,8,40,20,00,00,00,00,0B,09,
896188,000004F0,false,Rx,0,8,4A,10,34,38,58,1A,18,02,
896593,0000019D,false,Rx,0,8,00,10,00,01,00,00,00,00,
896615,000004F1,false,Rx,0,8,00,C0,00,00,00,00,00,00,
897926,000004F9,false,Rx,0,8,E0,FF,FF,FF,FF,FF,FF,FF,
897959,0000063D,false,Rx,0,8,00,80,00,00,00,00,00,00,
897977,0000063E,false,Rx,0,8,FF,FF,FF,FF,FF,FF,FF,FF,
897995,0000063F,false,Rx,0,8,00,10,00,C4,FF,00,00,00,
898597,00000640,false,Rx,0,8,FF,FF,FF,00,FF,FF,FF,00,
898624,00000641,false,Rx,0,8,FF,FF,FF,FF,0F,FF,FF,FF,
898642,00000646,false,Rx,0,8,00,00,00,80,01,00,00,00,
899886,0000033B,false,Rx,0,8,9F,28,DF,00,00,00,00,00,
899920,0000033C,false,Rx,0,8,00,00,00,00,F0,00,00,00,
900605,0000033D,false,Rx,0,8,00,00,00,00,00,00,00,00,
900632,000004E8,false,Rx,0,8,FF,FF,FF,05,FF,FF,FF,00,
900650,0000033E,false,Rx,0,8,00,00,00,00,00,00,00,00,
904673,000000FF,false,Rx,0,8,CB,10,00,00,00,00,02,00,
904760,00000394,false,Rx,0,8,2A,22,1A,49,00,00,00,00,
904777,00000121,false,Rx,0,8,16,70,B4,00,00,00,00,05,
904795,000003C3,false,Rx,0,8,45,10,31,30,36,00,00,00,
904813,00000122,false,Rx,0,8,FF,D9,67,1F,48,46,48,47,
904831,000003E0,false,Rx,0,8,66,20,01,00,54,03,00,00,
905747,00000123,false,Rx,0,8,11,03,00,00,00,00,01,35,
905777,000003E5,false,Rx,0,8,37,80,01,00,00,00,00,00,
905795,00000124,false,Rx,0,8,00,00,0A,00,00,00,20,40,
905813,000003E6,false,Rx,0,8,67,90,00,00,00,00,00,00,
907231,0000041A,false,Rx,0,8,8D,D0,12,00,00,00,00,00,
907266,0000041B,false,Rx,0,8,70,D0,00,00,00,00,00,00,
907284,0000041C,false,Rx,0,8,48,00,E0,00,00,00,00,00,
907301,00000091,false,Rx,0,8,FE,B9,DD,13,00,00,00,00,
907319,00000422,false,Rx,0,8,9D,70,01,00,00,00,04,00,
907818,00000432,false,Rx,0,8,03,20,02,00,00,00,00,00,
907845,00000036,false,Rx,0,8,FB,E0,B6,51,00,00,25,01,
911156,00000037,false,Rx,0,8,3B,00,00,10,00,40,00,00,
912294,00000435,false,Rx,0,8,26,C0,00,40,00,00,00,00,
912716,00000038,false,Rx,0,8,04,00,00,00,90,38,96,D4,
912743,00000442,false,Rx,0,8,CE,20,11,81,00,00,00,00,
912761,00000039,false,Rx,0,8,00,00,00,00,00,00,00,00,
912794,00000257,false,Rx,0,8,00,93,42,1B,86,07,00,94,
912812,000000A1,false,Rx,0,8,A8,F0,BC,1A,00,00,00,00,
912829,000000A2,false,Rx,0,8,00,00,00,00,00,00,00,00,
913580,000002E7,false,Rx,0,8,0A,00,00,00,00,00,00,00,
913604,000000A3,false,Rx,0,8,00,40,01,00,00,00,00,00,
913622,000002E8,false,Rx,0,8,00,00,00,00,00,00,00,00,
914675,0000048B,false,Rx,0,8,11,11,30,1E,01,00,00,00,
914709,000002E9,false,Rx,0,8,00,00,00,00,00,00,00,00,
914727,0000048C,false,Rx,0,8,00,00,00,00,00,00,00,00,
915595,000001E1,false,Rx,0,8,F0,DD,BB,02,00,00,00,00,
915622,000001E2,false,Rx,0,8,00,00,00,00,00,00,00,00,
916725,00000146,false,Rx,0,8,D4,2F,51,10,04,05,00,00,
916900,00000147,false,Rx,0,8,01,04,7D,00,40,98,08,00,
918353,00000148,false,Rx,0,8,00,00,42,00,1E,93,40,05,
918388,00000149,false,Rx,0,8,00,38,00,D4,00,00,00,00,
921996,000001B1,false,Rx,0,8,BF,EB,51,00,72,00,00,00,
922032,000001B2,false,Rx,0,8,23,00,04,EF,25,07,52,10,
922050,000001B3,false,Rx,0,8,25,39,4B,00,7F,90,8E,8D,
923380,000001B4,false,Rx,0,8,77,88,10,00,00,41,01,00,
925611,000002BF,false,Rx,0,8,FF,FF,FF,00,00,00,00,00,
925830,00000161,false,Rx,0,8,DE,F8,54,03,00,00,00,02,
925848,0000047F,false,Rx,0,8,FF,FC,FF,FF,FF,3F,F3,FF,
925866,00000162,false,Rx,0,8,FF,FC,01,00,00,00,00,00,
925883,00000653,false,Rx,0,8,0A,19,03,01,02,2A,00,00,
926975,0000010B,false,Rx,0,8,35,A0,B8,00,00,00,00,05,
927010,0000010C,false,Rx,0,8,FF,F9,E7,1F,46,44,46,46,
927028,0000010D,false,Rx,0,8,10,03,00,00,00,00,01,35,
927448,0000010E,false,Rx,0,8,00,00,1E,00,00,C0,AB,57,
931956,00000475,false,Rx,0,8,12,00,00,00,00,00,00,00,
931995,00000496,false,Rx,0,8,12,00,00,00,00,00,00,00,
935849,0000011B,false,Rx,0,8,58,EA,A9,05,80,08,A8,02,
935884,0000011C,false,Rx,0,8,00,05,20,00,22,00,01,01,
935902,00000563,false,Rx,0,8,65,02,00,00,00,00,FF,FF,
936210,00000111,false,Rx,0,8,2B,8B,E4,01,00,00,00,00,
936233,0000012B,false,Rx,0,8,1F,10,A9,06,00,00,08,00,
936271,00000113,false,Rx,0,8,00,00,00,00,00,00,00,00,
936288,00000114,false,Rx,0,8,00,00,00,00,00,00,00,00,
939960,000004E8,false,Rx,0,8,FF,FF,FF,05,FF,FF,FF,00,
944614,0000019B,false,Rx,0,8,91,43,B6,00,00,E4,00,00,
945597,0000019C,false,Rx,0,8,40,20,00,00,00,00,0B,09,
945629,0000019D,false,Rx,0,8,00,10,00,01,00,00,00,00,
945647,0000019E,false,Rx,0,8,15,00,00,00,00,32,00,00,
946763,000001AB,false,Rx,0,8,A5,FB,AB,50,70,38,00,00,
946799,000001AC,false,Rx,0,8,00,28,00,00,00,00,00,00,
946817,000002FF,false,Rx,0,8,E2,01,00,F1,3F,00,00,00,
946834,00000472,false,Rx,0,8,5C,EC,00,40,08,41,00,45,
946852,00000316,false,Rx,0,8,2F,8E,DE,04,13,80,0A,00,
947593,00000473,false,Rx,0,8,5F,24,00,25,00,00,00,78,
947620,00000317,false,Rx,0,8,00,00,05,00,00,00,00,00,
947638,00000474,false,Rx,0,8,93,44,00,00,00,00,00,14,
948572,0000030B,false,Rx,0,8,8E,AA,DF,00,04,00,00,00,
950179,0000030C,false,Rx,0,8,00,00,0E,00,2C,00,A0,0F,
950342,0000030D,false,Rx,0,8,00,00,00,00,49,00,00,00,
950362,0000030E,false,Rx,0,8,00,00,38,05,21,00,00,02,
952986,0000036F,false,Rx,0,8,5F,81,01,00,00,00,00,00,
954300,0000037F,false,Rx,0,8,22,20,52,24,41,02,00,00,
955734,00000121,false,Rx,0,8,1B,B6,B9,00,00,00,00,05,
955771,000001A1,false,Rx,0,8,2E,91,55,FE,F7,7F,64,00,
955802,00000122,false,Rx,0,8,FF,D9,67,1F,48,46,48,47,
955820,000001A2,false,Rx,0,8,00,00,00,00,00,08,00,00,
955837,00000123,false,Rx,0,8,11,03,00,00,00,00,01,35,
955855,00000124,false,Rx,0,8,00,00,0A,00,00,00,20,40,
955872,000001A4,false,Rx,0,8,FE,07,00,00,00,00,00,00,
958789,00000036,false,Rx,0,8,F6,26,BB,51,00,00,25,01,
958866,00000037,false,Rx,0,8,3B,00,00,10,00,40,00,00,
958885,00000038,false,Rx,0,8,04,00,00,00,90,38,96,D4,
958902,00000039,false,Rx,0,8,00,00,00,00,00,00,00,00,
960137,00000061,false,Rx,0,8,3D,41,C1,00,00,00,00,00,
960311,00000062,false,Rx,0,8,02,02,00,02,40,FF,00,FF,
960329,00000063,false,Rx,0,8,00,00,05,00,00,08,FD,00,
961827,00000064,false,Rx,0,8,00,00,00,04,FF,FA,00,00,
961882,000000A1,false,Rx,0,8,06,62,C1,1A,00,00,00,00,
961901,000000A2,false,Rx,0,8,00,00,00,00,00,00,00,00,
961919,000000A3,false,Rx,0,8,00,40,01,00,00,00,00,00,
969594,00000236,false,Rx,0,8,06,4A,DF,00,6E,3C,34,6C,
969630,000002FB,false,Rx,0,8,1B,43,DF,04,5F,1A,CC,CC,
969655,00000237,false,Rx,0,8,00,15,BA,00,00,A7,1E,00,
969673,00000151,false,Rx,0,8,9F,E9,DF,A0,C8,00,28,19,
970651,00000238,false,Rx,0,8,00,00,5F,00,00,00,00,00,
970683,00000152,false,Rx,0,8,16,18,18,00,0B,00,00,00,
970701,000001E6,false,Rx,0,8,10,91,BB,02,00,00,00,00,
970718,00000153,false,Rx,0,8,00,00,00,00,00,00,00,00,
971743,000001E7,false,Rx,0,8,00,00,22,03,20,01,00,00,
971778,00000154,false,Rx,0,8,00,00,00,00,00,00,00,00,
971796,000001BB,false,Rx,0,8,FF,84,BB,02,00,00,00,0A,
971814,00000239,false,Rx,0,8,00,00,00,00,01,00,00,00,
973866,000001BC,false,Rx,0,8,32,00,00,00,02,00,00,00,
973908,000001F6,false,Rx,0,8,AC,CA,DF,00,00,00,00,0E,
973927,000001BD,false,Rx,0,8,00,00,00,00,00,00,00,00,
973944,000001F7,false,Rx,0,8,0B,00,00,00,00,00,00,00,
973962,000002FC,false,Rx,0,8,10,00,16,19,00,00,8E,BF,
975235,000001F8,false,Rx,0,8,00,00,00,00,00,00,00,00,
975269,0000025B,false,Rx,0,8,34,3A,DF,40,40,20,00,00,
975304,00000326,false,Rx,0,8,56,94,DF,00,00,00,00,00,
975322,0000025C,false,Rx,0,8,00,00,0B,00,34,89,19,00,
976589,00000327,false,Rx,0,8,00,00,00,00,05,00,00,00,
976639,00000328,false,Rx,0,8,00,00,00,00,00,00,00,00,
977610,0000025E,false,Rx,0,8,AC,07,0E,0F,00,00,00,00,
977636,00000329,false,Rx,0,8,A0,00,00,00,00,00,00,00,
977997,00000380,false,Rx,0,8,73,DE,00,0C,0C,0C,0C,01,
978018,00000331,false,Rx,0,8,45,DB,DF,F1,C8,A0,2C,97,
979290,00000332,false,Rx,0,8,94,02,00,00,00,00,00,00,
979316,00000334,false,Rx,0,8,C8,00,00,00,AC,70,1D,90,
979334,0000010E,false,Rx,0,8,00,00,1E,00,00,C0,AB,57,
979352,000002AB,false,Rx,0,8,71,7A,E0,0C,0C,00,00,00,
980694,00000252,false,Rx,0,8,00,00,1B,1B,03,00,00,00,
981145,000002AE,false,Rx,0,8,01,00,FF,3F,01,01,00,00,
982412,00000253,false,Rx,0,8,00,00,00,56,56,00,80,44,
984564,000002B6,false,Rx,0,8,0B,4D,E0,01,00,00,00,40,
985872,00000396,false,Rx,0,8,A6,DF,EF,0F,08,01,00,02,
986309,000002B7,false,Rx,0,8,EA,01,F0,78,00,04,00,00,
986330,000002B8,false,Rx,0,8,AA,11,11,00,00,00,00,00,
987677,00000398,false,Rx,0,8,00,00,00,00,00,00,00,00,
988865,000002E4,false,Rx,0,8,02,00,00,00,00,00,00,00,
988885,00000487,false,Rx,0,8,00,00,00,00,00,00,00,00,
988903,00000642,false,Rx,0,8,FF,FF,FF,FF,FF,FF,00,00,
988921,00000418,false,Rx,0,8,19,70,00,00,12,0C,00,00,
995591,0000019B,false,Rx,0,8,9C,85,BB,00,00,E4,00,00,
995631,0000019C,false,Rx,0,8,40,20,00,00,00,00,0B,09,
995649,0000019D,false,Rx,0,8,00,10,00,01,00,00,00,00,
995667,0000019E,false,Rx,0,8,15,00,00,00,00,32,00,00,
996664,000002D6,false,Rx,0,8,93,E4,EF,00,00,00,00,00,
996697,000002D7,false,Rx,0,8,00,00,00,00,03,00,00,00,
997816,000002D8,false,Rx,0,8,00,00,00,00,00,00,38,45,
998032,000002D9,false,Rx,0,8,00,00,00,00,00,00,00,00,
998052,000002EB,false,Rx,0,8,07,AD,EF,09,08,01,00,02,
998070,000002EC,false,Rx,0,8,02,00,00,00,00,00,00,00,
998087,000002ED,false,Rx,0,8,00,00,00,00,00,00,00,00,
999231,000002EE,false,Rx,0,8,00,00,00,00,00,00,00,00,
1002021,00000356,false,Rx,0,8,1B,1D,F0,00,00,00,00,00,
1002057,00000357,false,Rx,0,8,00,00,00,00,00,4B,4D,48,
1002075,00000358,false,Rx,0,8,35,41,45,4D,52,37,33,4F,
1002093,00000359,false,Rx,0,8,51,4F,34,52,4A,35,33,00,
1004591,00000121,false,Rx,0,8,E8,28,BE,00,00,00,00,05,
1005627,00000122,false,Rx,0,8,FF,D9,67,1F,48,46,48,47,
1005664,00000123,false,Rx,0,8,11,03,00,00,00,00,01,35,
1005683,00000124,false,Rx,0,8,00,00,0A,00,00,00,20,40,
1007279,00000091,false,Rx,0,8,5D,61,DE,13,00,00,00,00,
1007323,00000092,false,Rx,0,8,2F,00,00,00,F0,02,00,00,
1008528,00000093,false,Rx,0,8,00,00,00,00,00,00,00,00,
1008671,00000094,false,Rx,0,8,00,00,00,00,00,00,00,00,
1008690,00000036,false,Rx,0,8,57,59,C0,51,00,00,25,01,
1008708,00000037,false,Rx,0,8,3B,00,00,10,00,40,00,00,
1008726,00000038,false,Rx,0,8,04,00,00,00,90,38,96,D4,
1008743,00000039,false,Rx,0,8,00,00,00,00,00,00,00,00,
1010185,00000061,false,Rx,0,8,CE,DF,C6,00,00,00,00,00,
1010222,00000062,false,Rx,0,8,02,02,00,02,40,FF,00,FF,
1010638,00000063,false,Rx,0,8,00,00,05,00,00,08,FD,00,
1010663,00000064,false,Rx,0,8,00,00,00,04,FF,FA,00,00,
1011624,000000A1,false,Rx,0,8,0F,E7,C6,1A,00,00,00,00,
1011645,000003B6,false,Rx,0,8,B0,85,EE,00,00,00,00,46,
1011663,000000A2,false,Rx,0,8,00,00,00,00,00,00,00,00,
1011681,000003B7,false,Rx,0,8,46,00,00,00,00,00,00,00,
1013265,000000A3,false,Rx,0,8,00,40,01,00,00,00,00,00,
1013300,000003B8,false,Rx,0,8,0D,03,00,00,00,00,69,0E,
1013318,000003B9,false,Rx,0,8,00,00,00,00,00,00,00,00,
1014741,000001F1,false,Rx,0,8,46,05,8E,01,00,00,28,00,
1016215,000001F2,false,Rx,0,8,00,00,00,00,00,00,00,00,
1016579,00000146,false,Rx,0,8,27,B1,56,10,04,05,00,00,
1017613,00000147,false,Rx,0,8,01,04,7D,00,40,98,08,00,
1017648,00000148,false,Rx,0,8,00,00,42,00,1E,93,40,05,
1017665,00000149,false,Rx,0,8,00,38,00,D4,00,00,00,00,
1021588,000001B1,false,Rx,0,8,4C,75,56,00,72,00,00,00,
1023044,000001B2,false,Rx,0,8,23,00,04,EF,25,07,52,10,
1023079,000004A3,false,Rx,0,8,80,00,48,0B,3E,00,00,00,
1024670,000001B3,false,Rx,0,8,25,39,4B,00,7F,90,8E,8D,
1024710,000004A4,false,Rx,0,8,FF,FF,FF,00,00,00,00,00,
1024729,000001B4,false,Rx,0,8,77,88,10,00,00,41,01,00,
1024746,00000161,false,Rx,0,8,AD,C1,59,03,00,00,00,02,
1024763,00000162,false,Rx,0,8,FF,FC,01,00,00,00,00,00,
1027077,000003AA,false,Rx,0,8,FF,00,B0,00,54,00,00,00,
1027112,0000010B,false,Rx,0,8,24,53,C2,00,00,00,00,05,
1027130,0000010C,false,Rx,0,8,FF,F9,E7,1F,46,45,46,46,
1028388,0000010D,false,Rx,0,8,10,03,00,00,00,00,01,35,
1028555,00000495,false,Rx,0,8,49,00,00,00,00,00,00,00,
1028573,0000010E,false,Rx,0,8,00,00,1E,00,00,C0,AB,57,
1028591,00000565,false,Rx,0,8,66,02,00,00,00,00,FF,FF,
1033592,000003B0,false,Rx,0,8,72,37,FF,C7,00,00,03,C0,
1034608,0000011B,false,Rx,0,8,BE,98,B3,05,80,08,A8,02,
1034640,0000011C,false,Rx,0,8,00,05,20,00,22,00,01,01,
1035731,0000012B,false,Rx,0,8,F9,62,B3,06,00,00,08,00,
1035766,0000012C,false,Rx,0,8,00,00,01,00,00,64,00,00,
1035785,000003B1,false,Rx,0,8,9B,3C,FF,40,00,00,20,00,
1037590,00000448,false,Rx,0,8,00,C0,00,00,00,00,00,00,
1039852,00000384,false,Rx,0,8,C5,8D,05,01,00,FF,00,14,
1042590,00000401,false,Rx,0,8,A9,30,10,00,00,04,00,00,
1043593,000003B2,false,Rx,0,8,36,15,FF,02,29,2F,34,00,
1045180,0000019B,false,Rx,0,8,3D,FA,C0,00,00,E4,00,00,
1045331,0000019C,false,Rx,0,8,40,20,00,00,00,00,0B,09,
1045369,0000019D,false,Rx,0,8,00,10,00,01,00,00,00,00,
1045387,0000019E,false,Rx,0,8,15,00,00,00,00,32,00,00,
1046677,000001AB,false,Rx,0,8,67,21,B0,50,70,38,00,00,
1046714,00000226,false,Rx,0,8,0A,71,BD,FF,30,E1,05,42,
1046748,000001AC,false,Rx,0,8,00,28,00,00,00,00,00,00,
1046765,00000227,false,Rx,0,8,02,70,E1,08,00,F2,17,04,
1048266,0000042A,false,Rx,0,8,9F,1D,02,02,00,10,00,00,
1049209,00000427,false,Rx,0,8,1D,86,FF,00,80,0A,00,00,
1053596,0000036F,false,Rx,0,8,E6,91,01,00,00,00,00,00,
1053635,0000037F,false,Rx,0,8,9B,30,52,24,41,02,00,00,
1054599,00000121,false,Rx,0,8,FC,90,C3,00,00,00,00,05,
1054632,00000122,false,Rx,0,8,FF,D9,67,1F,48,46,48,47,
1054650,00000123,false,Rx,0,8,11,03,00,00,00,00,01,35,
1055679,00000124,false,Rx,0,8,00,00,0A,00,00,00,20,40,
1057270,000001A1,false,Rx,0,8,AF,E5,5A,FE,F7,7F,64,00,
1057324,000001A2,false,Rx,0,8,00,00,00,00,00,08,00,00,
1057377,000001A3,false,Rx,0,8,FF,F3,3F,00,00,00,00,00,
1057395,000001A4,false,Rx,0,8,FE,07,00,00,00,00,00,00,
1057413,00000036,false,Rx,0,8,28,75,C5,51,00,00,25,01,
1058310,00000037,false,Rx,0,8,3B,00,00,10,00,40,00,00,
1058345,00000038,false,Rx,0,8,04,00,00,00,90,38,96,D4,
1058363,00000039,false,Rx,0,8,00,00,00,00,00,00,00,00,
1060592,00000061,false,Rx,0,8,C3,19,CB,00,00,00,00,00,
1060631,00000062,false,Rx,0,8,02,02,00,02,40,FF,00,FF,
1060650,00000063,false,Rx,0,8,00,00,05,00,00,08,FD,00,
1060667,00000064,false,Rx,0,8,00,00,00,04,FF,FA,00,00,
1061598,000000A1,false,Rx,0,8,39,A4,CB,1A,00,00,00,00,
1061635,000000A2,false,Rx,0,8,00,00,00,00,00,00,00,00,
1061653,000000A3,false,Rx,0,8,00,40,01,00,00,00,00,00,
1066594,000001E1,false,Rx,0,8,06,F5,BE,02,00,00,00,00,
1066630,000001E2,false,Rx,0,8,00,00,00,00,00,00,00,00,
1076592,0000010B,false,Rx,0,8,5B,7F,C7,00,00,00,00,05,
1077597,0000010C,false,Rx,0,8,FF,F9,E7,1F,46,45,46,46,
1077630,0000010D,false,Rx,0,8,10,03,00,00,00,00,01,35,
1077648,0000010E,false,Rx,0,8,00,00,1E,00,00,C0,AB,57,
1079068,000002C1,false,Rx,0,8,49,6F,F1,21,00,41,00,AC,
1079128,000002C2,false,Rx,0,8,1B,00,00,00,00,00,00,00,
1079146,000002C3,false,Rx,0,8,00,00,00,00,00,00,00,00,
1080510,000002C4,false,Rx,0,8,00,00,00,00,00,00,00,00,
1085582,0000011B,false,Rx,0,8,76,61,B8,05,80,08,A8,02,
1085609,0000011C,false,Rx,0,8,00,05,20,00,22,00,01,01,
1085627,0000012B,false,Rx,0,8,31,9B,B8,06,00,00,08,00,
1085644,0000012C,false,Rx,0,8,00,00,01,00,00,64,00,00,
1086564,000001FB,false,Rx,0,8,35,F6,DF,00,00,00,00,00,
1086596,000001FC,false,Rx,0,8,00,00,00,00,00,00,00,00,
1086615,000001FD,false,Rx,0,8,00,1A,03,00,00,00,00,00,
1087562,000001FE,false,Rx,0,8,00,00,00,00,00,00,00,00,
1088566,000003A1,false,Rx,0,8,B7,AC,01,00,FF,FF,FF,FF,
1088588,000003A2,false,Rx,0,8,00,00,00,00,00,00,00,00,
1092563,000000C5,false,Rx,0,8,00,00,00,00,00,00,00,00,
1092583,00000244,false,Rx,0,8,FF,FF,FF,FF,FF,FF,FF,FF,
1092601,000003E4,false,Rx,0,8,FE,00,00,00,00,00,00,00,
1092619,000004B4,false,Rx,0,8,00,00,00,00,00,00,00,00,
1093563,000004B5,false,Rx,0,8,08,00,F0,07,00,00,00,00,
1093586,000004B7,false,Rx,0,8,08,00,F0,07,00,00,00,00,
1093604,000004CA,false,Rx,0,8,00,00,00,00,00,00,00,00,
1093622,000004CC,false,Rx,0,8,08,00,00,06,00,00,03,00,
1094574,000004CE,false,Rx,0,8,14,01,FF,FF,FF,FF,FF,FF,
1094598,000004D7,false,Rx,0,8,23,01,00,00,00,00,00,00,
1094615,000004D8,false,Rx,0,8,41,10,F0,F0,40,F2,1E,CC,
1094633,000004DD,false,Rx,0,8,00,00,FE,00,04,00,00,00,
1095565,0000019B,false,Rx,0,8,42,D6,C5,00,00,E4,00,00,
1095591,000004DF,false,Rx,0,8,FF,03,0C,3F,00,00,00,00,
1095608,0000019C,false,Rx,0,8,40,20,00,00,00,00,0B,09,
1095626,000004E7,false,Rx,0,8,00,30,00,00,00,00,69,00,
1096563,0000019D,false,Rx,0,8,00,10,00,01,00,00,00,00,
1096587,000004E8,false,Rx,0,8,FF,FF,FF,05,FF,FF,FF,00,
1096605,0000019E,false,Rx,0,8,15,00,00,00,00,32,00,00,
1096623,000004E9,false,Rx,0,8,12,00,00,34,00,00,50,00,
1097564,000004EA,false,Rx,0,8,67,00,00,89,00,00,00,00,
1097595,000004EB,false,Rx,0,8,10,80,34,38,80,00,00,00,
1097612,000004EC,false,Rx,0,8,00,00,00,00,00,00,00,00,
1097630,000004ED,false,Rx,0,8,00,00,00,00,00,FF,FF,1F,
1098563,000004EE,false,Rx,0,8,FF,FF,00,00,00,00,00,00,
1098587,000004EF,false,Rx,0,8,60,00,60,00,29,14,00,00,
1098604,0000063D,false,Rx,0,8,00,80,00,00,00,00,00,00,
1099564,0000063E,false,Rx,0,8,FF,FF,FF,FF,FF,FF,FF,FF,
1099589,0000063F,false,Rx,0,8,00,10,00,C4,FF,00,00,00,
1099607,00000640,false,Rx,0,8,FF,FF,FF,00,FF,FF,FF,00,
1099624,0000033B,false,Rx,0,8,36,58,E1,00,00,00,00,00,
1100563,00000641,false,Rx,0,8,FF,FF,FF,FF,0F,FF,FF,FF,
1100587,0000033C,false,Rx,0,8,00,00,00,00,F0,00,00,00,
1100605,00000646,false,Rx,0,8,00,00,00,80,01,00,00,00,
1100623,0000033D,false,Rx,0,8,00,00,00,00,00,00,00,00,
1101564,0000033E,false,Rx,0,8,00,00,00,00,00,00,00,00,
1102564,000000FF,false,Rx,0,8,CB,10,00,00,00,00,02,00,
1103570,00000394,false,Rx,0,8,2A,22,1A,49,00,00,00,00,
1103594,000003C3,false,Rx,0,8,45,10,31,30,36,00,00,00,
1104564,00000121,false,Rx,0,8,44,91,C8,00,00,00,00,05,
1104589,000003E0,false,Rx,0,8,66,20,01,00,54,03,00,00,
1104606,00000122,false,Rx,0,8,FF,D9,67,1F,48,46,48,47,
1105642,00000123,false,Rx,0,8,11,03,00,00,00,00,01,35,
1105669,000003E5,false,Rx,0,8,37,80,01,00,00,00,00,00,
1105687,00000124,false,Rx,0,8,00,00,0A,00,00,00,20,40,
1105704,000003E6,false,Rx,0,8,67,90,00,00,00,00,00,00,
1105722,0000041A,false,Rx,0,8,8D,D0,12,00,00,00,00,00,
1106573,0000041B,false,Rx,0,8,70,D0,00,00,00,00,00,00,
1106597,0000041C,false,Rx,0,8,48,00,E0,00,00,00,00,00,
1106615,00000422,false,Rx,0,8,9D,70,01,00,00,00,04,00,
1107568,00000091,false,Rx,0,8,3C,29,DF,13,00,00,00,00,
1107588,00000432,false,Rx,0,8,03,20,02,00,00,00,00,00,
1107606,00000092,false,Rx,0,8,2E,00,00,00,E0,02,00,00,
1107624,00000036,false,Rx,0,8,A9,01,CA,51,00,00,25,01,
1108569,00000435,false,Rx,0,8,26,C0,00,40,00,00,00,00,
1108589,00000037,false,Rx,0,8,3B,00,00,10,00,40,00,00,
1108607,00000442,false,Rx,0,8,CE,20,11,81,00,00,00,00,
1108625,00000038,false,Rx,0,8,04,00,00,00,90,38,96,D4,
1109567,00000444,false,Rx,0,8,D5,20,20,50,55,50,00,00,
1109588,00000039,false,Rx,0,8,00,00,00,00,00,00,00,00,
1109605,00000445,false,Rx,0,8,C6,C0,00,00,00,00,00,18,
1109623,00000093,false,Rx,0,8,00,00,00,00,00,00,00,00,
1110749,00000094,false,Rx,0,8,00,00,00,00,00,00,00,00,
1110784,00000464,false,Rx,0,8,D5,20,F0,FF,38,7F,05,00,
1110802,00000061,false,Rx,0,8,BE,DC,D0,00,00,00,00,00,
1110820,00000062,false,Rx,0,8,02,02,00,02,40,FF,00,FF,
1110837,00000256,false,Rx,0,8,9A,DF,DE,15,40,00,00,01,
1111835,00000063,false,Rx,0,8,00,00,05,00,00,08,FD,00,
1111884,00000257,false,Rx,0,8,00,93,42,1B,86,07,00,94,
1112224,00000064,false,Rx,0,8,00,00,00,04,FF,FA,00,00,
1112251,00000258,false,Rx,0,8,0C,7A,1E,00,10,15,00,28,
1112525,000000A1,false,Rx,0,8,56,15,D0,1A,00,00,00,00,
1112630,00000259,false,Rx,0,8,5D,05,8C,3C,4C,02,00,00,
1112651,000000A2,false,Rx,0,8,00,00,00,00,00,00,00,00,
1112669,000002E6,false,Rx,0,8,1D,2F,DE,01,00,00,00,15,
1113565,000000A3,false,Rx,0,8,00,40,01,00,00,00,00,00,
1113605,000002E7,false,Rx,0,8,0A,00,00,00,00,00,00,00,
1113623,000002E8,false,Rx,0,8,00,00,00,00,00,00,00,00,
1113641,000002E9,false,Rx,0,8,00,00,00,00,00,00,00,00,
1116560,00000146,false,Rx,0,8,DC,B1,5B,10,04,05,00,00,
1117563,00000147,false,Rx,0,8,01,04,7D,00,40,97,08,00,
1117585,00000148,false,Rx,0,8,00,00,42,00,1E,93,40,05,
1117603,00000149,false,Rx,0,8,00,38,00,D4,00,00,00,00,
1120560,00000566,false,Rx,0,8,16,02,00,00,00,00,FF,FF,
1120588,000001E6,false,Rx,0,8,E6,B9,BE,02,00,00,00,00,
1120606,000001E7,false,Rx,0,8,00,00,22,03,20,01,00,00,
1121560,000001BB,false,Rx,0,8,F0,6F,BE,02,00,00,00,0A,
1121589,000001BC,false,Rx,0,8,32,00,00,00,02,00,00,00,
1121607,000001BD,false,Rx,0,8,00,00,00,00,00,00,00,00,
1122560,000001B1,false,Rx,0,8,41,B3,5B,00,72,00,00,00,
1122589,000001B2,false,Rx,0,8,23,00,04,EF,25,07,52,10,
1122607,000001B3,false,Rx,0,8,25,39,4B,00,7F,90,8E,8D,
1122625,000001B4,false,Rx,0,8,77,88,10,00,00,41,01,00,
1125563,000002BF,false,Rx,0,8,FF,FF,FF,00,00,00,00,00,
1125590,00000161,false,Rx,0,8,32,A9,5E,03,00,00,00,02,
1125608,0000047F,false,Rx,0,8,FF,FC,FF,FF,FF,3F,F3,FF,
1125625,00000162,false,Rx,0,8,FF,FC,01,00,00,00,00,00,
1126575,00000653,false,Rx,0,8,0A,19,03,01,02,2A,00,00,
1126602,0000010B,false,Rx,0,8,A6,8D,CC,00,00,00,00,05,
1127565,0000010C,false,Rx,0,8,FF,F9,E7,1F,46,45,46,46,
1127587,0000010D,false,Rx,0,8,0F,03,00,00,00,00,01,35,
1127604,0000010E,false,Rx,0,8,00,00,1E,00,00,C0,AB,57,
1131564,00000475,false,Rx,0,8,12,00,00,00,00,00,00,00,
1131590,00000496,false,Rx,0,8,12,00,00,00,00,00,00,00,
1134564,0000011B,false,Rx,0,8,80,49,BD,05,80,08,A8,02,
1134593,0000011C,false,Rx,0,8,00,05,20,00,22,00,01,01,
1135574,0000012B,false,Rx,0,8,C7,B3,BD,06,00,00,08,00,
1135599,00000111,false,Rx,0,8,6D,D2,E5,01,00,00,00,00,
1135617,0000012C,false,Rx,0,8,00,00,01,00,00,64,00,00,
1135635,00000112,false,Rx,0,8,00,00,00,00,00,00,00,00,
1136564,00000113,false,Rx,0,8,00,00,00,00,00,00,00,00,
1136589,00000114,false,Rx,0,8,00,00,00,00,00,00,00,00,
1144569,0000019B,false,Rx,0,8,C3,A2,CA,00,00,E4,00,00,
1145565,0000019C,false,Rx,0,8,40,20,00,00,00,00,0B,09,
1145588,0000019D,false,Rx,0,8,00,10,00,01,00,00,00,00,
1145605,0000019E,false,Rx,0,8,15,00,00,00,00,32,00,00,
1146564,000001AB,false,Rx,0,8,91,09,B5,50,70,38,00,00,
1146587,000001AC,false,Rx,0,8,00,28,00,00,00,00,00,00,
1146605,000002FF,false,Rx,0,8,E2,01,00,F1,3F,00,00,00,
1146622,00000472,false,Rx,0,8,5C,EC,00,40,08,41,00,45,
1147564,00000316,false,Rx,0,8,0B,26,DF,04,13,80,0A,00,
1147589,00000473,false,Rx,0,8,5F,24,00,25,00,00,00,78,
1147607,00000317,false,Rx,0,8,00,00,05,00,00,00,00,00,
1147625,00000474,false,Rx,0,8,93,44,00,00,00,00,00,14,
1148565,0000030B,false,Rx,0,8,87,68,E1,00,04,00,00,00,
1149573,0000030C,false,Rx,0,8,00,00,0E,00,2C,00,A0,0F,
1149595,0000030D,false,Rx,0,8,00,00,00,00,49,00,00,00,
1149613,0000030E,false,Rx,0,8,00,00,38,05,21,00,00,04,
1153992,0000036F,false,Rx,0,8,30,A1,01,00,00,00,00,00,
1154026,0000037F,false,Rx,0,8,93,40,52,24,41,02,00,00,
1154043,00000121,false,Rx,0,8,3B,BD,CD,00,00,00,00,05,
1154570,00000122,false,Rx,0,8,FF,D9,67,1F,48,46,48,47,
1154595,00000123,false,Rx,0,8,11,03,00,00,00,00,01,35,
1155597,00000124,false,Rx,0,8,00,00,0A,00,00,00,20,40,
1155621,000001A1,false,Rx,0,8,D0,C9,5F,FE,F7,7F,64,00,
1155638,000001A2,false,Rx,0,8,00,00,00,00,00,08,00,00,
1156577,000001A3,false,Rx,0,8,FF,F3,3F,00,00,00,00,00,
1156602,000001A4,false,Rx,0,8,FE,07,00,00,00,00,00,00,
1158282,00000036,false,Rx,0,8,D6,2D,CF,51,00,00,25,01,
1158315,00000037,false,Rx,0,8,3B,00,00,10,00,40,00,00,
1158333,00000038,false,Rx,0,8,04,00,00,00,90,38,96,D4,
1158350,00000039,false,Rx,0,8,00,00,00,00,00,00,00,00,
1161235,00000061,false,Rx,0,8,C1,F0,D5,00,00,00,00,00,
1161288,00000062,false,Rx,0,8,02,02,00,02,40,FF,00,FF,
1161307,00000063,false,Rx,0,8,00,00,05,00,00,08,FD,00,
1161324,00000064,false,Rx,0,8,00,00,00,04,FF,FA,00,00,
1161341,000000A1,false,Rx,0,8,59,FE,D5,1A,00,00,00,00,
1161705,000000A3,false,Rx,0,8,00,40,01,00,00,00,00,00,
1165117,000001F1,false,Rx,0,8,56,5F,91,01,00,00,28,00,
1165152,000001F2,false,Rx,0,8,00,00,00,00,00,00,00,00,
1169587,00000236,false,Rx,0,8,AF,3A,E1,00,6E,3C,34,6C,
1169624,00000237,false,Rx,0,8,00,15,BA,00,00,A7,1E,00,
1169642,000002FB,false,Rx,0,8,B2,33,E1,04,5F,1A,CC,CC,
1170628,00000238,false,Rx,0,8,00,00,5F,00,00,00,00,00,
1170681,000002FC,false,Rx,0,8,10,00,16,19,00,00,8E,BF,
1170699,00000239,false,Rx,0,8,00,00,00,00,01,00,00,00,
1170716,00000151,false,Rx,0,8,36,99,E1,A0,C8,00,28,19,
1170734,000001F6,false,Rx,0,8,05,BA,E1,00,00,00,00,0E,
1171784,00000152,false,Rx,0,8,16,18,18,00,0B,00,00,00,
1171819,000001F7,false,Rx,0,8,0B,00,00,00,00,00,00,00,
1171837,00000153,false,Rx,0,8,00,00,00,00,00,00,00,00,
1171855,000001F8,false,Rx,0,8,00,00,00,00,00,00,00,00,
1173149,00000154,false,Rx,0,8,00,00,00,00,00,00,00,00,
1173184,000001F9,false,Rx,0,8,00,00,A0,C8,14,00,00,00,
1173203,000002FD,false,Rx,0,8,00,00,00,00,00,1C,0E,EA,
1173220,0000025B,false,Rx,0,8,6C,61,E1,40,40,20,00,00,
1173635,000002FE,false,Rx,0,8,00,00,72,01,00,28,00,00,
1173669,0000025C,false,Rx,0,8,00,00,0B,00,34,89,19,00,
1173687,00000326,false,Rx,0,8,FF,E4,E1,00,00,00,00,00,
1174596,0000025D,false,Rx,0,8,00,C8,00,00,00,80,C0,70,
1174642,00000327,false,Rx,0,8,00,00,00,00,05,00,00,00,
1176238,00000380,false,Rx,0,8,73,DE,00,0C,0C,0C,0C,01,
1176332,00000329,false,Rx,0,8,A0,00,00,00,00,00,00,00,
1177400,0000010B,false,Rx,0,8,DD,A9,D1,00,00,00,00,05,
1178788,00000411,false,Rx,0,8,A8,01,50,50,00,00,44,04,
1179237,00000412,false,Rx,0,8,6D,60,00,00,00,00,00,00,
1179581,000002AD,false,Rx,0,8,00,01,00,40,FF,FF,FF,0F,
1180880,00000252,false,Rx,0,8,00,00,1B,1B,03,00,00,00,
1180914,000002AE,false,Rx,0,8,01,00,FF,3F,01,01,00,00,
1182123,00000253,false,Rx,0,8,00,00,00,56,56,00,80,44,
1182191,000002B6,false,Rx,0,8,87,FF,E2,01,00,00,00,40,
1182622,00000396,false,Rx,0,8,8A,44,F0,0F,08,01,00,02,
1182643,000002B7,false,Rx,0,8,EA,01,F0,78,00,04,00,00,
1182661,00000397,false,Rx,0,8,25,00,00,00,00,00,00,00,
1182679,000002B8,false,Rx,0,8,AA,11,11,00,00,00,00,00,
1183954,000002E1,false,Rx,0,8,DE,ED,E2,00,00,00,00,40,
1183987,000002E2,false,Rx,0,8,FD,00,00,00,00,14,00,04,
